(1495807678.172432) can0 333#0000000000000000
(1495807678.173435) can0 326#81A021DC81A100C8
(1495807678.174442) can0 42F#7D04002E66040177
(1495807678.176906) can0 3A5#0000000000000000
(1495807678.177930) can0 3AD#FFFFFFFFFFFFFFFF
(1495807678.180941) can0 167#727FFF100019F700
(1495807678.184322) can0 216#0000000082000000
(1495807678.185329) can0 33B#0000000000000000
(1495807678.186340) can0 415#0000F4EF0FFE0FFE
(1495807678.191684) can0 167#727FFF100019F700
(1495807678.196061) can0 466#701CE831B2403800
(1495807678.200894) can0 167#727FFF100019F700
(1495807678.201902) can0 42F#7D04002E66040177
(1495807678.203268) can0 3A4#0000000000000000
(1495807678.204283) can0 3AC#FFFFFFFFFFFFFFFF
(1495807678.205313) can0 216#0000000082000000
(1495807678.206319) can0 415#0000F8EE0FFE0FFE
(1495807678.207676) can0 083#0000000000017EF5
(1495807678.208688) can0 3BC#0C00089601B02700
(1495807678.209694) can0 42A#D8526CE000000000
(1495807678.210705) can0 42C#05515400AA46A600
(1495807678.211726) can0 42E#9B0000E17607BC41
(1495807678.212743) can0 167#727FFF100019F700
(1495807678.213766) can0 178#000001FF0E89CE8A
(1495807678.214776) can0 504#0512000000000000
(1495807678.220945) can0 167#727FFF100019F700
(1495807678.224090) can0 216#0000000082000000
(1495807678.225100) can0 415#0000FCED0FFE0FFE
(1495807678.226949) can0 3A5#0000000000000000
(1495807678.227952) can0 3AD#FFFFFFFFFFFFFFFF
(1495807678.231448) can0 167#727FFF100019F700
(1495807678.232886) can0 42F#7D04002E66040177
(1495807678.233950) can0 346#000000030300C000
(1495807678.234962) can0 348#0000000000000000
(1495807678.240891) can0 167#727FFF100019F800
(1495807678.244104) can0 216#0000000082000000
(1495807678.245118) can0 33B#0000000000000000
(1495807678.246122) can0 415#0000C0FC0FFE0FFE
(1495807678.249983) can0 3B6#08000000307FE171
(1495807678.250984) can0 3B7#0000020060A67BEB
(1495807678.251997) can0 167#727FFF100019F800
(1495807678.253015) can0 332#0000000000000000
(1495807678.254028) can0 3A4#0000000000000000
(1495807678.255036) can0 33A#0000000000000000
(1495807678.256047) can0 3AC#FFFFFFFFFFFFFFFF
(1495807678.257075) can0 083#0000000000017EF4
(1495807678.258079) can0 3BC#0C00089601B02700
(1495807678.259088) can0 3BE#00204CEE4000D300
(1495807678.260099) can0 3DE#0000000080000000
(1495807678.261117) can0 42A#D8526DE000000000
(1495807678.262130) can0 167#727FFF100019F800
(1495807678.263139) can0 42C#05515400AA7EA600
(1495807678.264149) can0 42E#9F0000E1780BBC70
(1495807678.265164) can0 216#0000000082000000
(1495807678.266171) can0 415#0000C4FB0FFE0FFE
(1495807678.267203) can0 42F#7D04002E66040177
(1495807678.271425) can0 167#727FFF100019F700
(1495807678.272455) can0 333#0000000000000000
(1495807678.273464) can0 326#81A021DC81A100C8
(1495807678.276967) can0 3A5#0000000000000000
(1495807678.277974) can0 3AD#FFFFFFFFFFFFFFFF
(1495807678.280908) can0 167#727FFF100019F700
(1495807678.284335) can0 216#0000000082000000
(1495807678.285342) can0 415#0000C8FA0FFE0FFE
(1495807678.291711) can0 167#727FFF100019F700
(1495807678.293131) can0 42F#7D04002E66030177
(1495807678.300715) can0 40A#C110409060250000
(1495807678.301715) can0 167#727FFF100019F700
(1495807678.303340) can0 3A4#0000000000000000
(1495807678.304342) can0 3AC#FFFFFFFFFFFFFFFF
(1495807678.305346) can0 216#0000000082000000
(1495807678.306365) can0 33B#0000000000000000
(1495807678.307378) can0 415#0000CCF90FFE0FFE
(1495807678.308393) can0 083#0000000000017EF4
(1495807678.309407) can0 3BC#0C00089601B02700
(1495807678.310438) can0 42A#D8526DE000000000
(1495807678.311469) can0 42C#05515400AA46A600
(1495807678.312471) can0 42E#9B0000E17707BC41
(1495807678.313481) can0 167#727FFF100019F700
(1495807678.314492) can0 178#000001FF0E89CE8A
(1495807678.315510) can0 505#0B12000000000000
(1495807678.320912) can0 167#727FFF100019F700
(1495807678.321925) can0 42F#7D04002E66030177
(1495807678.324167) can0 216#0000000082000000
(1495807678.325184) can0 415#0000D0F80FFE0FFE
(1495807678.326985) can0 3A5#0000000000000000
(1495807678.327995) can0 3A7#0E400A045F700000
(1495807678.329017) can0 3AD#FFFFFFFFFFFFFFFF
(1495807678.331464) can0 167#727FFF100019F700
(1495807678.333256) can0 346#000000030300C000
(1495807678.334267) can0 348#0000000000000000
(1495807678.340978) can0 167#727FFF100019F700
(1495807678.344346) can0 216#0000000082000000
(1495807678.345352) can0 415#0000D4F70FFE0FFE
(1495807678.351473) can0 167#727FFF100019F700
(1495807678.352934) can0 332#0000000000000000
(1495807678.353968) can0 3A4#0000000000000000
(1495807678.354977) can0 33A#0000000000000000
(1495807678.355973) can0 3A6#0E400A045F700000
(1495807678.356989) can0 3AC#FFFFFFFFFFFFFFFF
(1495807678.357994) can0 083#0000000000017EF4
(1495807678.359014) can0 3BC#0C00089601AF2700
(1495807678.360027) can0 3BE#00204CEE4000D300
(1495807678.361042) can0 3C4#7796E831000093DE
(1495807678.362053) can0 167#727FFF100019F700
(1495807678.363065) can0 42A#D8526EE000000000
(1495807678.364092) can0 42C#05515400AA7EA600
(1495807678.365102) can0 216#0000000082000000
(1495807678.366103) can0 33B#0000000000000000
(1495807678.367113) can0 415#0000D8F60FFE0FFE
(1495807678.368123) can0 42E#9F0000E1770BBC70
(1495807678.369145) can0 42F#7D04002E66020177
(1495807678.371471) can0 167#727FFF100019F700
(1495807678.372474) can0 333#0000000000000000
(1495807678.373516) can0 326#81A021DC81A100C8
(1495807678.377022) can0 3A5#0000000000000000
(1495807678.378033) can0 3AD#FFFFFFFFFFFFFFFF
(1495807678.380979) can0 167#727FFF100019F700
(1495807678.381989) can0 42F#7D04002E66030177
(1495807678.384477) can0 216#0000000082000000
(1495807678.386115) can0 415#0000DCF50FFE0FFE
(1495807678.391737) can0 167#727FFF100019F700
(1495807678.400925) can0 167#727FFF100019F700
(1495807678.403555) can0 3A4#0000000000000000
(1495807678.404566) can0 3AC#FFFFFFFFFFFFFFFF
(1495807678.405576) can0 216#0000000082000000
(1495807678.406600) can0 415#0000E0F40FFE0FFE
(1495807678.407605) can0 083#0000000000017EF4
(1495807678.408616) can0 3BC#0C00089601AF2700
(1495807678.409628) can0 42A#D8526EE000000000
(1495807678.410637) can0 42C#05515400AA46A600
(1495807678.411648) can0 42E#9B0000E17507BC41
(1495807678.412662) can0 167#727FFF100019F700
(1495807678.413672) can0 178#000001FE0E89CE8A
(1495807678.415807) can0 42F#7D04002E66030177
(1495807678.418662) can0 50B#1E12000000000000
(1495807678.420980) can0 167#727FFF100019F700
(1495807678.424153) can0 216#0000000082000000
(1495807678.425612) can0 33B#0000000000000000
(1495807678.426621) can0 415#0000E4F30FFE0FFE
(1495807678.427634) can0 3A5#0000000000000000
(1495807678.428650) can0 3AD#FFFFFFFFFFFFFFFF
(1495807678.431488) can0 167#727FFF100019F800
(1495807678.433676) can0 346#000000030300C000
(1495807678.434684) can0 348#0000000000000000
(1495807678.438739) can0 304#0800000000000000
(1495807678.440934) can0 167#727FFF100019F800
(1495807678.441948) can0 42F#7D04002E66050177
(1495807678.444168) can0 216#0000000082000000
(1495807678.445181) can0 415#0000E8F20FFE0FFE
(1495807678.451488) can0 167#727FFF100019F800
(1495807678.452882) can0 332#0000000000000000
(1495807678.453893) can0 3A4#0000000000000000
(1495807678.454905) can0 33A#0000000000000000
(1495807678.455920) can0 3AC#FFFFFFFFFFFFFFFF
(1495807678.456936) can0 083#0000000000017EF4
(1495807678.457940) can0 33F#0100000000000000
(1495807678.458956) can0 3BC#0C00089601AF2700
(1495807678.459984) can0 3BE#00204CEE4000D300
(1495807678.460993) can0 42A#D8526DE000000000
(1495807678.461994) can0 167#727FFF100019F800
(1495807678.463005) can0 42C#05515400AA7EA600
(1495807678.464016) can0 42E#9F0000E1750BBC70
(1495807678.465028) can0 216#0000000082000000
(1495807678.466043) can0 415#0000ECF10FFE0FFE
(1495807678.471497) can0 167#727FFF100019F800
(1495807678.472503) can0 333#0000000000000000
(1495807678.473512) can0 42F#7D04002E66050177
(1495807678.474523) can0 124#0202000000000000
(1495807678.475537) can0 22C#000A000000000000
(1495807678.476563) can0 326#81A021DC81A100C8
(1495807678.477567) can0 355#60003D8000840000
(1495807678.478577) can0 356#003C4C4F4C4F0000
(1495807678.479588) can0 35E#00C000DAAB016800
(1495807678.480617) can0 3A5#0000000000000000
(1495807678.481618) can0 167#727FFF100019F800
(1495807678.482622) can0 3AD#FFFFFFFFFFFFFFFF
(1495807678.483636) can0 3E7#0000000000000000
(1495807678.484647) can0 41A#8A40000000000000
(1495807678.485655) can0 216#0000000082000000
(1495807678.486666) can0 33B#0000000000000000
(1495807678.487683) can0 415#0000F0F00FFE0FFE
(1495807678.491748) can0 167#727FFF100019F800
(1495807678.500970) can0 3B6#08000100307FE16D
(1495807678.501992) can0 167#727FFF100019F800
(1495807678.502997) can0 3B7#0000030060A65F8C
(1495807678.503999) can0 3A4#0000000000000000
(1495807678.505019) can0 3AC#FFFFFFFFFFFFFFFF
(1495807678.506019) can0 216#0000000082000000
(1495807678.507033) can0 3EB#5704140000100000
(1495807678.508042) can0 40A#C000000D11A2E600
(1495807678.509052) can0 083#0000000000017EF4
(1495807678.510062) can0 3BC#0C00089601AF2700
(1495807678.511079) can0 415#0000F4EF0FFE0FFE
(1495807678.512088) can0 42A#D8526DE000000000
(1495807678.513120) can0 42C#05515400AA47A700
(1495807678.514123) can0 167#727FFF100019F800
(1495807678.515126) can0 42E#9B0000E17607BC41
(1495807678.516138) can0 178#000002000E89CE8A
(1495807678.517146) can0 42F#7D04002E66050177
(1495807678.518154) can0 3E2#0000000080000000
(1495807678.519166) can0 447#2100000002000000
(1495807678.520183) can0 51E#3B02000000000000
(1495807678.521194) can0 167#727FFF100019F800
(1495807678.525125) can0 216#0000000082000000
(1495807678.526130) can0 415#0000F8EE0FFE0FFE
(1495807678.527146) can0 3A5#0000000000000000
(1495807678.528160) can0 3A7#0E400A045F700000
(1495807678.529174) can0 3AD#FFFFFFFFFFFFFFFF
(1495807678.531504) can0 167#727FFF100019F800
(1495807678.532955) can0 42F#7D04002E66040177
(1495807678.533957) can0 346#000000030300C000
(1495807678.534968) can0 348#0000000000000000
(1495807678.538793) can0 3E1#8000010701800000
(1495807678.541257) can0 167#727FFF100019F800
(1495807678.545087) can0 216#0000000082000000
(1495807678.546099) can0 33B#0000000000000000
(1495807678.547124) can0 415#0000FCED0FFE0FFE
(1495807678.550010) can0 3B4#401111FF25250000
(1495807678.551508) can0 167#727FFF100019F800
(1495807678.552884) can0 332#0000000000000000
(1495807678.553880) can0 3A4#0000000000000000
(1495807678.554885) can0 33A#0000000000000000
(1495807678.555898) can0 3A6#0E400A045F700000
(1495807678.556907) can0 3AC#FFFFFFFFFFFFFFFF
(1495807678.557916) can0 083#0000000000017EF5
(1495807678.558928) can0 3BC#0C00089601AF2700
(1495807678.559945) can0 3BE#00204CEE4000D301
(1495807678.560959) can0 3C4#7796E801000093DE
(1495807678.561969) can0 3D5#0400000000000000
(1495807678.562978) can0 42C#05515400AA7EA600
(1495807678.564002) can0 167#727FFF100019F800
(1495807678.565015) can0 42E#9F0000E1770BBC70
(1495807678.566011) can0 42A#D8526DE000000000
(1495807678.567023) can0 465#63EE415234F08FCC
(1495807678.568033) can0 216#0000000082000000
(1495807678.569052) can0 415#0000C0FC0FFE0FFE
(1495807678.570063) can0 42F#7D04002E66040177
(1495807678.571080) can0 467#AA80003593001028
(1495807678.572089) can0 167#727FFF100019F800
(1495807678.573105) can0 333#0000000000000000
(1495807678.574469) can0 326#81A021DC81A100C8
(1495807678.577286) can0 3A5#0000000000000000
(1495807678.578298) can0 3AD#FFFFFFFFFFFFFFFF
(1495807678.581017) can0 167#727FFF100019F800
(1495807678.585133) can0 216#0000000082000000
(1495807678.586136) can0 415#0000C4FB0FFE0FFE
(1495807678.591779) can0 167#727FFF100019F800
(1495807678.593257) can0 42F#7D04002E66050177
(1495807678.600522) can0 3B3#4048061210050022
(1495807678.601535) can0 167#727FFF100019F700
(1495807678.602545) can0 35D#0000000000000000
(1495807678.603562) can0 3C3#40C8000000004100
(1495807678.604575) can0 3A4#0000000000000000
(1495807678.605585) can0 3AC#FFFFFFFFFFFFFFFF
(1495807678.606599) can0 216#0000000082000000
(1495807678.607634) can0 33B#0000000000000000
(1495807678.608644) can0 083#0000000000017EF4
(1495807678.609652) can0 3BC#0C00089601B02700
(1495807678.610659) can0 415#0000C8FA0FFE0FFE
(1495807678.611674) can0 42A#D8526DE000000000
(1495807678.612696) can0 42C#05515400AA46A600
(1495807678.613713) can0 167#727FFF100019F700
(1495807678.614725) can0 178#000002010E89CE8A
(1495807678.615748) can0 42E#9B0000E17907BC41
(1495807678.616767) can0 53B#5D12000000000000
(1495807678.619654) can0 1E6#800CE80700000000
(1495807678.621018) can0 167#727FFF100019F700
(1495807678.622021) can0 42F#7D04002E66030177
(1495807678.625218) can0 216#0000000082000000
(1495807678.626226) can0 415#0000CCF90FFE0FFE
(1495807678.627235) can0 3A5#0000000000000000
(1495807678.628267) can0 3AD#FFFFFFFFFFFFFFFF
(1495807678.631523) can0 167#727FFF100019F700
(1495807678.633536) can0 346#000000030300C000
(1495807678.634538) can0 348#0000000000000000
(1495807678.640978) can0 167#727FFF100019F700
(1495807678.644647) can0 216#0000000082000000
(1495807678.645663) can0 415#0000D0F80FFE0FFE
(1495807678.651506) can0 167#727FFF100019F700
(1495807678.652900) can0 332#0000000000000000
(1495807678.653909) can0 3A4#0000000000000000
(1495807678.654918) can0 33A#0000000000000000
(1495807678.655931) can0 3AC#FFFFFFFFFFFFFFFF
(1495807678.656952) can0 42F#7D04002E66030177
(1495807678.657965) can0 083#0000000000017EF4
(1495807678.658974) can0 2FD#D400E3C108520000
(1495807678.659991) can0 3BC#0C00089601AF2700
(1495807678.661023) can0 3BE#00204CEE4000D300
(1495807678.662029) can0 167#727FFF100019F700
(1495807678.663024) can0 42A#D8526DE000000000
(1495807678.664036) can0 42C#05515400AA7EA600
(1495807678.665053) can0 42E#9F0000E1770BBC70
(1495807678.666059) can0 216#0000000082000000
(1495807678.667070) can0 33B#0000000000000000
(1495807678.668085) can0 415#0000D4F70FFE0FFE
(1495807678.671528) can0 167#727FFF100019F800
(1495807678.672542) can0 333#0000000000000000
(1495807678.674984) can0 2A0#FFFFFFFF00001E00
(1495807678.675996) can0 326#81A021DC81A100C8
(1495807678.677170) can0 3A5#0000000000000000
(1495807678.678188) can0 3AD#FFFFFFFFFFFFFFFF
(1495807678.681007) can0 167#727FFF100019F800
(1495807678.682022) can0 42F#7D04002E66040177
(1495807678.685197) can0 216#0000000082000000
(1495807678.686205) can0 415#0000D8F60FFE0FFE
(1495807678.690057) can0 331#C0061CB90CD49414
(1495807678.691778) can0 167#727FFF100019F800
(1495807678.700800) can0 40A#C100334641365030
(1495807678.701802) can0 167#727FFF100019F800
(1495807678.703526) can0 3A4#0000000000000000
(1495807678.704534) can0 3AC#FFFFFFFFFFFFFFFF
(1495807678.705731) can0 216#0000000082000000
(1495807678.706745) can0 415#0000DCF50FFE0FFE
(1495807678.707776) can0 083#0000000000017EF4
(1495807678.708784) can0 3BC#0C00089601B02700
(1495807678.709786) can0 42A#D8526DE000000000
(1495807678.710801) can0 42C#05515400AA46A600
(1495807678.711805) can0 42E#9B0000E17407BC41
(1495807678.712821) can0 167#727FFF100019F800
(1495807678.713826) can0 178#000001FF0E89CE8A
(1495807678.715300) can0 55D#0402000000000000
(1495807678.716318) can0 42F#7D04002E66040177
(1495807678.720995) can0 167#727FFF100019F800
(1495807678.724571) can0 216#0000000082000000
(1495807678.725586) can0 33B#0000000000000000
(1495807678.726605) can0 415#0000E0F40FFE0FFE
(1495807678.727610) can0 3A5#0000000000000000
(1495807678.728630) can0 3A7#0E400A045F700000
(1495807678.729655) can0 3AD#FFFFFFFFFFFFFFFF
(1495807678.731547) can0 167#727FFF100019F800
(1495807678.732974) can0 346#000000030300C000
(1495807678.733982) can0 348#0000000000000000
(1495807678.739809) can0 34E#0000000000000000
(1495807678.740821) can0 358#0000000000000000
(1495807678.741831) can0 167#727FFF100019F800
(1495807678.742846) can0 42F#7D04002E66050177
(1495807678.744589) can0 216#0000000082000000
(1495807678.745591) can0 415#0000E4F30FFE0FFE
(1495807678.750499) can0 331#C0061CB90CD49414
(1495807678.751505) can0 3B6#0800020000000000
(1495807678.752542) can0 167#727FFF100019F800
(1495807678.753538) can0 332#0000000000000000
(1495807678.754543) can0 3A4#0000000000000000
(1495807678.755562) can0 33A#0000000000000000
(1495807678.756580) can0 3A6#0E400A045F700000
(1495807678.757592) can0 083#0000000000017EF4
(1495807678.758602) can0 3AC#FFFFFFFFFFFFFFFF
(1495807678.759616) can0 3B7#0000000060A67C5C
(1495807678.760630) can0 3BC#0C00089601AF2700
(1495807678.761638) can0 084#11000092073A0900
(1495807678.762665) can0 167#727FFF100019F800
(1495807678.763665) can0 3BE#00204CEE4000D300
(1495807678.764680) can0 3C4#7796E801000093DE
(1495807678.765693) can0 216#0000000082000000
(1495807678.766706) can0 415#0000E8F20FFE0FFE
(1495807678.767720) can0 42A#D8526CE000000000
(1495807678.768736) can0 42C#05515400AA7EA600
(1495807678.769742) can0 42E#9F0000E1740BBC70
(1495807678.771566) can0 167#727FFF100019F800
(1495807678.772567) can0 333#0000000000000000
(1495807678.773580) can0 42F#7D04002E66050177
(1495807678.775436) can0 326#81A021DC81A100C8
(1495807678.777336) can0 3A5#0000000000000000
(1495807678.778356) can0 3AD#FFFFFFFFFFFFFFFF
(1495807678.781065) can0 167#727FFF100019F800
(1495807678.784509) can0 216#0000000082000000
(1495807678.785516) can0 33B#0000000000000000
(1495807678.786541) can0 415#0000ECF10FFE0FFE
(1495807678.791801) can0 167#727FFF100019F900
(1495807678.801009) can0 167#727FFF100019F900
(1495807678.802230) can0 42F#7D04002E66060176
(1495807678.803673) can0 3A4#0000000000000000
(1495807678.804683) can0 3AC#FFFFFFFFFFFFFFFF
(1495807678.805689) can0 216#0000000082000000
(1495807678.806708) can0 415#0000F0F00FFE0FFE
(1495807678.807726) can0 083#0000000000017EF4
(1495807678.808737) can0 3BC#0C00089601AF2700
(1495807678.809756) can0 42A#D8526CE000000000
(1495807678.810771) can0 42C#05515400AA46A600
(1495807678.811800) can0 42E#9B0000E17507BC41
(1495807678.812801) can0 167#727FFF100019F900
(1495807678.813806) can0 178#000001FF0E89CE8A
(1495807678.814814) can0 504#0512000000000000
(1495807678.821055) can0 167#727FFF100019F900
(1495807678.824302) can0 216#0000000082000000
(1495807678.825306) can0 415#0000F4EF0FFE0FFE
(1495807678.827224) can0 3A5#0000000000000000
(1495807678.828244) can0 3AD#FFFFFFFFFFFFFFFF
(1495807678.831576) can0 167#727FFF100019F900
(1495807678.833011) can0 42F#7D04002E66060176
(1495807678.834373) can0 346#000000030300C000
(1495807678.835381) can0 348#0000000000000000
(1495807678.841026) can0 167#727FFF100019F800
(1495807678.844236) can0 216#0000000082000000
(1495807678.845260) can0 33B#0000000000000000
(1495807678.846264) can0 415#0000F8EE0FFE0FFE
(1495807678.851561) can0 167#727FFF100019F800
(1495807678.852852) can0 332#0000000000000000
(1495807678.853865) can0 3A4#0000000000000000
(1495807678.854877) can0 33A#0000000000000000
(1495807678.855897) can0 3AC#FFFFFFFFFFFFFFFF
(1495807678.856929) can0 083#0000000000017EF4
(1495807678.857931) can0 3BC#0C00089601AE2700
(1495807678.858939) can0 3BE#00204CEE4000D300
(1495807678.859949) can0 42A#D8526DE000000000
(1495807678.860964) can0 42C#05515400AA7EA600
(1495807678.861977) can0 167#727FFF100019F800
(1495807678.862986) can0 42E#9F0000E1760BBC70
(1495807678.863996) can0 42F#7D04002E66050176
(1495807678.865014) can0 216#0000000082000000
(1495807678.866024) can0 415#0000FCED0FFE0FFE
(1495807678.871571) can0 167#727FFF100019F800
(1495807678.872586) can0 333#0000000000000000
(1495807678.875886) can0 326#81A021DC81A100C8
(1495807678.877241) can0 3A5#0000000000000000
(1495807678.878259) can0 3AD#FFFFFFFFFFFFFFFF
(1495807678.881101) can0 167#727FFF100019F800
(1495807678.884471) can0 216#0000000082000000
(1495807678.885482) can0 415#0000C0FC0FFE0FFE
(1495807678.891824) can0 167#727FFF100019F800
(1495807678.893293) can0 42F#7D04002E66040176
(1495807678.901158) can0 167#727FFF100019F800
(1495807678.902184) can0 40A#C1014B3931485232
(1495807678.903616) can0 3A4#0000000000000000
(1495807678.904635) can0 3AC#FFFFFFFFFFFFFFFF
(1495807678.905643) can0 216#0000000082000000
(1495807678.906654) can0 33B#0000000000000000
(1495807678.907684) can0 083#0000000000017EF4
(1495807678.908692) can0 3BC#0C00089601AE2700
(1495807678.909689) can0 415#0000C4FB0FFE0FFE
(1495807678.910703) can0 42A#D8526DE000000000
(1495807678.911716) can0 42C#05515400AA46A600
(1495807678.912730) can0 42E#9B0000E17707BC41
(1495807678.913741) can0 167#727FFF100019F700
(1495807678.914753) can0 178#000002000E89CE8A
(1495807678.915766) can0 505#0B12000000000000
(1495807678.921040) can0 167#727FFF100019F700
(1495807678.922067) can0 42F#7D04002E66040176
(1495807678.924290) can0 216#0000000082000000
(1495807678.925318) can0 415#0000C8FA0FFE0FFE
(1495807678.927270) can0 3A5#0000000000000000
(1495807678.928288) can0 3A7#0E400A045F700000
(1495807678.929316) can0 3AD#FFFFFFFFFFFFFFFF
(1495807678.931569) can0 167#727FFF100019F700
(1495807678.933117) can0 346#000000030300C000
(1495807678.934126) can0 348#0000000000000000
(1495807678.941092) can0 167#727FFF100019F700
(1495807678.944399) can0 216#0000000082000000
(1495807678.945413) can0 415#0000CCF90FFE0FFE
(1495807678.951593) can0 167#727FFF100019F700
(1495807678.952825) can0 332#0000000000000000
(1495807678.953837) can0 3A4#0000000000000000
(1495807678.954857) can0 33A#0000000000000000
(1495807678.955876) can0 3A6#0E400A045F700000
(1495807678.956885) can0 083#0000000000017EF4
(1495807678.957895) can0 3AC#FFFFFFFFFFFFFFFF
(1495807678.958904) can0 3BC#0C00089601AE2700
(1495807678.959943) can0 3BE#00204CEE4000D300
(1495807678.960952) can0 3C4#7796E841000093DE
(1495807678.961953) can0 42A#D8526EE000000000
(1495807678.962986) can0 167#727FFF100019F700
(1495807678.963997) can0 42C#05515400AA7EA600
(1495807678.965009) can0 42E#9F0000E1790BBC70
(1495807678.966020) can0 216#0000000082000000
(1495807678.967029) can0 33B#0000000000000000
(1495807678.968042) can0 415#0000D0F80FFE0FFE
(1495807678.969072) can0 42F#7D04002E66040176
(1495807678.971575) can0 167#727FFF100019F700
(1495807678.972595) can0 333#0000000000000000
(1495807678.976353) can0 326#81A021DC81A100C8
(1495807678.977498) can0 3A5#0000000000000000
(1495807678.978513) can0 3AD#FFFFFFFFFFFFFFFF
(1495807678.981094) can0 167#727FFF100019F700
(1495807678.982102) can0 42F#7D04002E66030176
(1495807678.985051) can0 216#0000000082000000
(1495807678.986256) can0 415#0000D4F70FFE0FFE
(1495807678.991994) can0 167#727FFF100019F700
(1495807679.000706) can0 3B6#0800030000000000
(1495807679.001704) can0 167#727FFF100019F700
(1495807679.002709) can0 3B7#0000010060A6144E
(1495807679.003843) can0 3A4#0000000000000000
(1495807679.004865) can0 3AC#FFFFFFFFFFFFFFFF
(1495807679.005868) can0 216#0000000082000000
(1495807679.006880) can0 415#0000D8F60FFE0FFE
(1495807679.007889) can0 083#0000000000017EF4
(1495807679.008904) can0 3BC#0C00089601AE2700
(1495807679.009910) can0 42A#D8526EE000000000
(1495807679.010921) can0 42C#05515400AA46A600
(1495807679.011952) can0 42E#9B0000E17707BC41
(1495807679.012960) can0 167#727FFF100019F700
(1495807679.013964) can0 178#000002000E89CE8A
(1495807679.015865) can0 42F#7D04002E66030177
(1495807679.019231) can0 50B#1E12000000000000
(1495807679.021084) can0 167#727FFF100019F700
(1495807679.024302) can0 216#0000000082000000
(1495807679.025334) can0 33B#0000000000000000
(1495807679.026334) can0 415#0000DCF50FFE0FFE
(1495807679.027333) can0 3A5#0000000000000000
(1495807679.028346) can0 3AD#FFFFFFFFFFFFFFFF
(1495807679.031608) can0 167#727FFF100019F800
(1495807679.036483) can0 346#000000030300C000
(1495807679.037495) can0 348#0000000000000000
(1495807679.038500) can0 3E0#0000000080000000
(1495807679.041090) can0 167#727FFF100019F800
(1495807679.042090) can0 42F#7D04002E66040177
(1495807679.044460) can0 216#0000000082000000
(1495807679.045460) can0 415#0000E0F40FFE0FFE
(1495807679.051603) can0 167#727FFF100019F800
(1495807679.052818) can0 332#0000000000000000
(1495807679.053839) can0 3A4#0000000000000000
(1495807679.054842) can0 33A#0000000000000000
(1495807679.055855) can0 3AC#FFFFFFFFFFFFFFFF
(1495807679.056866) can0 083#0000000000017EF4
(1495807679.057874) can0 3BC#0C00089601AE2700
(1495807679.058890) can0 3BE#00204CEE4000D300
(1495807679.059902) can0 42A#D8526EE000000000
(1495807679.060917) can0 42C#05515400AA7EA600
(1495807679.061925) can0 167#727FFF100019F700
(1495807679.062933) can0 42E#9F0000E1760BBC70
(1495807679.064351) can0 216#0000000082000000
(1495807679.065360) can0 415#0000E4F30FFE0FFE
(1495807679.066859) can0 3E7#0000000000000000
(1495807679.071595) can0 167#727FFF100019F700
(1495807679.072608) can0 333#0000000000000000
(1495807679.073614) can0 42F#7D04002E66040177
(1495807679.074631) can0 33C#0000000000000000
(1495807679.076829) can0 326#81A021DC81A100C8
(1495807679.077841) can0 3A5#0000000000000000
(1495807679.078847) can0 3AD#FFFFFFFFFFFFFFFF
(1495807679.081090) can0 167#727FFF100019F800
(1495807679.084535) can0 216#0000000082000000
(1495807679.085539) can0 33B#0000000000000000
(1495807679.086550) can0 415#0000E8F20FFE0FFE
(1495807679.091867) can0 167#727FFF100019F800
(1495807679.100881) can0 3B3#4048061210050022
(1495807679.101850) can0 167#727FFF100019F800
(1495807679.102872) can0 40A#C1023130373639FF
(1495807679.103886) can0 42F#7D04002E66050176
(1495807679.104895) can0 3A4#0000000000000000
(1495807679.105906) can0 216#0000000082000000
(1495807679.106925) can0 3AC#FFFFFFFFFFFFFFFF
(1495807679.107943) can0 083#0000000000017EF4
(1495807679.108972) can0 3BC#0C00089601AE2700
(1495807679.109972) can0 415#0000ECF10FFE0FFE
(1495807679.110984) can0 42A#D8526EE000000000
(1495807679.111991) can0 42C#05515400AA46A600
(1495807679.113005) can0 167#727FFF100019F900
(1495807679.114016) can0 178#000001FE0E89CE8A
(1495807679.115030) can0 42E#9B0000E17107BC41
(1495807679.116045) can0 51E#3B02000000000000
(1495807679.121099) can0 167#727FFF100019F800
(1495807679.124298) can0 216#0000000082000000
(1495807679.125310) can0 415#0000F0F00FFE0FFE
(1495807679.127362) can0 3A5#0000000000000000
(1495807679.128374) can0 3A7#0E400A045F700000
(1495807679.129384) can0 3AD#FFFFFFFFFFFFFFFF
(1495807679.131628) can0 167#727FFF100019F800
(1495807679.132912) can0 346#000000030300C000
(1495807679.133922) can0 348#0000000000000000
(1495807679.134940) can0 42F#7D04002E66060176
(1495807679.141112) can0 167#727FFF100019F800
(1495807679.144279) can0 216#0000000082000000
(1495807679.145295) can0 33B#0000000000000000
(1495807679.146307) can0 415#0000F4EF0FFE0FFE
(1495807679.151623) can0 167#727FFF100019F900
(1495807679.152825) can0 332#0000000000000000
(1495807679.153851) can0 3A4#0000000000000000
(1495807679.154855) can0 33A#0000000000000000
(1495807679.155869) can0 3A6#0E400A045F700000
(1495807679.156874) can0 083#0000000000017EF5
(1495807679.157879) can0 3AC#FFFFFFFFFFFFFFFF
(1495807679.158890) can0 3BC#0C00089601AF2700
(1495807679.159901) can0 3BE#00204CEE4000D300
(1495807679.160915) can0 3C4#7796E801000093DE
(1495807679.161928) can0 167#727FFF100019F900
(1495807679.162939) can0 42A#D8526DE000000000
(1495807679.163950) can0 42C#05515400AA7EA600
(1495807679.164976) can0 42E#9F0000E1710BBC70
(1495807679.165985) can0 216#0000000082000000
(1495807679.166995) can0 415#0000F8EE0FFE0FFE
(1495807679.168011) can0 42F#7D04002E66060176
(1495807679.171628) can0 167#727FFF100019F900
(1495807679.172646) can0 333#0000000000000000
(1495807679.177321) can0 326#81A021DC81A100C8
(1495807679.178329) can0 3A5#0000000000000000
(1495807679.179353) can0 3AD#FFFFFFFFFFFFFFFF
(1495807679.181326) can0 167#727FFF100019F900
(1495807679.184567) can0 216#0000000082000000
(1495807679.185575) can0 415#0000FCED0FFE0FFE
(1495807679.191883) can0 167#727FFF100019F900
(1495807679.193322) can0 42F#7D04002E66070176
(1495807679.201261) can0 167#727FFF100019F900
(1495807679.203753) can0 3A4#0000000000000000
(1495807679.204766) can0 3AC#FFFFFFFFFFFFFFFF
(1495807679.205780) can0 216#0000000082000000
(1495807679.206790) can0 33B#0000000000000000
(1495807679.207803) can0 083#0000000000017EF6
(1495807679.208815) can0 3BC#0C00089601AE2700
(1495807679.209824) can0 415#0000C0FC0FFE0FFE
(1495807679.210858) can0 42A#D8526DE000000000
(1495807679.211863) can0 42C#05515400AA46A600
(1495807679.212878) can0 167#727FFF100019F900
(1495807679.213887) can0 178#000002000E89CE8A
(1495807679.214897) can0 42E#9B0000E17407BC41
(1495807679.215914) can0 53B#5D12000000000000
(1495807679.221308) can0 167#727FFF100019F900
(1495807679.222318) can0 42F#7D04002E66070176
(1495807679.224564) can0 216#0000000082000000
(1495807679.225577) can0 415#0000C4FB0FFE0FFE
(1495807679.226588) can0 466#701CEC31B2403800
(1495807679.227615) can0 3A5#0000000000000000
(1495807679.228619) can0 3AD#FFFFFFFFFFFFFFFF
(1495807679.231632) can0 167#727FFF100019F900
(1495807679.233426) can0 346#000000030300C000
(1495807679.234435) can0 348#0000000000000000
(1495807679.241266) can0 167#727FFF100019F900
(1495807679.244292) can0 216#0000000082000000
(1495807679.245304) can0 415#0000C8FA0FFE0FFE
(1495807679.250204) can0 3B6#0800040000000000
(1495807679.251210) can0 3B7#0000020060A67BEB
(1495807679.252239) can0 167#727FFF100019F900
(1495807679.253248) can0 332#0000000000000000
(1495807679.254245) can0 3A4#0000000000000000
(1495807679.255255) can0 33A#0000000000000000
(1495807679.256270) can0 3AC#FFFFFFFFFFFFFFFF
(1495807679.257282) can0 083#0000000000017EF4
(1495807679.258288) can0 3BC#0C00089601AE2700
(1495807679.259298) can0 3BE#00204CEE4000D300
(1495807679.260316) can0 3DE#0000000080000000
(1495807679.261332) can0 42A#D8526DE000000000
(1495807679.262366) can0 167#727FFF100019F900
(1495807679.263371) can0 42C#05515400AA7EA600
(1495807679.264371) can0 42E#9F0000E1770BBC70
(1495807679.265383) can0 216#0000000082000000
(1495807679.266388) can0 33B#0000000000000000
(1495807679.267399) can0 415#0000CCF90FFE0FFE
(1495807679.268412) can0 42F#7D04002E66060176
(1495807679.271646) can0 167#727FFF100019F800
(1495807679.272662) can0 333#0000000000000000
(1495807679.277441) can0 3A5#0000000000000000
(1495807679.278445) can0 326#81A021DC81A100C8
(1495807679.279454) can0 3AD#FFFFFFFFFFFFFFFF
(1495807679.281285) can0 167#727FFF100019F800
(1495807679.282295) can0 42F#7D04002E66050176
(1495807679.284773) can0 216#0000000082000000
(1495807679.285957) can0 415#0000D0F80FFE0FFE
(1495807679.291892) can0 167#727FFF100019F800
(1495807679.298042) can0 55D#0402000000000000
(1495807679.300945) can0 40A#C104014107F670C1
(1495807679.301953) can0 167#727FFF100019F800
(1495807679.303811) can0 3A4#0000000000000000
(1495807679.304825) can0 3AC#FFFFFFFFFFFFFFFF
(1495807679.305833) can0 216#0000000082000000
(1495807679.306844) can0 415#0000D4F70FFE0FFE
(1495807679.307873) can0 083#0000000000017EF7
(1495807679.308882) can0 3BC#0C00089601AF2700
(1495807679.309884) can0 42A#D8526DE000000000
(1495807679.310901) can0 42C#05515400AA46A600
(1495807679.311921) can0 42E#9B0000E17707BC41
(1495807679.312938) can0 167#727FFF100019F800
(1495807679.313944) can0 178#000002000E89CE8A
(1495807679.315787) can0 42F#7D04002E66040176
(1495807679.321286) can0 167#727FFF100019F700
(1495807679.324342) can0 216#0000000082000000
(1495807679.325354) can0 33B#0000000000000000
(1495807679.326381) can0 415#0000D8F60FFE0FFE
(1495807679.327452) can0 3A5#0000000000000000
(1495807679.328465) can0 3A7#0E400A045F700000
(1495807679.329478) can0 3AD#FFFFFFFFFFFFFFFF
(1495807679.331664) can0 167#727FFF100019F700
(1495807679.332707) can0 346#000000030300C000
(1495807679.333718) can0 348#0000000000000000
(1495807679.341165) can0 167#727FFF100019F700
(1495807679.342183) can0 42F#7D04002E66030176
(1495807679.344384) can0 216#0000000082000000
(1495807679.345395) can0 415#0000DCF50FFE0FFE
(1495807679.351660) can0 167#727FFF100019F700
(1495807679.352820) can0 332#0000000000000000
(1495807679.353825) can0 33A#0000000000000000
(1495807679.354838) can0 3A4#0000000000000000
(1495807679.355849) can0 3A6#0E400A045F700000
(1495807679.356870) can0 083#0000000000017EF4
(1495807679.357881) can0 3AC#FFFFFFFFFFFFFFFF
(1495807679.358886) can0 3BC#0C00089601AE2700
(1495807679.359890) can0 3BE#00204CEE4000D300
(1495807679.360908) can0 3C4#7796E831000093DE
(1495807679.361921) can0 167#727FFF100019F700
(1495807679.362935) can0 42A#D8526EE000000000
(1495807679.363956) can0 42C#05515400AA7EA600
(1495807679.364973) can0 42E#9F0000E1780BBC70
(1495807679.365980) can0 216#0000000082000000
(1495807679.367008) can0 415#0000E0F40FFE0FFE
(1495807679.371699) can0 333#0000000000000000
(1495807679.372717) can0 167#727FFF100019F700
(1495807679.373729) can0 42F#7D04002E66030176
(1495807679.377485) can0 3A5#0000000000000000
(1495807679.378518) can0 326#81A021DC81A100C8
(1495807679.379522) can0 3AD#FFFFFFFFFFFFFFFF
(1495807679.381186) can0 167#727FFF100019F700
(1495807679.384601) can0 216#0000000082000000
(1495807679.385604) can0 33B#0000000000000000
(1495807679.386636) can0 415#0000E4F30FFE0FFE
(1495807679.391917) can0 167#727FFF100019F600
(1495807679.392929) can0 504#0512000000000000
(1495807679.401174) can0 167#727FFF100019F600
(1495807679.402177) can0 42F#7D04002E66020176
(1495807679.403893) can0 3A4#0000000000000000
(1495807679.404903) can0 3AC#FFFFFFFFFFFFFFFF
(1495807679.405912) can0 216#0000000082000000
(1495807679.406922) can0 415#0000E8F20FFE0FFE
(1495807679.407938) can0 083#0000000000017EF4
(1495807679.408952) can0 3BC#0C00089601AE2700
(1495807679.409971) can0 42A#D8526EE000000000
(1495807679.410976) can0 42C#05515400AA46A600
(1495807679.412015) can0 42E#9B0000E17A07BC41
(1495807679.413024) can0 167#727FFF100019F600
(1495807679.414020) can0 178#000002010E89CE8A
(1495807679.421197) can0 167#727FFF100019F600
(1495807679.424397) can0 216#0000000082000000
(1495807679.425414) can0 415#0000ECF10FFE0FFE
(1495807679.427518) can0 3A5#0000000000000000
(1495807679.428527) can0 3AD#FFFFFFFFFFFFFFFF
(1495807679.431693) can0 167#727FFF100019F600
(1495807679.433147) can0 42F#7D04002E66020176
(1495807679.434148) can0 346#000000030300C000
(1495807679.435153) can0 348#0000000000000000
(1495807679.439672) can0 304#0800000000000000
(1495807679.441152) can0 167#727FFF100019F600
(1495807679.444343) can0 216#0000000082000000
(1495807679.445352) can0 33B#0000000000000000
(1495807679.446368) can0 415#0000F0F00FFE0FFE
(1495807679.451684) can0 167#727FFF100019F600
(1495807679.452822) can0 332#0000000000000000
(1495807679.453833) can0 33A#0000000000000000
(1495807679.454841) can0 3A4#0000000000000000
(1495807679.455857) can0 33F#0100000000000000
(1495807679.456867) can0 083#0000000000017EF5
(1495807679.457897) can0 3AC#FFFFFFFFFFFFFFFF
(1495807679.458901) can0 3BC#0C00089601AE2700
(1495807679.459905) can0 3BE#00204CEE4000D300
(1495807679.460920) can0 42A#D8526EE000000000
(1495807679.461933) can0 167#727FFF100019F600
(1495807679.462950) can0 42C#05515400AA7EA600
(1495807679.463960) can0 42E#9F0000E17A0BBC70
(1495807679.464982) can0 42F#7D04002E66010176
(1495807679.465996) can0 216#0000000082000000
(1495807679.467023) can0 415#0000F4EF0FFE0FFE
(1495807679.471665) can0 333#0000000000000000
(1495807679.472677) can0 167#727FFF100019F600
(1495807679.477550) can0 3A5#0000000000000000
(1495807679.478555) can0 3AD#FFFFFFFFFFFFFFFF
(1495807679.479567) can0 124#0202000000000000
(1495807679.480588) can0 22C#000A000000000000
(1495807679.481599) can0 167#727FFF100019F600
(1495807679.482611) can0 326#81A021DC81A100C8
(1495807679.483623) can0 355#60003D8000840000
(1495807679.484656) can0 356#003C4C4F4C4F0000
(1495807679.485656) can0 216#0000000082000000
(1495807679.486661) can0 35E#00C000DAAB016800
(1495807679.487677) can0 3E7#0000000000000000
(1495807679.488695) can0 415#0000F8EE0FFE0FFE
(1495807679.489708) can0 41A#8A40000000000000
(1495807679.491777) can0 505#0B12000000000000
(1495807679.492786) can0 167#727FFF100019F600
(1495807679.493786) can0 42F#7D04002E66010177
(1495807679.501201) can0 3B6#0800050000000000
(1495807679.502206) can0 167#727FFF100019F600
(1495807679.503216) can0 3B7#0000030060A65F8C
(1495807679.504227) can0 3A4#0000000000000000
(1495807679.505239) can0 3AC#FFFFFFFFFFFFFFFF
(1495807679.506247) can0 216#0000000082000000
(1495807679.507280) can0 3EB#5704140000100000
(1495807679.508285) can0 083#0000000000017EF4
(1495807679.509291) can0 33B#0000000000000000
(1495807679.510300) can0 3BC#0C00089601AE2700
(1495807679.511308) can0 40A#C110409060250000
(1495807679.512323) can0 415#0000FCED0FFE0FFE
(1495807679.513345) can0 42A#D8526EE000000000
(1495807679.514351) can0 167#727FFF100019F600
(1495807679.515360) can0 178#000001FF0E89CE8A
(1495807679.516375) can0 42C#05515400AA47A700
(1495807679.517394) can0 42E#9B0000E17807BC41
(1495807679.518406) can0 3E2#0000000080000000
(1495807679.519411) can0 447#2100000002000000
(1495807679.521165) can0 167#727FFF100019F600
(1495807679.522174) can0 42F#7D04002E66010177
(1495807679.524412) can0 216#0000000082000000
(1495807679.525421) can0 415#0000C0FC0FFE0FFE
(1495807679.527564) can0 3A5#0000000000000000
(1495807679.528576) can0 3A7#0E400A045F700000
(1495807679.529583) can0 3AD#FFFFFFFFFFFFFFFF
(1495807679.531695) can0 167#727FFF100019F600
(1495807679.532708) can0 346#000000030300C000
(1495807679.533723) can0 348#0000000000000000
(1495807679.539732) can0 3E1#8000010701800000
(1495807679.541226) can0 167#727FFF100019F600
(1495807679.544369) can0 216#0000000082000000
(1495807679.545386) can0 415#0000C4FB0FFE0FFE
(1495807679.550169) can0 3B4#401111FF25250000
(1495807679.551698) can0 167#727FFF100019F600
(1495807679.552796) can0 332#0000000000000000
(1495807679.553795) can0 42F#7D04002E66010177
(1495807679.554799) can0 33A#0000000000000000
(1495807679.555814) can0 3A4#0000000000000000
(1495807679.556823) can0 083#0000000000017EF4
(1495807679.557832) can0 3A6#0E400A045F700000
(1495807679.558843) can0 3AC#FFFFFFFFFFFFFFFF
(1495807679.559856) can0 3BC#0C00089601AF2700
(1495807679.560875) can0 3BE#00204CEE4000D301
(1495807679.561881) can0 167#727FFF100019F700
(1495807679.562914) can0 3C4#7796E801000093DE
(1495807679.563918) can0 3D5#0400000000000000
(1495807679.564927) can0 42A#D8526EE000000000
(1495807679.565934) can0 216#0000000082000000
(1495807679.566949) can0 33B#0000000000000000
(1495807679.567958) can0 415#0000C8FA0FFE0FFE
(1495807679.568975) can0 42C#05515400AA7EA600
(1495807679.569986) can0 42E#9F0000E1750BBC70
(1495807679.571005) can0 465#63EE415234F08FCC
(1495807679.572017) can0 333#0000000000000000
(1495807679.573048) can0 167#727FFF100019F700
(1495807679.576331) can0 467#AA80003593001028
(1495807679.577597) can0 3A5#0000000000000000
(1495807679.578610) can0 3AD#FFFFFFFFFFFFFFFF
(1495807679.579627) can0 326#81A021DC81A100C8
(1495807679.581360) can0 167#727FFF100019F700
(1495807679.582371) can0 42F#7D04002E66020177
(1495807679.584876) can0 216#0000000082000000
(1495807679.586047) can0 415#0000CCF90FFE0FFE
(1495807679.589795) can0 50B#1E12000000000000
(1495807679.591960) can0 167#727FFF100019F800
(1495807679.600729) can0 3B3#4048061210050022
(1495807679.601731) can0 167#727FFF100019F800
(1495807679.602741) can0 35D#0000000000000000
(1495807679.603753) can0 3C3#40C8000000004100
(1495807679.604769) can0 3A4#0000000000000000
(1495807679.605795) can0 216#0000000082000000
(1495807679.606800) can0 3AC#FFFFFFFFFFFFFFFF
(1495807679.607804) can0 083#0000000000017EF4
(1495807679.608823) can0 3BC#0C00089601AF2700
(1495807679.609835) can0 415#0000D0F80FFE0FFE
(1495807679.610850) can0 42A#D8526EE000000000
(1495807679.611859) can0 42C#05515400AA46A600
(1495807679.612877) can0 42E#9B0000E17107BC41
(1495807679.613882) can0 167#727FFF100019F800
(1495807679.614894) can0 178#000001FC0E89CE8A
(1495807679.616069) can0 42F#7D04002E66050176
(1495807679.619846) can0 1E6#800CE80700000000
(1495807679.621208) can0 167#727FFF100019F800
(1495807679.624429) can0 216#0000000082000000
(1495807679.625443) can0 33B#0000000000000000
(1495807679.626449) can0 415#0000D4F70FFE0FFE
(1495807679.627603) can0 3A5#0000000000000000
(1495807679.628616) can0 3AD#FFFFFFFFFFFFFFFF
(1495807679.631718) can0 167#727FFF100019F900
(1495807679.633305) can0 346#000000030300C000
(1495807679.634305) can0 348#0000000000000000
(1495807679.641341) can0 167#727FFF100019F900
(1495807679.642344) can0 42F#7D04002E66060176
(1495807679.644588) can0 216#0000000082000000
(1495807679.645596) can0 415#0000D8F60FFE0FFE
(1495807679.651713) can0 167#727FFF100019F900
(1495807679.652777) can0 332#0000000000000000
(1495807679.653805) can0 33A#0000000000000000
(1495807679.654809) can0 3A4#0000000000000000
(1495807679.655810) can0 3AC#FFFFFFFFFFFFFFFF
(1495807679.656832) can0 083#0000000000017EF4
(1495807679.657838) can0 2FD#D400E3C108520000
(1495807679.658848) can0 3BC#0C00089601AF2700
(1495807679.659857) can0 3BE#00204CEE4000D300
(1495807679.660872) can0 42A#D8526DE000000000
(1495807679.661885) can0 42C#05515400AA7EA600
(1495807679.662898) can0 167#727FFF100019F900
(1495807679.663929) can0 42E#9F0000E1720BBC70
(1495807679.664938) can0 216#0000000082000000
(1495807679.665939) can0 415#0000DCF50FFE0FFE
(1495807679.671604) can0 333#0000000000000000
(1495807679.672614) can0 167#727FFF100019F900
(1495807679.673629) can0 42F#7D04002E66060176
(1495807679.674876) can0 51E#3B02000000000000
(1495807679.677628) can0 3A5#0000000000000000
(1495807679.678630) can0 3AD#FFFFFFFFFFFFFFFF
(1495807679.679807) can0 2A0#FFFFFFFF00001E00
(1495807679.680817) can0 326#81A021DC81A100C8
(1495807679.681817) can0 167#727FFF100019F900
(1495807679.684672) can0 216#0000000082000000
(1495807679.685686) can0 33B#0000000000000000
(1495807679.686688) can0 415#0000E0F40FFE0FFE
(1495807679.690187) can0 331#C0061CBA0CD49414
(1495807679.691976) can0 167#727FFF100019F900
(1495807679.700961) can0 40A#C000000D11A2F200
(1495807679.701969) can0 167#727FFF100019F900
(1495807679.702980) can0 42F#7D04002E66070176
(1495807679.704000) can0 3A4#0000000000000000
(1495807679.705015) can0 3AC#FFFFFFFFFFFFFFFF
(1495807679.706022) can0 216#0000000082000000
(1495807679.707033) can0 415#0000E4F30FFE0FFE
(1495807679.708062) can0 083#0000000000017EF6
(1495807679.709069) can0 3BC#0C00089601AE2700
(1495807679.710069) can0 42A#D8526DE000000000
(1495807679.711083) can0 42C#05515400AA46A600
(1495807679.712095) can0 42E#9B0000E17507BC41
(1495807679.713106) can0 167#727FFF100019F900
(1495807679.714118) can0 178#000002000E89CE8A
(1495807679.721380) can0 167#727FFF100019F900
(1495807679.724412) can0 216#0000000082000000
(1495807679.725445) can0 415#0000E8F20FFE0FFE
(1495807679.727639) can0 3A5#0000000000000000
(1495807679.728655) can0 3A7#0E400A045F700000
(1495807679.729662) can0 3AD#FFFFFFFFFFFFFFFF
(1495807679.731721) can0 167#727FFF100019F900
(1495807679.732733) can0 346#000000030300C000
(1495807679.733742) can0 348#0000000000000000
(1495807679.734755) can0 42F#7D04002E66070176
(1495807679.739907) can0 34E#0000000000000000
(1495807679.740919) can0 358#0000000000000000
(1495807679.741947) can0 167#727FFF100019F900
(1495807679.744416) can0 216#0000000082000000
(1495807679.745445) can0 33B#0000000000000000
(1495807679.746447) can0 415#0000ECF10FFE0FFE
(1495807679.750161) can0 331#C0061CBA0CD49414
(1495807679.751194) can0 3B6#0800060000000000
(1495807679.752198) can0 167#727FFF100019F900
(1495807679.753203) can0 332#0000000000000000
(1495807679.754225) can0 3B7#0000000060A67C5C
(1495807679.755220) can0 33A#0000000000000000
(1495807679.756231) can0 3A4#0000000000000000
(1495807679.757241) can0 083#0000000000017EFA
(1495807679.758257) can0 3A6#0E400A045F700000
(1495807679.759268) can0 3AC#FFFFFFFFFFFFFFFF
(1495807679.760280) can0 3BC#0C00089601AF2700
(1495807679.761293) can0 3BE#00204CEE4000D300
(1495807679.762320) can0 084#11000092073B0900
(1495807679.763325) can0 167#727FFF100019F900
(1495807679.764332) can0 3C4#7796E801000093DE
(1495807679.765344) can0 42A#D8526DE000000000
(1495807679.766353) can0 216#0000000082000000
(1495807679.767366) can0 415#0000F0F00FFE0FFE
(1495807679.768381) can0 42C#05515400AA7EA600
(1495807679.769401) can0 42E#9F0000E1760BBC70
(1495807679.770413) can0 42F#7D04002E66060176
(1495807679.771447) can0 53B#5D12000000000000
(1495807679.772451) can0 333#0000000000000000
(1495807679.773457) can0 167#727FFF100019F900
(1495807679.777803) can0 3A5#0000000000000000
(1495807679.778823) can0 3AD#FFFFFFFFFFFFFFFF
(1495807679.780217) can0 326#81A021DC81A100C8
(1495807679.781706) can0 167#727FFF100019F900
(1495807679.784911) can0 216#0000000082000000
(1495807679.785917) can0 415#0000F4EF0FFE0FFE
(1495807679.791983) can0 167#727FFF100019F900
(1495807679.793455) can0 42F#7D04002E66060176
(1495807679.801438) can0 167#727FFF100019F800
(1495807679.804042) can0 3A4#0000000000000000
(1495807679.805063) can0 3AC#FFFFFFFFFFFFFFFF
(1495807679.806077) can0 216#0000000082000000
(1495807679.807082) can0 083#0000000000017EF4
(1495807679.808094) can0 33B#0000000000000000
(1495807679.809106) can0 3BC#0C00089601AE2700
(1495807679.810114) can0 415#0000F8EE0FFE0FFE
(1495807679.811122) can0 42A#D8526DE000000000
(1495807679.812136) can0 42C#05515400AA46A600
(1495807679.813155) can0 167#727FFF100019F800
(1495807679.814166) can0 178#000002000E89CE8A
(1495807679.815177) can0 42E#9B0000E17607BC41
(1495807679.821596) can0 167#727FFF100019F800
(1495807679.822609) can0 42F#7D04002E66050176
(1495807679.824587) can0 216#0000000082000000
(1495807679.825600) can0 415#0000FCED0FFE0FFE
(1495807679.827705) can0 3A5#0000000000000000
(1495807679.828714) can0 3AD#FFFFFFFFFFFFFFFF
(1495807679.831755) can0 167#727FFF100019F700
(1495807679.833878) can0 346#000000030300C000
(1495807679.834888) can0 348#0000000000000000
(1495807679.841390) can0 167#727FFF100019F700
(1495807679.844423) can0 216#0000000082000000
(1495807679.845436) can0 415#0000C0FC0FFE0FFE
(1495807679.851764) can0 167#727FFF100019F700
(1495807679.852770) can0 332#0000000000000000
(1495807679.853782) can0 42F#7D04002E66040176
(1495807679.854800) can0 33A#0000000000000000
(1495807679.855837) can0 3A4#0000000000000000
(1495807679.856842) can0 083#0000000000017EF4
(1495807679.857840) can0 3AC#FFFFFFFFFFFFFFFF
(1495807679.858845) can0 3BC#0C00089601AD2700
(1495807679.859859) can0 3BE#00204CEE4000D300
(1495807679.860871) can0 42A#D8526EE000000000
(1495807679.861880) can0 42C#05515400AA7EA600
(1495807679.862892) can0 167#727FFF100019F700
(1495807679.863901) can0 42E#9F0000E1790BBC70
(1495807679.864914) can0 55D#0402000000000000
(1495807679.865922) can0 216#0000000082000000
(1495807679.866935) can0 33B#0000000000000000
(1495807679.867961) can0 415#0000C4FB0FFE0FFE
(1495807679.871537) can0 333#0000000000000000
(1495807679.872552) can0 167#727FFF100019F600
(1495807679.877724) can0 3A5#0000000000000000
(1495807679.878723) can0 3AD#FFFFFFFFFFFFFFFF
(1495807679.880717) can0 326#81A021DC81A100C8
(1495807679.881719) can0 167#727FFF100019F600
(1495807679.882719) can0 42F#7D04002E66020176
(1495807679.884864) can0 216#0000000082000000
(1495807679.886054) can0 415#0000C8FA0FFE0FFE
(1495807679.892011) can0 167#727FFF100019F600
(1495807679.901035) can0 40A#C100334641365030
(1495807679.902040) can0 167#727FFF100019F600
(1495807679.904098) can0 3A4#0000000000000000
(1495807679.905103) can0 3AC#FFFFFFFFFFFFFFFF
(1495807679.906119) can0 216#0000000082000000
(1495807679.907128) can0 083#0000000000017EF4
(1495807679.908137) can0 3BC#0C00089601AD2700
(1495807679.909149) can0 415#0000CCF90FFE0FFE
(1495807679.910158) can0 42A#D8526EE000000000
(1495807679.911174) can0 42C#05515400AA46A600
(1495807679.912182) can0 42E#9B0000E17A07BC41
(1495807679.913197) can0 167#727FFF100019F600
(1495807679.914218) can0 178#000002000E89CE8A
(1495807679.916154) can0 42F#7D04002E66020176
(1495807679.921260) can0 167#727FFF100019F600
(1495807679.924475) can0 216#0000000082000000
(1495807679.925480) can0 33B#0000000000000000
(1495807679.926492) can0 415#0000D0F80FFE0FFE
(1495807679.927729) can0 3A5#0000000000000000
(1495807679.928744) can0 3A7#0E400A045F700000
(1495807679.929748) can0 3AD#FFFFFFFFFFFFFFFF
(1495807679.931780) can0 167#727FFF100019F600
(1495807679.932794) can0 346#000000030300C000
(1495807679.933801) can0 348#0000000000000000
(1495807679.941270) can0 167#727FFF100019F600
(1495807679.942283) can0 42F#7D04002E66010176
(1495807679.944518) can0 216#0000000082000000
(1495807679.945532) can0 415#0000D4F70FFE0FFE
(1495807679.951788) can0 167#727FFF100019F600
(1495807679.952792) can0 332#0000000000000000
(1495807679.953803) can0 33A#0000000000000000
(1495807679.954820) can0 3A4#0000000000000000
(1495807679.955855) can0 3A6#0E400A045F700000
(1495807679.956855) can0 083#0000000000017EF4
(1495807679.957855) can0 3AC#FFFFFFFFFFFFFFFF
(1495807679.958868) can0 3BC#0C00089601AD2700
(1495807679.959877) can0 3BE#00204CEE4000D300
(1495807679.960890) can0 3C4#7796E841000093DE
(1495807679.961898) can0 167#727FFF100019F600
(1495807679.962908) can0 42A#D8526EE000000000
(1495807679.963917) can0 42C#05515400AA7EA600
(1495807679.964931) can0 42E#9F0000E1770BBC70
(1495807679.965941) can0 216#0000000082000000
(1495807679.966978) can0 415#0000D8F60FFE0FFE
(1495807679.967987) can0 504#0512000000000000
(1495807679.971537) can0 333#0000000000000000
(1495807679.972554) can0 167#727FFF100019F600
(1495807679.973742) can0 42F#7D04002E66010176
(1495807679.977766) can0 3A5#0000000000000000
(1495807679.978775) can0 3AD#FFFFFFFFFFFFFFFF
(1495807679.981186) can0 326#81A021DC81A100C8
(1495807679.982198) can0 167#727FFF100019F600
(1495807679.985192) can0 216#0000000082000000
(1495807679.986199) can0 33B#0000000000000000
(1495807679.987209) can0 415#0000DCF50FFE0FFE
(1495807679.992050) can0 167#727FFF100019F700
(1495807680.000873) can0 3B6#0800070000000000
(1495807680.001869) can0 167#727FFF100019F700
(1495807680.002883) can0 3B7#0000010060A6144E
(1495807680.003882) can0 42F#7D04002E66020176
(1495807680.004892) can0 3A4#0000000000000000
(1495807680.005911) can0 216#0000000082000000
(1495807680.006919) can0 3AC#FFFFFFFFFFFFFFFF
(1495807680.007930) can0 083#0000000000017EF4
(1495807680.008949) can0 3BC#0C00089601AD2700
(1495807680.009958) can0 415#0000E0F40FFE0FFE
(1495807680.010985) can0 42A#D8526EE000000000
(1495807680.011991) can0 42C#05515400AA46A600
(1495807680.012999) can0 42E#9B0000E17707BC41
(1495807680.014004) can0 167#727FFF100019F700
(1495807680.015014) can0 178#000001FF0E89CE8A
(1495807680.021289) can0 167#727FFF100019F700
(1495807680.024464) can0 216#0000000082000000
(1495807680.025492) can0 415#0000E4F30FFE0FFE
(1495807680.027782) can0 3A5#0000000000000000
(1495807680.028802) can0 3AD#FFFFFFFFFFFFFFFF
(1495807680.031826) can0 167#727FFF100019F700
(1495807680.033543) can0 42F#7D04002E66030176
(1495807680.036764) can0 346#000000030300C000
(1495807680.037770) can0 348#0000000000000000
(1495807680.038781) can0 3E0#0000000080000000
(1495807680.041264) can0 167#727FFF100019F700
(1495807680.044447) can0 216#0000000082000000
(1495807680.045456) can0 33B#0000000000000000
(1495807680.046466) can0 415#0000E8F20FFE0FFE
(1495807680.051789) can0 167#727FFF100019F700
(1495807680.052795) can0 332#0000000000000000
(1495807680.053803) can0 33A#0000000000000000
(1495807680.054813) can0 3A4#0000000000000000
(1495807680.055836) can0 3AC#FFFFFFFFFFFFFFFF
(1495807680.056854) can0 083#0000000000017EF4
(1495807680.057866) can0 3BC#0C00089601AC2700
(1495807680.058871) can0 3BE#00204CEE4000D300
(1495807680.059872) can0 42A#D8526EE000000000
(1495807680.060888) can0 42C#05515400AA7EA600
(1495807680.061902) can0 42E#9F0000E1770BBC70
(1495807680.062917) can0 167#727FFF100019F700
(1495807680.063935) can0 3E7#0000000000000000
(1495807680.064955) can0 42F#7D04002E66030176
(1495807680.065963) can0 216#0000000082000000
(1495807680.066992) can0 415#0000ECF10FFE0FFE
(1495807680.067998) can0 505#0B12000000000000
(1495807680.071514) can0 333#0000000000000000
(1495807680.072533) can0 167#727FFF100019F700
(1495807680.073542) can0 33C#0000000000000000
(1495807680.077806) can0 3A5#0000000000000000
(1495807680.078822) can0 3AD#FFFFFFFFFFFFFFFF
(1495807680.081272) can0 167#727FFF100019F700
(1495807680.082276) can0 326#81A021DC81A100C8
(1495807680.084713) can0 216#0000000082000000
(1495807680.085745) can0 415#0000F0F00FFE0FFE
(1495807680.092048) can0 167#727FFF100019F700
(1495807680.093750) can0 42F#7D04002E66030176
(1495807680.101028) can0 3B3#4048061210050022
(1495807680.102031) can0 167#727FFF100019F700
(1495807680.103038) can0 40A#C1014B3931485232
(1495807680.104184) can0 3A4#0000000000000000
(1495807680.105198) can0 3AC#FFFFFFFFFFFFFFFF
(1495807680.106210) can0 216#0000000082000000
(1495807680.107221) can0 083#0000000000017EF4
(1495807680.108249) can0 33B#0000000000000000
(1495807680.109254) can0 3BC#0C00089601AC2700
(1495807680.110258) can0 415#0000F4EF0FFE0FFE
(1495807680.111269) can0 42A#D8526EE000000000
(1495807680.112278) can0 42C#05515400AA46A600
(1495807680.113297) can0 167#727FFF100019F700
(1495807680.114301) can0 178#000001FF0E89CE8A
(1495807680.115323) can0 42E#9B0000E17507BC41
(1495807680.121273) can0 167#727FFF100019F700
(1495807680.122278) can0 42F#7D04002E66030177
(1495807680.124518) can0 216#0000000082000000
(1495807680.125523) can0 415#0000F8EE0FFE0FFE
(1495807680.127820) can0 3A5#0000000000000000
(1495807680.128838) can0 3A7#0E400A045F700000
(1495807680.129845) can0 3AD#FFFFFFFFFFFFFFFF
(1495807680.131808) can0 167#727FFF100019F700
(1495807680.132823) can0 346#000000030300C000
(1495807680.133834) can0 348#0000000000000000
(1495807680.141305) can0 167#727FFF100019F700
(1495807680.144440) can0 216#0000000082000000
(1495807680.145457) can0 415#0000FCED0FFE0FFE
(1495807680.151821) can0 167#727FFF100019F700
(1495807680.152828) can0 332#0000000000000000
(1495807680.153836) can0 42F#7D04002E66030176
(1495807680.154853) can0 33A#0000000000000000
(1495807680.155885) can0 3A4#0000000000000000
(1495807680.156891) can0 083#0000000000017EF4
(1495807680.157890) can0 3A6#0E400A045F700000
(1495807680.158908) can0 3AC#FFFFFFFFFFFFFFFF
(1495807680.159922) can0 3BC#0C00089601AE2700
(1495807680.160935) can0 3BE#00204CEE4000D300
(1495807680.161947) can0 167#727FFF100019F700
(1495807680.162962) can0 3C4#7796E801000093DE
(1495807680.163974) can0 42A#D8526EE000000000
(1495807680.164992) can0 42C#05515400AA7EA600
(1495807680.166011) can0 216#0000000082000000
(1495807680.167016) can0 33B#0000000000000000
(1495807680.168026) can0 415#0000C0FC0FFE0FFE
(1495807680.169041) can0 42E#9F0000E1770BBC70
(1495807680.170339) can0 50B#1E12000000000000
(1495807680.171448) can0 333#0000000000000000
(1495807680.172458) can0 167#727FFF100019F800
(1495807680.177849) can0 3A5#0000000000000000
(1495807680.178853) can0 3AD#FFFFFFFFFFFFFFFF
(1495807680.181310) can0 167#727FFF100019F800
(1495807680.182318) can0 326#81A021DC81A100C8
(1495807680.183327) can0 42F#7D04002E66040177
(1495807680.184845) can0 216#0000000082000000
(1495807680.186035) can0 415#0000C4FB0FFE0FFE
(1495807680.192069) can0 167#727FFF100019F700
(1495807680.201291) can0 167#727FFF100019F700
(1495807680.204228) can0 3A4#0000000000000000
(1495807680.205248) can0 3AC#FFFFFFFFFFFFFFFF
(1495807680.206262) can0 216#0000000082000000
(1495807680.207268) can0 083#0000000000017EF4
(1495807680.208271) can0 3BC#0C00089601AE2700
(1495807680.209283) can0 415#0000C8FA0FFE0FFE
(1495807680.210292) can0 42A#D8526EE000000000
(1495807680.211310) can0 42C#05515400AA46A600
(1495807680.212321) can0 42E#9B0000E17807BC41
(1495807680.213336) can0 167#727FFF100019F700
(1495807680.214347) can0 178#000002000E89CE8A
(1495807680.215942) can0 42F#7D04002E66030177
(1495807680.216962) can0 466#70200031B2403800
(1495807680.221521) can0 167#727FFF100019F700
(1495807680.224516) can0 216#0000000082000000
(1495807680.225521) can0 33B#0000000000000000
(1495807680.226524) can0 415#0000CCF90FFE0FFE
(1495807680.227891) can0 3A5#0000000000000000
(1495807680.228899) can0 3AD#FFFFFFFFFFFFFFFF
(1495807680.231845) can0 167#727FFF100019F700
(1495807680.232859) can0 346#000000030300C000
(1495807680.233892) can0 348#0000000000000000
(1495807680.241293) can0 167#727FFF100019F700
(1495807680.242297) can0 42F#7D04002E66030177
(1495807680.244539) can0 216#0000000082000000
(1495807680.245546) can0 415#0000D0F80FFE0FFE
(1495807680.250525) can0 3B6#0800080000000000
(1495807680.251529) can0 3B7#0000020060A67BEB
(1495807680.252542) can0 167#727FFF100019F700
(1495807680.253551) can0 332#0000000000000000
(1495807680.254570) can0 3A4#0000000000000000
(1495807680.255578) can0 33A#0000000000000000
(1495807680.256596) can0 083#0000000000017EF5
(1495807680.257602) can0 3AC#FFFFFFFFFFFFFFFF
(1495807680.258617) can0 3BC#0C00089601AE2700
(1495807680.259648) can0 3BE#00204CEE4000D300
(1495807680.260656) can0 3DE#0000000080000000
(1495807680.261650) can0 42A#D8526EE000000000
(1495807680.262680) can0 167#727FFF100019F700
(1495807680.263696) can0 42C#05515400AA7EA600
(1495807680.264716) can0 42E#9F0000E1790BBC70
(1495807680.265723) can0 216#0000000082000000
(1495807680.266735) can0 415#0000D4F70FFE0FFE
(1495807680.267750) can0 51E#3B02000000000000
(1495807680.271447) can0 333#0000000000000000
(1495807680.272461) can0 167#727FFF100019F700
(1495807680.273545) can0 42F#7D04002E66030177
(1495807680.277909) can0 3A5#0000000000000000
(1495807680.278910) can0 3AD#FFFFFFFFFFFFFFFF
(1495807680.281303) can0 167#727FFF100019F700
(1495807680.282609) can0 326#81A021DC81A100C8
(1495807680.284739) can0 216#0000000082000000
(1495807680.285746) can0 33B#0000000000000000
(1495807680.286774) can0 415#0000D8F60FFE0FFE
(1495807680.292091) can0 167#727FFF100019F600
(1495807680.300982) can0 40A#C1023130373639FF
(1495807680.301986) can0 167#727FFF100019F600
(1495807680.302996) can0 42F#7D04002E66020177
(1495807680.304283) can0 3A4#0000000000000000
(1495807680.305297) can0 3AC#FFFFFFFFFFFFFFFF
(1495807680.306308) can0 216#0000000082000000
(1495807680.307319) can0 083#0000000000017EF4
(1495807680.308331) can0 3BC#0C00089601AD2700
(1495807680.309346) can0 415#0000DCF50FFE0FFE
(1495807680.310351) can0 42A#D8526EE000000000
(1495807680.311360) can0 42C#05515400AA46A600
(1495807680.312370) can0 42E#9B0000E17807BC41
(1495807680.313391) can0 167#727FFF100019F600
(1495807680.314409) can0 178#000001FF0E89CE8A
(1495807680.321346) can0 167#727FFF100019F600
(1495807680.324533) can0 216#0000000082000000
(1495807680.325530) can0 415#0000E0F40FFE0FFE
(1495807680.327923) can0 3A5#0000000000000000
(1495807680.328934) can0 3A7#0E400A045F700000
(1495807680.329943) can0 3AD#FFFFFFFFFFFFFFFF
(1495807680.331828) can0 346#000000030300C000
(1495807680.332842) can0 167#727FFF100019F600
(1495807680.333856) can0 348#0000000000000000
(1495807680.334871) can0 42F#7D04002E66020177
(1495807680.341371) can0 167#727FFF100019F600
(1495807680.344499) can0 216#0000000082000000
(1495807680.345508) can0 33B#0000000000000000
(1495807680.346534) can0 415#0000E4F30FFE0FFE
(1495807680.348933) can0 53B#5D12000000000000
(1495807680.351862) can0 167#727FFF100019F600
(1495807680.352875) can0 332#0000000000000000
(1495807680.353882) can0 33A#0000000000000000
(1495807680.354910) can0 3A4#0000000000000000
(1495807680.355922) can0 083#0000000000017EF4
(1495807680.356934) can0 3A6#0E400A045F700000
(1495807680.357942) can0 3AC#FFFFFFFFFFFFFFFF
(1495807680.358953) can0 3BC#0C00089601AE2700
(1495807680.359963) can0 3BE#00204CEE4000D300
(1495807680.360977) can0 3C4#7796E831000093DE
(1495807680.361993) can0 167#727FFF100019F600
(1495807680.363006) can0 42A#D8526EE000000000
(1495807680.364036) can0 42C#05515400AA7EA600
(1495807680.365044) can0 42E#9F0000E1790BBC70
(1495807680.366048) can0 216#0000000082000000
(1495807680.367058) can0 415#0000E8F20FFE0FFE
(1495807680.368071) can0 42F#7D04002E66020177
(1495807680.371417) can0 333#0000000000000000
(1495807680.372424) can0 167#727FFF100019F600
(1495807680.377956) can0 3A5#0000000000000000
(1495807680.378968) can0 3AD#FFFFFFFFFFFFFFFF
(1495807680.381365) can0 167#727FFF100019F600
(1495807680.383076) can0 326#81A021DC81A100C8
(1495807680.384760) can0 216#0000000082000000
(1495807680.385789) can0 415#0000ECF10FFE0FFE
(1495807680.392121) can0 167#727FFF100019F600
(1495807680.393593) can0 42F#7D04002E66020177
(1495807680.401339) can0 167#727FFF100019F600
(1495807680.404453) can0 3A4#0000000000000000
(1495807680.405469) can0 216#0000000082000000
(1495807680.406480) can0 083#0000000000017EF4
(1495807680.407497) can0 33B#0000000000000000
(1495807680.408514) can0 3AC#FFFFFFFFFFFFFFFF
(1495807680.409543) can0 3BC#0C00089601AE2700
(1495807680.410548) can0 415#0000F0F00FFE0FFE
(1495807680.411551) can0 42A#D8526EE000000000
(1495807680.412568) can0 42C#05515400AA46A600
(1495807680.413574) can0 167#727FFF100019F600
(1495807680.414591) can0 178#000001FF0E89CE8A
(1495807680.415608) can0 42E#9B0000E17807BC41
(1495807680.421373) can0 167#727FFF100019F600
(1495807680.422380) can0 42F#7D04002E66020177
(1495807680.424604) can0 216#0000000082000000
(1495807680.425612) can0 415#0000F4EF0FFE0FFE
(1495807680.427960) can0 3A5#0000000000000000
(1495807680.428974) can0 3AD#FFFFFFFFFFFFFFFF
(1495807680.431891) can0 167#727FFF100019F700
(1495807680.432926) can0 346#000000030300C000
(1495807680.433927) can0 348#0000000000000000
(1495807680.440609) can0 304#0800000000000000
(1495807680.441614) can0 167#727FFF100019F700
(1495807680.443499) can0 55D#0402000000000000
(1495807680.444516) can0 216#0000000082000000
(1495807680.445525) can0 415#0000F8EE0FFE0FFE
(1495807680.451875) can0 167#727FFF100019F700
(1495807680.452883) can0 332#0000000000000000
(1495807680.453893) can0 42F#7D04002E66030177
(1495807680.454926) can0 33A#0000000000000000
(1495807680.455935) can0 083#0000000000017EF6
(1495807680.456937) can0 33F#0100000000000000
(1495807680.457947) can0 3A4#0000000000000000
(1495807680.458958) can0 3AC#FFFFFFFFFFFFFFFF
(1495807680.459968) can0 3BC#0C00089601AE2700
(1495807680.460980) can0 3BE#00204CEE4000D300
(1495807680.461988) can0 167#727FFF100019F700
(1495807680.462998) can0 42A#D8526EE000000000
(1495807680.464011) can0 42C#05515400AA7EA600
(1495807680.465025) can0 42E#9F0000E1750BBC70
(1495807680.466051) can0 216#0000000082000000
(1495807680.467056) can0 33B#0000000000000000
(1495807680.468064) can0 415#0000FCED0FFE0FFE
(1495807680.471364) can0 333#0000000000000000
(1495807680.472372) can0 167#727FFF100019F800
(1495807680.477987) can0 3A5#0000000000000000
(1495807680.479001) can0 3AD#FFFFFFFFFFFFFFFF
(1495807680.481348) can0 167#727FFF100019F800
(1495807680.482353) can0 42F#7D04002E66050177
(1495807680.483576) can0 124#0202000000000000
(1495807680.484594) can0 22C#000A000000000000
(1495807680.485601) can0 216#0000000082000000
(1495807680.486612) can0 326#81A021DC81A100C8
(1495807680.487623) can0 355#60003D8000840000
(1495807680.488642) can0 356#003C4C4F4C4F0000
(1495807680.489649) can0 35E#00C000DAAB016800
(1495807680.490682) can0 3E7#0000000000000000
(1495807680.491684) can0 415#0000C0FC0FFE0FFE
(1495807680.492693) can0 167#727FFF100019F800
(1495807680.493708) can0 41A#8A40000000000000
(1495807680.496344) can0 358#002C000000000000
(1495807680.501393) can0 3B6#0800090000000000
(1495807680.502397) can0 167#727FFF100019F800
(1495807680.503408) can0 3B7#0000030060A65F8C
(1495807680.504433) can0 3EB#5704140000100000
(1495807680.505437) can0 3A4#0000000000000000
(1495807680.506449) can0 216#0000000082000000
(1495807680.507458) can0 083#0000000000017EF4
(1495807680.508467) can0 3AC#FFFFFFFFFFFFFFFF
(1495807680.509480) can0 3BC#0C00089601AF2700
(1495807680.510491) can0 40A#C104014107F670C1
(1495807680.511502) can0 415#0000C4FB0FFE0FFE
(1495807680.512519) can0 42A#D8526EE000000000
(1495807680.513530) can0 167#727FFF100019F800
(1495807680.514558) can0 178#000001FE0E89CE8A
(1495807680.515563) can0 42C#05515400AA46A600
(1495807680.516569) can0 42E#9B0000E17207BC41
(1495807680.517571) can0 3E2#0000000080000000
(1495807680.518581) can0 42F#7D04002E66050177
(1495807680.519592) can0 447#2100000002000000
(1495807680.521346) can0 167#727FFF100019F900
(1495807680.524580) can0 216#0000000082000000
(1495807680.525583) can0 33B#0000000000000000
(1495807680.526603) can0 415#0000C8FA0FFE0FFE
(1495807680.528132) can0 3A5#0000000000000000
(1495807680.529146) can0 3A7#0E400A045F700000
(1495807680.530158) can0 3AD#FFFFFFFFFFFFFFFF
(1495807680.531717) can0 346#000000030300C000
(1495807680.532733) can0 167#727FFF100019F900
(1495807680.533740) can0 348#0000000000000000
(1495807680.534752) can0 355#6000098000840000
(1495807680.535769) can0 356#30184C4F4C4F0000
(1495807680.536785) can0 358#0000000000000000
(1495807680.540692) can0 3E1#8000010701800000
(1495807680.541698) can0 167#727FFF100019F900
(1495807680.542707) can0 42F#7D04002E66060176
(1495807680.543717) can0 504#0512000000000000
(1495807680.544736) can0 216#0000000082000000
(1495807680.545753) can0 415#0000CCF90FFE0FFE
(1495807680.550447) can0 3B4#401111FF25250000
(1495807680.551891) can0 167#727FFF100019F900
(1495807680.552909) can0 332#0000000000000000
(1495807680.553939) can0 33A#0000000000000000
(1495807680.554945) can0 3A4#0000000000000000
(1495807680.555951) can0 083#0000000000017EF4
(1495807680.556965) can0 3A6#0E400A045F700000
(1495807680.557971) can0 3AC#FFFFFFFFFFFFFFFF
(1495807680.558988) can0 3BC#0C00089601AE2700
(1495807680.559998) can0 3BE#00204CEE4000D301
(1495807680.561011) can0 3C4#7796E801000093DE
(1495807680.562018) can0 3D5#0400000000000000
(1495807680.563035) can0 167#727FFF100019F900
(1495807680.564066) can0 42A#D8526DE000000000
(1495807680.565074) can0 42C#05515400AA7FA700
(1495807680.566084) can0 216#0000000082000000
(1495807680.567092) can0 415#0000D0F80FFE0FFE
(1495807680.568103) can0 42E#9F0000E1740BBC70
(1495807680.571352) can0 333#0000000000000000
(1495807680.572366) can0 167#727FFF100019F900
(1495807680.573594) can0 42F#7D04002E66060176
(1495807680.574602) can0 356#00184C4F4C4F0000
(1495807680.576693) can0 465#63EE415234F08FCC
(1495807680.578203) can0 3A5#0000000000000000
(1495807680.579209) can0 3AD#FFFFFFFFFFFFFFFF
(1495807680.581418) can0 167#727FFF100019F900
(1495807680.584052) can0 326#81A021DC81A100C8
(1495807680.585053) can0 216#0000000082000000
(1495807680.586077) can0 33B#0000000000000000
(1495807680.587075) can0 415#0000D4F70FFE0FFE
(1495807680.588087) can0 467#AA80003593001028
(1495807680.592151) can0 167#727FFF100019F900
(1495807680.600847) can0 3B3#4048061210050022
(1495807680.601853) can0 167#727FFF100019F900
(1495807680.602866) can0 3C3#40C8000000004100
(1495807680.603878) can0 35D#0000000000000000
(1495807680.604888) can0 3A4#0000000000000000
(1495807680.605899) can0 216#0000000082000000
(1495807680.606918) can0 083#0000000000017EF4
(1495807680.607920) can0 3AC#FFFFFFFFFFFFFFFF
(1495807680.608954) can0 3BC#0C00089601AF2700
(1495807680.609953) can0 415#0000D8F60FFE0FFE
(1495807680.610953) can0 42A#D8526DE000000000
(1495807680.611960) can0 42C#05515400AA46A600
(1495807680.612976) can0 42E#9B0000E17607BC41
(1495807680.613992) can0 167#727FFF100019F900
(1495807680.614993) can0 178#000002010E89CE8A
(1495807680.616005) can0 42F#7D04002E66060176
(1495807680.619998) can0 1E6#800CE80700000000
(1495807680.621405) can0 167#727FFF100019F900
(1495807680.624583) can0 216#0000000082000000
(1495807680.625583) can0 415#0000DCF50FFE0FFE
(1495807680.628081) can0 3A5#0000000000000000
(1495807680.629083) can0 3AD#FFFFFFFFFFFFFFFF
(1495807680.631914) can0 167#727FFF100019F900
(1495807680.632939) can0 346#000000030300C000
(1495807680.633956) can0 348#0000000000000000
(1495807680.634956) can0 42F#7D04002E66060176
(1495807680.636339) can0 358#002C000000000000
(1495807680.641398) can0 505#0B12000000000000
(1495807680.642405) can0 167#727FFF100019F800
(1495807680.644586) can0 216#0000000082000000
(1495807680.645583) can0 33B#0000000000000000
(1495807680.646598) can0 415#0000E0F40FFE0FFE
(1495807680.651904) can0 167#727FFF100019F800
(1495807680.652916) can0 332#0000000000000000
(1495807680.653922) can0 33A#0000000000000000
(1495807680.654933) can0 3A4#0000000000000000
(1495807680.655959) can0 083#0000000000017EF4
(1495807680.656966) can0 2FD#D400E3C108520000
(1495807680.657964) can0 3AC#FFFFFFFFFFFFFFFF
(1495807680.658973) can0 3BC#0C00089601AD2700
(1495807680.659985) can0 3BE#00204CEE4000D300
(1495807680.660997) can0 42A#D8526DE000000000
(1495807680.662005) can0 42C#05515400AA7EA600
(1495807680.663014) can0 167#727FFF100019F800
(1495807680.664026) can0 42E#9F0000E1770BBC70
(1495807680.665037) can0 42F#7D04002E66050176
(1495807680.666052) can0 216#0000000082000000
(1495807680.667081) can0 415#0000E4F30FFE0FFE
(1495807680.671305) can0 333#0000000000000000
(1495807680.672333) can0 167#727FFF100019F800
(1495807680.674466) can0 356#301C4C4F4C4F0000
(1495807680.676487) can0 358#0000000000000000
(1495807680.678088) can0 3A5#0000000000000000
(1495807680.679088) can0 3AD#FFFFFFFFFFFFFFFF
(1495807680.681569) can0 167#727FFF100019F700
(1495807680.684539) can0 2A0#FFFFFFFF00001E00
(1495807680.685547) can0 216#0000000082000000
(1495807680.686556) can0 326#81A021DC81A100C8
(1495807680.687584) can0 35E#00C00112AB018000
(1495807680.688593) can0 415#0000E8F20FFE0FFE
(1495807680.690355) can0 331#C0061CBB0CD49414
(1495807680.692161) can0 167#727FFF100019F700
(1495807680.693628) can0 42F#7D04002E66040176
(1495807680.701089) can0 40A#C110409060250000
(1495807680.702091) can0 167#727FFF100019F700
(1495807680.704467) can0 3A4#0000000000000000
(1495807680.705479) can0 216#0000000082000000
(1495807680.706490) can0 083#0000000000017EF6
(1495807680.707501) can0 33B#0000000000000000
(1495807680.708510) can0 3AC#FFFFFFFFFFFFFFFF
(1495807680.709520) can0 3BC#0C00089601AD2700
(1495807680.710531) can0 415#0000ECF10FFE0FFE
(1495807680.711544) can0 42A#D8526DE000000000
(1495807680.712559) can0 42C#05515400AA46A600
(1495807680.713588) can0 167#727FFF100019F700
(1495807680.714593) can0 178#000002000E89CE8A
(1495807680.715596) can0 356#001C4C4F4C4F0000
(1495807680.716611) can0 42E#9B0000E17707BC41
(1495807680.721543) can0 167#727FFF100019F700
(1495807680.722551) can0 42F#7D04002E66030176
(1495807680.724795) can0 216#0000000082000000
(1495807680.725977) can0 415#0000F0F00FFE0FFE
(1495807680.728102) can0 3A5#0000000000000000
(1495807680.729120) can0 3A7#0E400A045F700000
(1495807680.730127) can0 3AD#FFFFFFFFFFFFFFFF
(1495807680.731537) can0 346#000000030300C000
(1495807680.732553) can0 167#727FFF100019F700
(1495807680.733560) can0 348#0000000000000000
(1495807680.740176) can0 34E#0000000000000000
(1495807680.741189) can0 358#0000000000000000
(1495807680.742217) can0 167#727FFF100019F700
(1495807680.743223) can0 50B#1E12000000000000
(1495807680.744559) can0 216#0000000082000000
(1495807680.745568) can0 415#0000F4EF0FFE0FFE
(1495807680.750362) can0 331#C0061CBB0CD49414
(1495807680.751373) can0 3B6#08000A0000000000
(1495807680.752383) can0 167#727FFF100019F700
(1495807680.753395) can0 332#0000000000000000
(1495807680.754408) can0 3B7#0000000060A67C5C
(1495807680.755416) can0 33A#0000000000000000
(1495807680.756433) can0 083#0000000000017EF4
(1495807680.757441) can0 3A4#0000000000000000
(1495807680.758470) can0 3A6#0E400A045F700000
(1495807680.759475) can0 3AC#FFFFFFFFFFFFFFFF
(1495807680.760478) can0 3BC#0C00089601AD2700
(1495807680.761488) can0 084#1100009208000900
(1495807680.762498) can0 3BE#00204CEE4000D300
(1495807680.763513) can0 167#727FFF100019F700
(1495807680.764533) can0 3C4#7796E801000093DE
(1495807680.765539) can0 216#0000000082000000
(1495807680.766554) can0 42A#D8526EE000000000
(1495807680.767565) can0 33B#0000000000000000
(1495807680.768600) can0 415#0000F8EE0FFE0FFE
(1495807680.769613) can0 42C#05515400AA7EA600
(1495807680.770622) can0 42E#9F0000E1770BBC70
(1495807680.771660) can0 42F#7D04002E66030176
(1495807680.771664) can0 333#0000000000000000
(1495807680.772676) can0 167#727FFF100019F700
(1495807680.776543) can0 358#002C000000000000
(1495807680.778227) can0 3A5#0000000000000000
(1495807680.779235) can0 3AD#FFFFFFFFFFFFFFFF
(1495807680.781424) can0 167#727FFF100019F700
(1495807680.782432) can0 42F#7D04002E66030176
(1495807680.784905) can0 216#0000000082000000
(1495807680.785911) can0 326#81A021DC81A100C8
(1495807680.786921) can0 35E#00C0013BAB019800
(1495807680.787939) can0 415#0000FCED0FFE0FFE
(1495807680.792200) can0 167#727FFF100019F700
(1495807680.801404) can0 167#727FFF100019F700
(1495807680.804678) can0 3A4#0000000000000000
(1495807680.805687) can0 216#0000000082000000
(1495807680.806698) can0 083#0000000000017EF4
(1495807680.807731) can0 3AC#FFFFFFFFFFFFFFFF
(1495807680.808737) can0 3BC#0C00089601AD2700
(1495807680.809731) can0 415#0000C0FC0FFE0FFE
(1495807680.810739) can0 42A#D8526EE000000000
(1495807680.811754) can0 42C#05515400AA46A600
(1495807680.812765) can0 42E#9B0000E17907BC41
(1495807680.813774) can0 167#727FFF100019F700
(1495807680.814784) can0 178#000002010E89CE8A
(1495807680.815801) can0 356#301C4C4F4C4F0000
(1495807680.816818) can0 42F#7D04002E66030176
(1495807680.817824) can0 358#0000000000000000
(1495807680.821419) can0 167#727FFF100019F700
(1495807680.824618) can0 216#0000000082000000
(1495807680.825623) can0 33B#0000000000000000
(1495807680.826636) can0 415#0000C4FB0FFE0FFE
(1495807680.828141) can0 3A5#0000000000000000
(1495807680.829153) can0 3AD#FFFFFFFFFFFFFFFF
(1495807680.831986) can0 167#727FFF100019F500
(1495807680.833708) can0 346#000000030300C000
(1495807680.834733) can0 348#0000000000000000
(1495807680.835735) can0 51E#3B02000000000000
(1495807680.841427) can0 167#727FFF100019F500
(1495807680.842433) can0 42F#7D04002E66000177
(1495807680.844670) can0 216#0000000082000000
(1495807680.846328) can0 415#0000C8FA0FFE0FFE
(1495807680.851945) can0 167#727FFF100019F500
(1495807680.852955) can0 332#0000000000000000
(1495807680.853961) can0 33A#0000000000000000
(1495807680.854989) can0 3A4#0000000000000000
(1495807680.855994) can0 083#0000000000017EF5
(1495807680.857012) can0 356#001C4C4F4C4F0000
(1495807680.858017) can0 3AC#FFFFFFFFFFFFFFFF
(1495807680.859034) can0 3BC#0C00089601AE2700
(1495807680.860049) can0 3BE#00204CEE4000D300
(1495807680.861059) can0 42A#D7526EE000000000
(1495807680.862071) can0 167#727FFF100019F400
(1495807680.863082) can0 42C#05515400AA7EA600
(1495807680.864110) can0 42E#9F0000E1780BBC70
(1495807680.865115) can0 216#0000000082000000
(1495807680.866132) can0 415#0000CCF90FFE0FFE
(1495807680.871244) can0 333#0000000000000000
(1495807680.872244) can0 167#727FFF100019F400
(1495807680.873654) can0 42F#7D04002E65FE0177
(1495807680.878184) can0 3A5#0000000000000000
(1495807680.879193) can0 3AD#FFFFFFFFFFFFFFFF
(1495807680.881577) can0 167#727FFF100019F600
(1495807680.884622) can0 216#0000000082000000
(1495807680.885618) can0 326#81A021DC81A100C8
(1495807680.886638) can0 33B#0000000000000000
(1495807680.887647) can0 415#0000D0F80FFE0FFE
(1495807680.892182) can0 167#727FFF100019F600
(1495807680.901127) can0 40A#C000000D11A2FE00
(1495807680.902126) can0 167#727FFF100019F600
(1495807680.903136) can0 42F#7D04002E66010177
(1495807680.904558) can0 3A4#0000000000000000
(1495807680.905574) can0 3AC#FFFFFFFFFFFFFFFF
(1495807680.906589) can0 083#0000000000017EF5
(1495807680.907617) can0 216#0000000082000000
(1495807680.908624) can0 3BC#0C00089601AF2700
(1495807680.909622) can0 415#0000D4F70FFE0FFE
(1495807680.910629) can0 42A#D7526EE000000000
(1495807680.911644) can0 42C#05515400AA46A600
(1495807680.912663) can0 42E#9B0000E17207BC41
(1495807680.913669) can0 167#727FFF100019F800
(1495807680.914679) can0 178#000001FD0E89CE8A
(1495807680.921591) can0 167#727FFF100019F800
(1495807680.924628) can0 216#0000000082000000
(1495807680.926065) can0 415#0000D8F60FFE0FFE
(1495807680.928196) can0 3A5#0000000000000000
(1495807680.929213) can0 3A7#0E400A045F700000
(1495807680.930222) can0 3AD#FFFFFFFFFFFFFFFF
(1495807680.931245) can0 53B#5D12000000000000
(1495807680.932250) can0 346#000000030300C000
(1495807680.933268) can0 167#727FFF100019F800
(1495807680.934280) can0 348#0000000000000000
(1495807680.935291) can0 42F#7D04002E66040176
(1495807680.941793) can0 167#727FFF100019F800
(1495807680.944627) can0 216#0000000082000000
(1495807680.946084) can0 33B#0000000000000000
(1495807680.947095) can0 415#0000DCF50FFE0FFE
(1495807680.952007) can0 167#727FFF100019FA00
(1495807680.953006) can0 332#0000000000000000
(1495807680.954016) can0 33A#0000000000000000
(1495807680.955032) can0 3A4#0000000000000000
(1495807680.956060) can0 083#0000000000017EF4
(1495807680.957063) can0 3A6#0E400A045F700000
(1495807680.958074) can0 3AC#FFFFFFFFFFFFFFFF
(1495807680.959085) can0 3BC#0C00089601B12700
(1495807680.960102) can0 3BE#00204CEE4000D300
(1495807680.961132) can0 3C4#7796E841000093DE
(1495807680.962130) can0 167#727FFF100019FA00
(1495807680.963153) can0 42A#D75774E000000000
(1495807680.964166) can0 42C#05515400AA7EA600
(1495807680.965179) can0 42E#9F0000E16F0BBC70
(1495807680.966189) can0 216#0000000082000000
(1495807680.967206) can0 42F#7D04002E66070176
(1495807680.968215) can0 415#0000E0F40FFE0FFE
(1495807680.971217) can0 333#0000000000000000
(1495807680.972251) can0 167#727FFF100019FA00
(1495807680.978212) can0 3A5#0000000000000000
(1495807680.979222) can0 3AD#FFFFFFFFFFFFFFFF
(1495807680.981465) can0 167#727FFF100019FA00
(1495807680.985961) can0 326#81A021DD81A100C8
(1495807680.986975) can0 216#0000000082000000
(1495807680.988004) can0 415#0000E4F30FFE0FFE
(1495807680.992241) can0 167#727FFF100019FA00
(1495807680.993670) can0 42F#7D04002E66070176
(1495807681.000982) can0 3B6#08000B0000000000
(1495807681.002007) can0 167#727FFF100019FB00
(1495807681.003011) can0 3B7#0000010060A6144E
(1495807681.004637) can0 3A4#0000000000000000
(1495807681.005631) can0 3AC#FFFFFFFFFFFFFFFF
(1495807681.006636) can0 083#0000000000017EF4
(1495807681.007641) can0 216#0000000082000000
(1495807681.008664) can0 33B#0000000000000000
(1495807681.009668) can0 3BC#0C00089601B22700
(1495807681.010683) can0 415#0000E8F20FFE0FFE
(1495807681.011692) can0 42A#D85774E000000000
(1495807681.012706) can0 42C#05515400AA46A600
(1495807681.013715) can0 167#727FFF100019FB00
(1495807681.014740) can0 178#000001FF0E89CE8A
(1495807681.015780) can0 42E#9B0000E17107BC41
(1495807681.021482) can0 167#727FFF100019FB00
(1495807681.022480) can0 42F#7D04002E660A0176
(1495807681.025446) can0 216#0000000082000000
(1495807681.026460) can0 415#0000ECF10FFE0FFE
(1495807681.027472) can0 55D#0402000000000000
(1495807681.028487) can0 3A5#0000000000000000
(1495807681.029510) can0 3AD#FFFFFFFFFFFFFFFF
(1495807681.032014) can0 167#727FFF100019FB00
(1495807681.035798) can0 346#000000030300C000
(1495807681.036809) can0 348#0000000000000000
(1495807681.037814) can0 3E0#0000000080000000
(1495807681.041473) can0 167#727FFF100019FB00
(1495807681.045340) can0 216#0000000082000000
(1495807681.046346) can0 415#0000F0F00FFE0FFE
(1495807681.052015) can0 167#727FFF100019FB00
(1495807681.053021) can0 332#0000000000000000
(1495807681.054020) can0 42F#7D04002E660A0176
(1495807681.055031) can0 33A#0000000000000000
(1495807681.056043) can0 083#0000000000017EF4
(1495807681.057059) can0 3A4#0000000000000000
(1495807681.058070) can0 3AC#FFFFFFFFFFFFFFFF
(1495807681.059079) can0 3BC#0C00089601B32700
(1495807681.060089) can0 3BE#00204CEE4000D300
(1495807681.061103) can0 42A#D75A73E000000000
(1495807681.062139) can0 167#727FFF100019FB00
(1495807681.063144) can0 42C#05515400AA7EA600
(1495807681.064149) can0 42E#9F0000E1710BBC70
(1495807681.065451) can0 216#0000000082000000
(1495807681.066455) can0 33B#0000000000000000
(1495807681.067464) can0 3E7#0000000000000000
(1495807681.068482) can0 415#0000F4EF0FFE0FFE
(1495807681.071163) can0 333#0000000000000000
(1495807681.072176) can0 167#727FFF100019FB00
(1495807681.073191) can0 33C#0000000000000000
(1495807681.078277) can0 3A5#0000000000000000
(1495807681.079278) can0 3AD#FFFFFFFFFFFFFFFF
(1495807681.081467) can0 167#727FFF100019FB00
(1495807681.082480) can0 42F#7D04002E660A0175
(1495807681.085922) can0 216#0000000082000000
(1495807681.086929) can0 326#81A021DD81A100C8
(1495807681.087939) can0 415#0000F8EE0FFE0FFE
(1495807681.092269) can0 167#727FFF100019FB00
(1495807681.101322) can0 3B3#4048061210050022
(1495807681.102334) can0 167#727FFF100019FB00
(1495807681.103349) can0 40A#C100334641365030
(1495807681.104667) can0 3A4#0000000000000000
(1495807681.105674) can0 3AC#FFFFFFFFFFFFFFFF
(1495807681.106683) can0 083#0000000000017EF4
(1495807681.107693) can0 216#0000000082000000
(1495807681.108706) can0 3BC#0C00089601B52700
(1495807681.109715) can0 415#0000FCED0FFE0FFE
(1495807681.110730) can0 42A#D75A73E000000000
(1495807681.111745) can0 42C#05515400AA46A600
(1495807681.112775) can0 42E#9B0000E17307BC41
(1495807681.113775) can0 167#727FFF100019FB00
(1495807681.114790) can0 178#000002010E89CE8A
(1495807681.116148) can0 42F#7D04002E660A0175
(1495807681.121495) can0 167#727FFF100019FA00
(1495807681.122721) can0 504#0512000000000000
(1495807681.124944) can0 216#0000000082000000
(1495807681.125948) can0 33B#0000000000000000
(1495807681.126959) can0 415#0000C0FC0FFE0FFE
(1495807681.128278) can0 3A5#0000000000000000
(1495807681.129298) can0 3A7#0E400A045F700000
(1495807681.130314) can0 3AD#FFFFFFFFFFFFFFFF
(1495807681.131323) can0 346#000000030300C000
(1495807681.132339) can0 348#0000000000000000
(1495807681.133359) can0 167#727FFF100019FA00
(1495807681.141495) can0 167#727FFF100019FA00
(1495807681.142525) can0 42F#7D04002E66080175
(1495807681.145443) can0 216#0000000082000000
(1495807681.146449) can0 415#0000C4FB0FFE0FFE
(1495807681.152029) can0 167#727FFF100019FA00
(1495807681.153034) can0 332#0000000000000000
(1495807681.154035) can0 33A#0000000000000000
(1495807681.155046) can0 083#0000000000017EF4
(1495807681.156056) can0 3A4#0000000000000000
(1495807681.157072) can0 3A6#0E400A045F700000
(1495807681.158083) can0 3AC#FFFFFFFFFFFFFFFF
(1495807681.159095) can0 3BC#0C00089601B42700
(1495807681.160107) can0 3BE#00204CEE4000D300
(1495807681.161125) can0 3C4#7796E801000093DE
(1495807681.162129) can0 167#727FFF100019F900
(1495807681.163157) can0 42A#D85C73E000000000
(1495807681.164158) can0 42C#05515400AA7EA600
(1495807681.165179) can0 42E#9F0000E1730BBC70
(1495807681.166191) can0 216#0000000082000000
(1495807681.167202) can0 415#0000C8FA0FFE0FFE
(1495807681.171161) can0 333#0000000000000000
(1495807681.172164) can0 167#727FFF100019F900
(1495807681.173695) can0 42F#7D04002E66060175
(1495807681.178482) can0 3A5#0000000000000000
(1495807681.179487) can0 3AD#FFFFFFFFFFFFFFFF
(1495807681.181507) can0 167#727FFF100019F900
(1495807681.184841) can0 216#0000000082000000
(1495807681.186322) can0 33B#0000000000000000
(1495807681.187331) can0 326#81A021DD81A100C8
(1495807681.188335) can0 415#0000CCF90FFE0FFE
(1495807681.192288) can0 167#727FFF100019F900
(1495807681.196421) can0 466#70200431B2403800
(1495807681.201473) can0 167#727FFF100019F900
(1495807681.202481) can0 42F#7D04002E66060175
(1495807681.204717) can0 3A4#0000000000000000
(1495807681.205723) can0 083#0000000000017EF4
(1495807681.206737) can0 216#0000000082000000
(1495807681.207747) can0 3AC#FFFFFFFFFFFFFFFF
(1495807681.208772) can0 3BC#0C00089601B52700
(1495807681.209786) can0 415#0000D0F80FFE0FFE
(1495807681.210796) can0 42A#D85C73E000000000
(1495807681.211805) can0 42C#05515400AA46A600
(1495807681.212820) can0 42E#9B0000E17507BC41
(1495807681.213828) can0 167#727FFF100019F900
(1495807681.214839) can0 178#000002000E89CE8A
(1495807681.221236) can0 505#0B12000000000000
(1495807681.222245) can0 167#727FFF100019F900
(1495807681.224970) can0 216#0000000082000000
(1495807681.225979) can0 415#0000D4F70FFE0FFE
(1495807681.228334) can0 3A5#0000000000000000
(1495807681.229356) can0 3AD#FFFFFFFFFFFFFFFF
(1495807681.231668) can0 346#000000030300C000
(1495807681.232683) can0 167#727FFF100019F900
(1495807681.233688) can0 348#0000000000000000
(1495807681.234701) can0 42F#7D04002E66070175
(1495807681.241485) can0 167#727FFF100019F900
(1495807681.244716) can0 216#0000000082000000
(1495807681.245723) can0 33B#0000000000000000
(1495807681.246732) can0 415#0000D8F60FFE0FFE
(1495807681.250556) can0 3B6#08000000307FE171
(1495807681.251564) can0 3B7#0000020060A67BEB
(1495807681.252576) can0 167#727FFF100019F900
(1495807681.253584) can0 332#0000000000000000
(1495807681.254595) can0 33A#0000000000000000
(1495807681.255603) can0 083#0000000000017EF4
(1495807681.256621) can0 3A4#0000000000000000
(1495807681.257629) can0 3AC#FFFFFFFFFFFFFFFF
(1495807681.258638) can0 3BC#0C00089601B62700
(1495807681.259666) can0 3BE#00204CEE4000D300
(1495807681.260675) can0 3DE#0000000080000000
(1495807681.261672) can0 42A#D75D73E000000000
(1495807681.262687) can0 167#727FFF100019F900
(1495807681.263696) can0 42C#05515400AA7EA600
(1495807681.264718) can0 42E#9F0000E1720BBC70
(1495807681.265725) can0 216#0000000082000000
(1495807681.266739) can0 42F#7D04002E66060175
(1495807681.267750) can0 415#0000DCF50FFE0FFE
(1495807681.271094) can0 333#0000000000000000
(1495807681.272106) can0 167#727FFF100019F900
(1495807681.278349) can0 3A5#0000000000000000
(1495807681.279352) can0 3AD#FFFFFFFFFFFFFFFF
(1495807681.281507) can0 167#727FFF100019FA00
(1495807681.284700) can0 216#0000000082000000
(1495807681.286175) can0 415#0000E0F40FFE0FFE
(1495807681.287425) can0 326#81A021DD81A100C8
(1495807681.292305) can0 167#727FFF100019FA00
(1495807681.293759) can0 42F#7D04002E66070175
(1495807681.301149) can0 40A#C1014B3931485232
(1495807681.302172) can0 167#727FFF100019FA00
(1495807681.304748) can0 3A4#0000000000000000
(1495807681.305756) can0 083#0000000000017EF4
(1495807681.306767) can0 216#0000000082000000
(1495807681.307801) can0 33B#0000000000000000
(1495807681.308806) can0 3AC#FFFFFFFFFFFFFFFF
(1495807681.309803) can0 3BC#0C00089601B72700
(1495807681.310820) can0 415#0000E4F30FFE0FFE
(1495807681.311831) can0 42A#D75D73E000000000
(1495807681.312850) can0 42C#05515400AA46A600
(1495807681.313863) can0 167#727FFF100019F900
(1495807681.314878) can0 178#000002000E89CE8A
(1495807681.315893) can0 42E#9B0000E17107BC41
(1495807681.321393) can0 50B#1E12000000000000
(1495807681.322403) can0 167#727FFF100019F900
(1495807681.323426) can0 42F#7D04002E66070175
(1495807681.324932) can0 216#0000000082000000
(1495807681.326181) can0 415#0000E8F20FFE0FFE
(1495807681.328364) can0 3A5#0000000000000000
(1495807681.329380) can0 3A7#0E400A045F700000
(1495807681.330386) can0 3AD#FFFFFFFFFFFFFFFF
(1495807681.331401) can0 346#000000030300C000
(1495807681.332427) can0 167#727FFF100019F900
(1495807681.333432) can0 348#0000000000000000
(1495807681.341589) can0 167#727FFF100019FA00
(1495807681.344707) can0 216#0000000082000000
(1495807681.345715) can0 415#0000ECF10FFE0FFE
(1495807681.352059) can0 167#727FFF100019FA00
(1495807681.353064) can0 332#0000000000000000
(1495807681.354073) can0 42F#7D04002E66080175
(1495807681.355091) can0 083#0000000000017EF4
(1495807681.356113) can0 33A#0000000000000000
(1495807681.357113) can0 3A4#0000000000000000
(1495807681.358120) can0 3A6#0E400A045F700000
(1495807681.359137) can0 3AC#FFFFFFFFFFFFFFFF
(1495807681.360155) can0 3BC#0C00089601B82700
(1495807681.361190) can0 3BE#00204CEE4000D300
(1495807681.362191) can0 167#727FFF100019F900
(1495807681.363209) can0 3C4#7796E831000093DE
(1495807681.364226) can0 42A#D85D71E000000000
(1495807681.365248) can0 42C#05515400AA7EA600
(1495807681.366260) can0 216#0000000082000000
(1495807681.367274) can0 33B#0000000000000000
(1495807681.368283) can0 415#0000F0F00FFE0FFE
(1495807681.369313) can0 42E#9F0000E1760BBC70
(1495807681.371063) can0 333#0000000000000000
(1495807681.372069) can0 167#727FFF100019F900
(1495807681.378394) can0 3A5#0000000000000000
(1495807681.379403) can0 3AD#FFFFFFFFFFFFFFFF
(1495807681.381530) can0 167#727FFF100019F900
(1495807681.382559) can0 42F#7D04002E66060175
(1495807681.384772) can0 216#0000000082000000
(1495807681.386442) can0 415#0000F4EF0FFE0FFE
(1495807681.387893) can0 326#81A021DD81A100C8
(1495807681.392266) can0 167#727FFF100019F900
(1495807681.401529) can0 167#727FFF100019F800
(1495807681.404819) can0 3A4#0000000000000000
(1495807681.405816) can0 083#0000000000017EF7
(1495807681.406836) can0 216#0000000082000000
(1495807681.407845) can0 3AC#FFFFFFFFFFFFFFFF
(1495807681.408858) can0 3BC#0C00089601B92700
(1495807681.409868) can0 415#0000F8EE0FFE0FFE
(1495807681.410884) can0 42A#D85D71E000000000
(1495807681.411901) can0 42C#05515400AA46A600
(1495807681.412940) can0 42E#9B0000E17607BC41
(1495807681.413943) can0 167#727FFF100019F800
(1495807681.414947) can0 178#000002000E89CE8A
(1495807681.415969) can0 51E#3B02000000000000
(1495807681.416983) can0 42F#7D04002E66060175
(1495807681.421535) can0 167#727FFF100019F800
(1495807681.424765) can0 216#0000000082000000
(1495807681.425771) can0 33B#0000000000000000
(1495807681.426788) can0 415#0000FCED0FFE0FFE
(1495807681.428408) can0 3A5#0000000000000000
(1495807681.429442) can0 3AD#FFFFFFFFFFFFFFFF
(1495807681.431512) can0 346#000000030300C000
(1495807681.432529) can0 167#727FFF100019F800
(1495807681.433532) can0 348#0000000000000000
(1495807681.441538) can0 304#0800000000000000
(1495807681.442543) can0 167#727FFF100019F800
(1495807681.443568) can0 42F#7D04002E66050175
(1495807681.444766) can0 216#0000000082000000
(1495807681.445974) can0 415#0000C0FC0FFE0FFE
(1495807681.452039) can0 167#727FFF100019F800
(1495807681.453055) can0 332#0000000000000000
(1495807681.454069) can0 33A#0000000000000000
(1495807681.455075) can0 083#0000000000017EF4
(1495807681.456081) can0 33F#0100000000000000
(1495807681.457097) can0 3A4#0000000000000000
(1495807681.458106) can0 3AC#FFFFFFFFFFFFFFFF
(1495807681.459123) can0 3BC#0C00089601B92700
(1495807681.460138) can0 3BE#00204CEE4000D300
(1495807681.461151) can0 42A#D85D72E000000000
(1495807681.462157) can0 167#727FFF100019F800
(1495807681.463168) can0 42C#05515400AA7EA600
(1495807681.464195) can0 42E#9F0000E1770BBC70
(1495807681.465203) can0 216#0000000082000000
(1495807681.466208) can0 415#0000C4FB0FFE0FFE
(1495807681.471060) can0 333#0000000000000000
(1495807681.472076) can0 167#727FFF100019F800
(1495807681.473774) can0 42F#7D04002E66040175
(1495807681.478457) can0 3A5#0000000000000000
(1495807681.479457) can0 3AD#FFFFFFFFFFFFFFFF
(1495807681.481521) can0 167#727FFF100019F700
(1495807681.484740) can0 216#0000000082000000
(1495807681.486208) can0 33B#0000000000000000
(1495807681.487225) can0 415#0000C8FA0FFE0FFE
(1495807681.488418) can0 124#0202000000000000
(1495807681.489451) can0 22C#000A000000000000
(1495807681.490453) can0 326#81A021DD81A100C8
(1495807681.491458) can0 355#6000098000840000
(1495807681.492478) can0 356#001C4C4F4C4F0000
(1495807681.493490) can0 167#727FFF100019F700
(1495807681.494499) can0 35E#00C0013BAB019800
(1495807681.495511) can0 3E7#0000000000000000
(1495807681.496526) can0 41A#8A40000000000000
(1495807681.501515) can0 3B6#08000100307FE16D
(1495807681.502527) can0 167#727FFF100019F700
(1495807681.503540) can0 3B7#0000030060A65F8C
(1495807681.504840) can0 3A4#0000000000000000
(1495807681.505859) can0 083#0000000000017EF4
(1495807681.506875) can0 3AC#FFFFFFFFFFFFFFFF
(1495807681.507885) can0 3BC#0C00089601BA2700
(1495807681.508899) can0 3EB#5704140000100000
(1495807681.509913) can0 40A#C1023130373639FF
(1495807681.510923) can0 216#0000000082000000
(1495807681.511951) can0 415#0000CCF90FFE0FFE
(1495807681.512960) can0 42A#D85D72E000000000
(1495807681.513960) can0 167#727FFF100019F700
(1495807681.514974) can0 178#000002000E89CE8A
(1495807681.515988) can0 42C#00001400AA46A600
(1495807681.517002) can0 42E#9B0000E17707BC41
(1495807681.518009) can0 3E2#0000000080000000
(1495807681.519020) can0 42F#7D04002E66040175
(1495807681.520037) can0 447#2100000002000000
(1495807681.521052) can0 53B#5D12000000000000
(1495807681.522078) can0 167#727FFF100019F700
(1495807681.524752) can0 216#0000000082000000
(1495807681.525760) can0 415#0000D0F80FFE0FFE
(1495807681.528459) can0 3A5#0000000000000000
(1495807681.529462) can0 3A7#0E400A045F700000
(1495807681.530471) can0 3AD#FFFFFFFFFFFFFFFF
(1495807681.531483) can0 346#000000030300C000
(1495807681.532494) can0 167#727FFF100019F700
(1495807681.533516) can0 348#0000000000000000
(1495807681.534528) can0 42F#7D04002E66030175
(1495807681.541552) can0 167#727FFF100019F700
(1495807681.542557) can0 3E1#8000010701800000
(1495807681.544742) can0 216#0000000082000000
(1495807681.545755) can0 33B#0000000000000000
(1495807681.546766) can0 358#0034000000000000
(1495807681.547775) can0 415#0000D4F70FFE0FFE
(1495807681.550498) can0 3B4#401111FF25250000
(1495807681.552042) can0 167#727FFF100019F700
(1495807681.553054) can0 332#0000000000000000
(1495807681.554083) can0 33A#0000000000000000
(1495807681.555088) can0 083#0000000000017EF4
(1495807681.556093) can0 3A4#0000000000000000
(1495807681.557105) can0 3A6#0E400A045F700000
(1495807681.558110) can0 3AC#FFFFFFFFFFFFFFFF
(1495807681.559120) can0 3BC#0C00089601BC2700
(1495807681.560130) can0 3BE#00204CEE4000D301
(1495807681.561150) can0 3C4#7796E801000093DE
(1495807681.562157) can0 167#727FFF100019F700
(1495807681.563168) can0 3D5#0400000000000000
(1495807681.564186) can0 42A#D85D71E000000000
(1495807681.565217) can0 42C#05515400AA7FA700
(1495807681.566214) can0 216#0000000082000000
(1495807681.567227) can0 415#0000D8F60FFE0FFE
(1495807681.568238) can0 42E#9F0000E1760BBC70
(1495807681.569248) can0 42F#7D04002E66030175
(1495807681.570998) can0 333#0000000000000000
(1495807681.572061) can0 167#727FFF100019F700
(1495807681.578509) can0 3A5#0000000000000000
(1495807681.579514) can0 355#60183D8000840000
(1495807681.580525) can0 3AD#FFFFFFFFFFFFFFFF
(1495807681.581534) can0 356#003C4C4F4C4F0000
(1495807681.582546) can0 167#727FFF100019F700
(1495807681.584843) can0 216#0000000082000000
(1495807681.586264) can0 415#0000DCF50FFE0FFE
(1495807681.587283) can0 358#0000000000000000
(1495807681.588314) can0 465#63EE415234F08FCC
(1495807681.589343) can0 326#81A021DD81A100C8
(1495807681.592305) can0 167#727FFF100019F700
(1495807681.593759) can0 42F#7D04002E66030175
(1495807681.596639) can0 467#AA80003593001028
(1495807681.601043) can0 3B3#4048061210050022
(1495807681.602049) can0 167#727FFF100019F800
(1495807681.603063) can0 3C3#40C8000000004100
(1495807681.604402) can0 35D#0000000000000000
(1495807681.605414) can0 3A4#0000000000000000
(1495807681.606427) can0 083#0000000000017EF5
(1495807681.607439) can0 216#0000000082000000
(1495807681.608470) can0 33B#0000000000000000
(1495807681.609470) can0 355#60003D8000840000
(1495807681.610475) can0 3AC#FFFFFFFFFFFFFFFF
(1495807681.611485) can0 3BC#0C00089601BB2700
(1495807681.612497) can0 415#0000E0F40FFE0FFE
(1495807681.613507) can0 167#727FFF100019F800
(1495807681.614518) can0 178#000001FF0E89CE8A
(1495807681.615535) can0 42A#D85D71E000000000
(1495807681.616557) can0 42C#05515400AA46A600
(1495807681.617561) can0 42E#9B0000E17507BC41
(1495807681.618592) can0 55D#0402000000000000
(1495807681.620195) can0 1E6#800CE80700000000
(1495807681.621568) can0 167#727FFF100019F800
(1495807681.622592) can0 42F#7D04002E66040175
(1495807681.624814) can0 216#0000000082000000
(1495807681.626098) can0 415#0000E4F30FFE0FFE
(1495807681.628496) can0 3A5#0000000000000000
(1495807681.629518) can0 3AD#FFFFFFFFFFFFFFFF
(1495807681.631363) can0 346#000000030300C000
(1495807681.632376) can0 167#727FFF100019F800
(1495807681.633392) can0 348#0000000000000000
(1495807681.641603) can0 167#727FFF100019F800
(1495807681.644762) can0 216#0000000082000000
(1495807681.645770) can0 415#0000E8F20FFE0FFE
(1495807681.652104) can0 167#727FFF100019F800
(1495807681.653117) can0 332#0000000000000000
(1495807681.654125) can0 42F#7D04002E66040175
(1495807681.655145) can0 083#0000000000017EF4
(1495807681.656160) can0 2FD#D400E3C108520000
(1495807681.657172) can0 33A#0000000000000000
(1495807681.658181) can0 3A4#0000000000000000
(1495807681.659194) can0 3AC#FFFFFFFFFFFFFFFF
(1495807681.660222) can0 3BC#0C00089601BC2700
(1495807681.661231) can0 3BE#00204CEE4000D300
(1495807681.662230) can0 167#727FFF100019F800
(1495807681.663239) can0 42A#D85D70E000000000
(1495807681.664253) can0 42C#05515400AA7EA600
(1495807681.665267) can0 42E#9F0000E1760BBC70
(1495807681.666278) can0 216#0000000082000000
(1495807681.667289) can0 33B#0000000000000000
(1495807681.668297) can0 415#0000ECF10FFE0FFE
(1495807681.670990) can0 333#0000000000000000
(1495807681.672099) can0 167#727FFF100019F800
(1495807681.678525) can0 3A5#0000000000000000
(1495807681.679533) can0 3AD#FFFFFFFFFFFFFFFF
(1495807681.681570) can0 167#727FFF100019F800
(1495807681.682578) can0 42F#7D04002E66040175
(1495807681.684816) can0 216#0000000082000000
(1495807681.686493) can0 415#0000F0F00FFE0FFE
(1495807681.689359) can0 2A0#FFFFFFFF00001E00
(1495807681.690372) can0 326#81A021DD81A100C8
(1495807681.691385) can0 331#C0061CBC0CD49414
(1495807681.692394) can0 35E#00C00136AB019800
(1495807681.693409) can0 167#727FFF100019F800
(1495807681.701319) can0 40A#C104014107F670C1
(1495807681.702324) can0 167#727FFF100019F800
(1495807681.704946) can0 3A4#0000000000000000
(1495807681.705979) can0 083#0000000000017EF5
(1495807681.706984) can0 216#0000000082000000
(1495807681.707991) can0 3AC#FFFFFFFFFFFFFFFF
(1495807681.709008) can0 3BC#0C00089601BD2700
(1495807681.710017) can0 415#0000F4EF0FFE0FFE
(1495807681.711028) can0 42A#D85D70E000000000
(1495807681.712041) can0 42C#05515400AA46A600
(1495807681.713057) can0 42E#9B0000E17707BC41
(1495807681.714063) can0 167#727FFF100019F800
(1495807681.715079) can0 178#000002000E89CE8A
(1495807681.716112) can0 504#0512000000000000
(1495807681.717115) can0 42F#7D04002E66040175
(1495807681.721565) can0 167#727FFF100019F700
(1495807681.725052) can0 216#0000000082000000
(1495807681.726058) can0 33B#0000000000000000
(1495807681.727070) can0 415#0000F8EE0FFE0FFE
(1495807681.728554) can0 3A5#0000000000000000
(1495807681.729562) can0 3A7#0E400A045F700000
(1495807681.730573) can0 3AD#FFFFFFFFFFFFFFFF
(1495807681.731583) can0 346#000000030300C000
(1495807681.732615) can0 167#727FFF100019F700
(1495807681.733612) can0 348#0000000000000000
(1495807681.740175) can0 34E#0000000000000000
(1495807681.741187) can0 358#0000000000000000
(1495807681.742196) can0 167#727FFF100019F700
(1495807681.743209) can0 42F#7D04002E66030175
(1495807681.744822) can0 216#0000000082000000
(1495807681.746021) can0 415#0000FCED0FFE0FFE
(1495807681.750522) can0 331#C0061CBC0CD49414
(1495807681.751536) can0 3B6#0800020000000000
(1495807681.752549) can0 167#727FFF100019F700
(1495807681.753565) can0 332#0000000000000000
(1495807681.754582) can0 3B7#0000000060A67C5C
(1495807681.755612) can0 083#0000000000017EF4
(1495807681.756622) can0 33A#0000000000000000
(1495807681.757616) can0 3A4#0000000000000000
(1495807681.758623) can0 3A6#0E400A045F700000
(1495807681.759635) can0 3AC#FFFFFFFFFFFFFFFF
(1495807681.760647) can0 3BC#0C00089601BE2700
(1495807681.761661) can0 3BE#00204CEE4000D300
(1495807681.762678) can0 084#1100009208010900
(1495807681.763693) can0 167#727FFF100019F700
(1495807681.764712) can0 3C4#7796E801000093DE
(1495807681.765737) can0 42A#D85D70E000000000
(1495807681.766742) can0 216#0000000082000000
(1495807681.767745) can0 415#0000C0FC0FFE0FFE
(1495807681.768764) can0 42C#05515400AA7EA600
(1495807681.769772) can0 42E#9F0000E1770BBC70
(1495807681.770929) can0 333#0000000000000000
(1495807681.772113) can0 167#727FFF100019F700
(1495807681.773819) can0 42F#7D04002E66030175
(1495807681.778569) can0 3A5#0000000000000000
(1495807681.779589) can0 3AD#FFFFFFFFFFFFFFFF
(1495807681.781588) can0 167#727FFF100019F700
(1495807681.785075) can0 216#0000000082000000
(1495807681.786303) can0 33B#0000000000000000
(1495807681.787313) can0 415#0000C4FB0FFE0FFE
(1495807681.789813) can0 326#81A021DD81A100C8
(1495807681.790815) can0 35E#00C00131AB019800
(1495807681.792346) can0 167#727FFF100019F700
(1495807681.801594) can0 167#727FFF100019F700
(1495807681.802617) can0 42F#7D04002E66030176
(1495807681.804918) can0 083#0000000000017EF7
(1495807681.805930) can0 3A4#0000000000000000
(1495807681.806939) can0 216#0000000082000000
(1495807681.807949) can0 3AC#FFFFFFFFFFFFFFFF
(1495807681.808960) can0 3BC#0C00089601BE2700
(1495807681.809970) can0 415#0000C8FA0FFE0FFE
(1495807681.810998) can0 42A#D85D70E000000000
(1495807681.811998) can0 42C#05515400AA46A600
(1495807681.813002) can0 42E#9B0000E17707BC41
(1495807681.814016) can0 167#727FFF100019F700
(1495807681.815026) can0 178#000001FF0E89CE8A
(1495807681.816043) can0 505#0B12000000000000
(1495807681.821616) can0 167#727FFF100019F700
(1495807681.825070) can0 216#0000000082000000
(1495807681.826078) can0 415#0000CCF90FFE0FFE
(1495807681.828589) can0 3A5#0000000000000000
(1495807681.829628) can0 3AD#FFFFFFFFFFFFFFFF
(1495807681.831728) can0 346#000000030300C000
(1495807681.832750) can0 167#727FFF100019F700
(1495807681.833751) can0 348#0000000000000000
(1495807681.834759) can0 42F#7D04002E66030176
(1495807681.841593) can0 167#727FFF100019F700
(1495807681.845045) can0 216#0000000082000000
(1495807681.846052) can0 33B#0000000000000000
(1495807681.847062) can0 415#0000D0F80FFE0FFE
(1495807681.852133) can0 167#727FFF100019F700
(1495807681.853139) can0 332#0000000000000000
(1495807681.854144) can0 33A#0000000000000000
(1495807681.855156) can0 083#0000000000017EF4
(1495807681.856167) can0 3A4#0000000000000000
(1495807681.857187) can0 3AC#FFFFFFFFFFFFFFFF
(1495807681.858199) can0 3BC#0C00089601BE2700
