(1495807322.912426) can0 3A4#0000000000000000
(1495807322.913439) can0 3AC#FFFFFFFFFFFFFFFF
(1495807322.914452) can0 216#0000000082000000
(1495807322.915462) can0 33B#0000000000000000
(1495807322.916466) can0 415#0000D8F60FFE0FFE
(1495807322.919979) can0 167#727FFF100019F700
(1495807322.920991) can0 178#000001FF0E92CE92
(1495807322.923854) can0 42F#7D04002E66030178
(1495807322.928675) can0 167#727FFF100019F700
(1495807322.934052) can0 216#0000000082000000
(1495807322.935057) can0 415#0000DCF50FFE0FFE
(1495807322.939315) can0 167#727FFF100019F700
(1495807322.941184) can0 3A5#0000000000000000
(1495807322.942197) can0 3A7#0E400A045F700000
(1495807322.943204) can0 3AD#FFFFFFFFFFFFFFFF
(1495807322.948641) can0 167#727FFF100019F700
(1495807322.949667) can0 42F#7D04002E66040178
(1495807322.950689) can0 333#0000000000000000
(1495807322.954047) can0 083#0000000000017EF4
(1495807322.955056) can0 216#0000000082000000
(1495807322.956065) can0 3BC#0C00089601862700
(1495807322.957078) can0 415#0000E0F40FFE0FFE
(1495807322.958087) can0 124#0202000000000000
(1495807322.959107) can0 22C#000A000000000000
(1495807322.960121) can0 167#727FFF100019F700
(1495807322.961134) can0 326#81A025CB81C400C8
(1495807322.962147) can0 42A#D93C6AE000000000
(1495807322.963169) can0 355#60003D8000800000
(1495807322.964173) can0 356#003C484948490000
(1495807322.965180) can0 346#000000030300C000
(1495807322.966186) can0 348#0000000000000000
(1495807322.967197) can0 35E#00C000D4B6529800
(1495807322.968206) can0 3A4#0000000000000000
(1495807322.969220) can0 3A6#0E400A045F700000
(1495807322.970227) can0 167#727FFF100019F800
(1495807322.971236) can0 3AC#FFFFFFFFFFFFFFFF
(1495807322.972247) can0 332#0000000000000000
(1495807322.973261) can0 3E7#0000000000000000
(1495807322.974268) can0 33A#0000000000000000
(1495807322.975300) can0 216#0000000082000000
(1495807322.976302) can0 33B#0000000000000000
(1495807322.977316) can0 415#0000E4F30FFE0FFE
(1495807322.978335) can0 41A#8A00000000000000
(1495807322.979355) can0 42C#05515400A67EA400
(1495807322.979359) can0 42E#9F0000E1760FBBF1
(1495807322.980358) can0 167#727FFF100019F800
(1495807322.981368) can0 42F#7D04002E66040178
(1495807322.982384) can0 51E#3B02000000000000
(1495807322.988679) can0 167#727FFF100019F800
(1495807322.991211) can0 3A5#0000000000000000
(1495807322.992221) can0 3AD#FFFFFFFFFFFFFFFF
(1495807322.993621) can0 216#0000000082000000
(1495807322.994637) can0 415#0000E8F20FFE0FFE
(1495807322.996447) can0 465#63EE415234F08FCC
(1495807322.997464) can0 467#A280003593001830
(1495807322.999750) can0 167#727FFF100019F800
(1495807323.003748) can0 083#0000000000017EF4
(1495807323.004760) can0 3BC#0C00089601862700
(1495807323.005774) can0 3BE#00204CEE4000D300
(1495807323.006801) can0 3C4#7794E801000093DE
(1495807323.007807) can0 3D5#0400000000000000
(1495807323.008814) can0 42A#D93C6AE000000000
(1495807323.009831) can0 167#727FFF100019F800
(1495807323.010843) can0 42C#05515400A646A400
(1495807323.011861) can0 42E#9B0000E17603BBC0
(1495807323.012878) can0 42F#7D04002E66040178
(1495807323.013893) can0 3A4#0000000000000000
(1495807323.014922) can0 216#0000000082000000
(1495807323.015927) can0 3AC#FFFFFFFFFFFFFFFF
(1495807323.016939) can0 415#0000ECF10FFE0FFE
(1495807323.018501) can0 40A#C1023130373639FF
(1495807323.019945) can0 167#727FFF100019F700
(1495807323.020961) can0 178#000001FF0E91CE92
(1495807323.028672) can0 167#727FFF100019F700
(1495807323.034304) can0 216#0000000082000000
(1495807323.035319) can0 33B#0000000000000000
(1495807323.036328) can0 415#0000F0F00FFE0FFE
(1495807323.039521) can0 167#727FFF100019F700
(1495807323.040964) can0 42F#7D04002E66040178
(1495807323.041985) can0 3A5#0000000000000000
(1495807323.042995) can0 3AD#FFFFFFFFFFFFFFFF
(1495807323.048681) can0 167#727FFF100019F700
(1495807323.050608) can0 333#0000000000000000
(1495807323.053891) can0 216#0000000082000000
(1495807323.054922) can0 083#0000000000017EF4
(1495807323.055927) can0 3BC#0C00089601862700
(1495807323.056926) can0 415#0000F4EF0FFE0FFE
(1495807323.057934) can0 326#81A025CB81C400C8
(1495807323.058946) can0 35E#00C000D4B6539800
(1495807323.059965) can0 167#727FFF100019F700
(1495807323.060981) can0 42A#D93C6AE000000000
(1495807323.061993) can0 42C#05515400A67EA400
(1495807323.063004) can0 42E#9F0000E1790FBBF1
(1495807323.064014) can0 3A4#0000000000000000
(1495807323.065024) can0 346#000000030300C000
(1495807323.066053) can0 348#0000000000000000
(1495807323.067052) can0 3AC#FFFFFFFFFFFFFFFF
(1495807323.068637) can0 167#727FFF100019F700
(1495807323.069849) can0 42F#7D04002E66030178
(1495807323.071172) can0 332#0000000000000000
(1495807323.072177) can0 53B#5D12000000000000
(1495807323.073183) can0 33A#0000000000000000
(1495807323.074192) can0 216#0000000082000000
(1495807323.075201) can0 415#0000F8EE0FFE0FFE
(1495807323.079177) can0 167#727FFF100019F700
(1495807323.088687) can0 167#727FFF100019F600
(1495807323.091242) can0 3A5#0000000000000000
(1495807323.092252) can0 3AD#FFFFFFFFFFFFFFFF
(1495807323.093681) can0 216#0000000082000000
(1495807323.094686) can0 33B#0000000000000000
(1495807323.095696) can0 415#0000FCED0FFE0FFE
(1495807323.099422) can0 167#727FFF100019F600
(1495807323.100851) can0 42F#7D04002E66020178
(1495807323.103805) can0 083#0000000000017EF4
(1495807323.104814) can0 2FD#D400E3C108520000
(1495807323.105823) can0 3BC#0C00089601862700
(1495807323.106838) can0 3BE#00204CEE4000D300
(1495807323.107851) can0 42A#D93C6AE000000000
(1495807323.108860) can0 42C#05515400A646A400
(1495807323.109872) can0 167#727FFF100019F600
(1495807323.110881) can0 42E#9B0000E17C03BBC0
(1495807323.112521) can0 3A4#0000000000000000
(1495807323.113553) can0 3AC#FFFFFFFFFFFFFFFF
(1495807323.114553) can0 216#0000000082000000
(1495807323.115563) can0 415#0000C0FC0FFE0FFE
(1495807323.118302) can0 3B6#08000B0000000000
(1495807323.119710) can0 167#727FFF100019F600
(1495807323.120727) can0 178#000002010E92CE92
(1495807323.122646) can0 3B7#0000010060A6144E
(1495807323.128680) can0 167#727FFF100019F600
(1495807323.129712) can0 42F#7D04002E66010178
(1495807323.134052) can0 216#0000000082000000
(1495807323.135053) can0 415#0000C4FB0FFE0FFE
(1495807323.139173) can0 167#727FFF100019F500
(1495807323.141257) can0 3A5#0000000000000000
(1495807323.142264) can0 3A7#0E400A045F700000
(1495807323.143274) can0 3AD#FFFFFFFFFFFFFFFF
(1495807323.148646) can0 167#727FFF100019F500
(1495807323.150622) can0 333#0000000000000000
(1495807323.153876) can0 216#0000000082000000
(1495807323.154879) can0 083#0000000000017EF4
(1495807323.155892) can0 33B#0000000000000000
(1495807323.156922) can0 3BC#0C00089601862700
(1495807323.157927) can0 415#0000C8FA0FFE0FFE
(1495807323.158932) can0 2A0#FFFFFFFF00001E00
(1495807323.159944) can0 167#727FFF100019F500
(1495807323.160954) can0 326#81A025CB81C400C8
(1495807323.161970) can0 42A#D93C6BE000000000
(1495807323.162974) can0 42C#05515400A67EA400
(1495807323.163985) can0 3A4#0000000000000000
(1495807323.164996) can0 346#000000030300C000
(1495807323.166013) can0 348#0000000000000000
(1495807323.167018) can0 3A6#0E400A045F700000
(1495807323.168047) can0 3AC#FFFFFFFFFFFFFFFF
(1495807323.169052) can0 42E#9F0000E17D0FBBF1
(1495807323.170057) can0 167#727FFF100019F500
(1495807323.171064) can0 42F#7D04002E65FF0178
(1495807323.172072) can0 332#0000000000000000
(1495807323.173081) can0 55D#0402000000000000
(1495807323.174094) can0 33A#0000000000000000
(1495807323.175111) can0 216#0000000082000000
(1495807323.176122) can0 415#0000CCF90FFE0FFE
(1495807323.179332) can0 167#727FFF100019F500
(1495807323.188689) can0 167#727FFF100019F500
(1495807323.189875) can0 42F#7D04002E65FF0178
(1495807323.191265) can0 3A5#0000000000000000
(1495807323.192299) can0 3AD#FFFFFFFFFFFFFFFF
(1495807323.193639) can0 216#0000000082000000
(1495807323.194648) can0 415#0000D0F80FFE0FFE
(1495807323.199477) can0 167#727FFF100019F500
(1495807323.203557) can0 083#0000000000017EF4
(1495807323.204564) can0 3BC#0C00089601862700
(1495807323.205578) can0 3BE#00204CEE4000D300
(1495807323.206582) can0 3C4#7794E841000093DE
(1495807323.207593) can0 42A#D93C6BE000000000
(1495807323.208603) can0 42C#05515400A646A400
(1495807323.209614) can0 167#727FFF100019F500
(1495807323.210622) can0 42E#9B0000E17803BBC0
(1495807323.212707) can0 3A4#0000000000000000
(1495807323.213724) can0 216#0000000082000000
(1495807323.214736) can0 33B#0000000000000000
(1495807323.215741) can0 3AC#FFFFFFFFFFFFFFFF
(1495807323.216755) can0 415#0000D4F70FFE0FFE
(1495807323.218457) can0 3B3#4048061210050022
(1495807323.219672) can0 167#727FFF100019F500
(1495807323.220677) can0 178#000001FE0E91CE92
(1495807323.222809) can0 40A#C104014107F670C1
(1495807323.224010) can0 42F#7D04002E66000178
(1495807323.228672) can0 167#727FFF100019F500
(1495807323.234304) can0 216#0000000082000000
(1495807323.235302) can0 415#0000D8F60FFE0FFE
(1495807323.239224) can0 167#727FFF100019F500
(1495807323.241307) can0 3A5#0000000000000000
(1495807323.242301) can0 3AD#FFFFFFFFFFFFFFFF
(1495807323.248686) can0 167#727FFF100019F500
(1495807323.249696) can0 42F#7D04002E66000178
(1495807323.250707) can0 333#0000000000000000
(1495807323.253806) can0 083#0000000000017EF4
(1495807323.254807) can0 216#0000000082000000
(1495807323.255822) can0 3BC#0C00089601872700
(1495807323.256835) can0 415#0000DCF50FFE0FFE
(1495807323.257852) can0 42A#D93C6BE000000000
(1495807323.258867) can0 326#81A025CB81C400C8
(1495807323.259878) can0 167#727FFF100019F700
(1495807323.260896) can0 42C#05515400A67EA400
(1495807323.261928) can0 42E#9F0000E1740FBBF1
(1495807323.262927) can0 3A4#0000000000000000
(1495807323.263932) can0 3AC#FFFFFFFFFFFFFFFF
(1495807323.264944) can0 346#000000030300C000
(1495807323.265966) can0 348#0000000000000000
(1495807323.268677) can0 167#727FFF100019F700
(1495807323.271072) can0 332#0000000000000000
(1495807323.272077) can0 33A#0000000000000000
(1495807323.273099) can0 504#0512000000000000
(1495807323.274117) can0 216#0000000082000000
(1495807323.275130) can0 33B#0000000000000000
(1495807323.276139) can0 415#0000E0F40FFE0FFE
(1495807323.279182) can0 167#727FFF100019F700
(1495807323.280638) can0 42F#7D04002E66030178
(1495807323.285358) can0 304#0800000000000000
(1495807323.288683) can0 167#727FFF100019F800
(1495807323.291307) can0 3A5#0000000000000000
(1495807323.292317) can0 3AD#FFFFFFFFFFFFFFFF
(1495807323.293680) can0 216#0000000082000000
(1495807323.294677) can0 415#0000E4F30FFE0FFE
(1495807323.299423) can0 167#727FFF100019F800
(1495807323.303626) can0 083#0000000000017EF4
(1495807323.304631) can0 3BC#0C00089601872700
(1495807323.305647) can0 3BE#00204CEE4000D300
(1495807323.306672) can0 42A#D83C6BE000000000
(1495807323.307677) can0 42C#05515400A646A400
(1495807323.308676) can0 42E#9B0000E17303BBC0
(1495807323.309690) can0 167#727FFF100019F800
(1495807323.310705) can0 42F#7D04002E66050178
(1495807323.312564) can0 3A4#0000000000000000
(1495807323.313572) can0 3AC#FFFFFFFFFFFFFFFF
(1495807323.314584) can0 216#0000000082000000
(1495807323.315602) can0 415#0000E8F20FFE0FFE
(1495807323.319678) can0 167#727FFF100019F800
(1495807323.320681) can0 178#000001FF0E91CE92
(1495807323.326232) can0 466#70081031B2403800
(1495807323.328701) can0 167#727FFF100019F800
(1495807323.334320) can0 216#0000000082000000
(1495807323.335552) can0 33B#0000000000000000
(1495807323.336564) can0 415#0000ECF10FFE0FFE
(1495807323.339319) can0 167#727FFF100019F800
(1495807323.341004) can0 42F#7D04002E66050178
(1495807323.342023) can0 3A5#0000000000000000
(1495807323.343048) can0 3A7#0E400A045F700000
(1495807323.344052) can0 3AD#FFFFFFFFFFFFFFFF
(1495807323.348681) can0 167#727FFF100019F800
(1495807323.350467) can0 333#0000000000000000
(1495807323.351503) can0 33C#0000000000000000
(1495807323.353756) can0 083#0000000000017EF4
(1495807323.354761) can0 216#0000000082000000
(1495807323.355771) can0 3BC#0C00089601882700
(1495807323.356797) can0 415#0000F0F00FFE0FFE
(1495807323.357802) can0 42A#D83C6AE000000000
(1495807323.358802) can0 42C#05515400A67EA400
(1495807323.359821) can0 167#727FFF100019F800
(1495807323.360833) can0 326#81A025CB81C400C8
(1495807323.361848) can0 42E#9F0000E1750FBBF1
(1495807323.362853) can0 3A4#0000000000000000
(1495807323.363864) can0 346#000000030300C000
(1495807323.364873) can0 348#0000000000000000
(1495807323.365884) can0 3A6#0E400A045F700000
(1495807323.366899) can0 3AC#FFFFFFFFFFFFFFFF
(1495807323.367922) can0 3B6#08000000307FE171
(1495807323.368932) can0 3B7#0000020060A67BEB
(1495807323.369933) can0 167#727FFF100019F800
(1495807323.370942) can0 42F#7D04002E66050178
(1495807323.371953) can0 332#0000000000000000
(1495807323.372966) can0 505#0B12000000000000
(1495807323.373978) can0 33A#0000000000000000
(1495807323.374994) can0 216#0000000082000000
(1495807323.376007) can0 415#0000F4EF0FFE0FFE
(1495807323.379178) can0 167#727FFF100019F800
(1495807323.385424) can0 3E1#8000010701800000
(1495807323.388677) can0 167#727FFF100019F800
(1495807323.391327) can0 3A5#0000000000000000
(1495807323.392338) can0 3AD#FFFFFFFFFFFFFFFF
(1495807323.393642) can0 216#0000000082000000
(1495807323.394867) can0 33B#0000000000000000
(1495807323.395877) can0 415#0000F8EE0FFE0FFE
(1495807323.399461) can0 167#727FFF100019F800
(1495807323.400922) can0 42F#7D04002E66050178
(1495807323.403455) can0 083#0000000000017EF8
(1495807323.404460) can0 3BC#0C00089601872700
(1495807323.405474) can0 3BE#00204CEE4000D300
(1495807323.406480) can0 3C4#7794E801000093DE
(1495807323.407505) can0 42A#D93C6AE000000000
(1495807323.408519) can0 42C#05515400A646A400
(1495807323.409553) can0 167#727FFF100019F700
(1495807323.410554) can0 42E#9B0000E17903BBC0
(1495807323.412677) can0 3A4#0000000000000000
(1495807323.413684) can0 216#0000000082000000
(1495807323.414699) can0 3AC#FFFFFFFFFFFFFFFF
(1495807323.415706) can0 415#0000FCED0FFE0FFE
(1495807323.418427) can0 40A#C110409060250000
(1495807323.419876) can0 167#727FFF100019F700
(1495807323.420894) can0 178#000002010E91CE92
(1495807323.428676) can0 167#727FFF100019F700
(1495807323.429679) can0 42F#7D04002E66030178
(1495807323.435054) can0 216#0000000082000000
(1495807323.436051) can0 415#0000C0FC0FFE0FFE
(1495807323.437056) can0 35D#0000000000000000
(1495807323.439205) can0 167#727FFF100019F700
(1495807323.441350) can0 3A5#0000000000000000
(1495807323.442362) can0 3AD#FFFFFFFFFFFFFFFF
(1495807323.448695) can0 167#727FFF100019F600
(1495807323.450450) can0 333#0000000000000000
(1495807323.453576) can0 083#0000000000017EF4
(1495807323.454583) can0 3BC#0C00089601872700
(1495807323.455594) can0 216#0000000082000000
(1495807323.456612) can0 33B#0000000000000000
(1495807323.457627) can0 415#0000C4FB0FFE0FFE
(1495807323.458637) can0 42A#D93C6AE000000000
(1495807323.459672) can0 42C#05515400A77EA400
(1495807323.460676) can0 167#727FFF100019F600
(1495807323.461680) can0 326#81A025CB81C400C8
(1495807323.462684) can0 42E#9F0000E17A0FBBF1
(1495807323.463693) can0 35E#00C000D4B6549800
(1495807323.464702) can0 3A4#0000000000000000
(1495807323.465717) can0 3AC#FFFFFFFFFFFFFFFF
(1495807323.466723) can0 42F#7D04002E66020178
(1495807323.467731) can0 346#000000030300C000
(1495807323.468749) can0 348#0000000000000000
(1495807323.469760) can0 167#727FFF100019F600
(1495807323.470769) can0 3E0#0000000080000000
(1495807323.471796) can0 332#0000000000000000
(1495807323.472801) can0 33A#0000000000000000
(1495807323.473804) can0 3DE#0000000080000000
(1495807323.474817) can0 216#0000000082000000
(1495807323.475830) can0 415#0000C8FA0FFE0FFE
(1495807323.476839) can0 50B#1E12000000000000
(1495807323.479220) can0 167#727FFF100019F700
(1495807323.488706) can0 167#727FFF100019F700
(1495807323.489898) can0 42F#7D04002E66020178
(1495807323.491363) can0 3A5#0000000000000000
(1495807323.492373) can0 3AD#FFFFFFFFFFFFFFFF
(1495807323.494387) can0 216#0000000082000000
(1495807323.495393) can0 415#0000CCF90FFE0FFE
(1495807323.499427) can0 167#727FFF100019F600
(1495807323.500434) can0 3E7#0000000000000000
(1495807323.503389) can0 083#0000000000017EF4
(1495807323.504421) can0 3BC#0C00089601872700
(1495807323.505432) can0 3BE#00204CEE4000D300
(1495807323.506433) can0 42A#D83C6AE000000000
(1495807323.507445) can0 42C#05515400A746A400
(1495807323.508456) can0 3EB#5704140402100000
(1495807323.509467) can0 167#727FFF100019F600
(1495807323.510479) can0 42E#9B0000E17903BBC0
(1495807323.512639) can0 3A4#0000000000000000
(1495807323.513646) can0 3AC#FFFFFFFFFFFFFFFF
(1495807323.514673) can0 216#0000000082000000
(1495807323.515677) can0 33B#0000000000000000
(1495807323.516682) can0 415#0000D0F80FFE0FFE
(1495807323.519709) can0 167#727FFF100019F600
(1495807323.520716) can0 178#000001FE0E91CE92
(1495807323.523593) can0 42F#7D04002E66010178
(1495807323.528715) can0 167#727FFF100019F700
(1495807323.535055) can0 216#0000000082000000
(1495807323.536052) can0 415#0000D4F70FFE0FFE
(1495807323.539179) can0 167#727FFF100019F700
(1495807323.541371) can0 3A5#0000000000000000
(1495807323.542381) can0 3A7#0E400A045F700000
(1495807323.543392) can0 3AD#FFFFFFFFFFFFFFFF
(1495807323.548671) can0 167#727FFF100019F700
(1495807323.549679) can0 42F#7D04002E66020178
(1495807323.550676) can0 333#0000000000000000
(1495807323.553504) can0 083#0000000000017EF4
(1495807323.554513) can0 3BC#0C00089601872700
(1495807323.555522) can0 216#0000000082000000
(1495807323.556552) can0 415#0000D8F60FFE0FFE
(1495807323.557552) can0 42A#D93C6BE000000000
(1495807323.558565) can0 42C#05515400A67EA400
(1495807323.559583) can0 42E#9F0000E1750FBBF1
(1495807323.560596) can0 167#727FFF100019F700
(1495807323.561612) can0 326#81A025CB81C400C8
(1495807323.562626) can0 51E#3B02000000000000
(1495807323.563636) can0 346#000000030300C000
(1495807323.564671) can0 348#0000000000000000
(1495807323.565674) can0 3A4#0000000000000000
(1495807323.566676) can0 3A6#0E400A045F700000
(1495807323.567681) can0 3AC#FFFFFFFFFFFFFFFF
(1495807323.568736) can0 167#727FFF100019F800
(1495807323.570999) can0 332#0000000000000000
(1495807323.572006) can0 33A#0000000000000000
(1495807323.574481) can0 216#0000000082000000
(1495807323.575488) can0 33B#0000000000000000
(1495807323.576500) can0 415#0000DCF50FFE0FFE
(1495807323.579177) can0 167#727FFF100019F800
(1495807323.580632) can0 42F#7D04002E66040178
(1495807323.588673) can0 167#727FFF100019F800
(1495807323.591478) can0 3A5#0000000000000000
(1495807323.592491) can0 3AD#FFFFFFFFFFFFFFFF
(1495807323.594364) can0 216#0000000082000000
(1495807323.595368) can0 415#0000E0F40FFE0FFE
(1495807323.599454) can0 167#727FFF100019F800
(1495807323.603240) can0 083#0000000000017EF6
(1495807323.604244) can0 3BC#0C00089601862700
(1495807323.605260) can0 3BE#00204CEE4000D300
(1495807323.606264) can0 3C4#7794E801000093DE
(1495807323.607299) can0 42A#D83C6BE000000000
(1495807323.608301) can0 42C#05515400A646A400
(1495807323.609304) can0 167#727FFF100019F800
(1495807323.610313) can0 42E#9B0000E17503BBC0
(1495807323.611325) can0 42F#7D04002E66040178
(1495807323.612672) can0 3A4#0000000000000000
(1495807323.613681) can0 3AC#FFFFFFFFFFFFFFFF
(1495807323.614677) can0 216#0000000082000000
(1495807323.615683) can0 415#0000E4F30FFE0FFE
(1495807323.619707) can0 167#727FFF100019F800
(1495807323.620725) can0 178#000001FF0E92CE92
(1495807323.622618) can0 3B6#08000100307FE16D
(1495807323.623628) can0 3B7#0000030060A65F8C
(1495807323.624641) can0 3EB#5704140402100000
(1495807323.625678) can0 40A#C000000D11951200
(1495807323.626678) can0 447#2100000002000000
(1495807323.628683) can0 167#727FFF100019F800
(1495807323.635057) can0 216#0000000082000000
(1495807323.636058) can0 33B#0000000000000000
(1495807323.637067) can0 3E2#0000000080000000
(1495807323.638077) can0 415#0000E8F20FFE0FFE
(1495807323.639217) can0 167#727FFF100019F800
(1495807323.640678) can0 42F#7D04002E66050177
(1495807323.641685) can0 3A5#0000000000000000
(1495807323.642691) can0 3AD#FFFFFFFFFFFFFFFF
(1495807323.648725) can0 167#727FFF100019F800
(1495807323.650348) can0 333#0000000000000000
(1495807323.651355) can0 53B#5D12000000000000
(1495807323.653309) can0 083#0000000000017EF4
(1495807323.654310) can0 3BC#0C00089601862700
(1495807323.655319) can0 216#0000000082000000
(1495807323.656339) can0 415#0000ECF10FFE0FFE
(1495807323.657354) can0 42A#D93C6AE000000000
(1495807323.658362) can0 42C#05515400A67FA500
(1495807323.659380) can0 42E#9F0000E1770FBBF1
(1495807323.660389) can0 167#727FFF100019F800
(1495807323.661411) can0 326#81A025CB81C400C8
(1495807323.662678) can0 3A4#0000000000000000
(1495807323.663681) can0 346#000000030300C000
(1495807323.664690) can0 348#0000000000000000
(1495807323.665714) can0 3AC#FFFFFFFFFFFFFFFF
(1495807323.667625) can0 3B4#401111FF25250000
(1495807323.668678) can0 167#727FFF100019F800
(1495807323.669885) can0 42F#7D04002E66050177
(1495807323.670975) can0 332#0000000000000000
(1495807323.671989) can0 33A#0000000000000000
(1495807323.673011) can0 33F#0100000000000000
(1495807323.674053) can0 216#0000000082000000
(1495807323.675052) can0 415#0000F0F00FFE0FFE
(1495807323.679232) can0 167#727FFF100019F800
(1495807323.688698) can0 167#727FFF100019F700
(1495807323.691428) can0 3A5#0000000000000000
(1495807323.692433) can0 3AD#FFFFFFFFFFFFFFFF
(1495807323.693967) can0 216#0000000082000000
(1495807323.694984) can0 33B#0000000000000000
(1495807323.695994) can0 415#0000F4EF0FFE0FFE
(1495807323.699428) can0 167#727FFF100019F700
(1495807323.700861) can0 42F#7D04002E66040177
(1495807323.703450) can0 083#0000000000017EF4
(1495807323.704454) can0 3BC#0C00089601862700
(1495807323.705465) can0 3BE#00204CEE4000D301
(1495807323.706477) can0 42A#D83C6AE000000000
(1495807323.707489) can0 42C#05515400A646A400
(1495807323.708506) can0 42E#9B0000E17803BBC0
(1495807323.709519) can0 167#727FFF100019F700
(1495807323.712725) can0 3A4#0000000000000000
(1495807323.713739) can0 3AC#FFFFFFFFFFFFFFFF
(1495807323.714751) can0 216#0000000082000000
(1495807323.715759) can0 415#0000F8EE0FFE0FFE
(1495807323.718206) can0 3B3#4048061210050022
(1495807323.719216) can0 3C3#40C8000000004100
(1495807323.720233) can0 167#727FFF100019F700
(1495807323.721249) can0 178#000002000E91CE92
(1495807323.728709) can0 167#727FFF100019F700
(1495807323.729724) can0 42F#7D04002E66040177
(1495807323.734522) can0 216#0000000082000000
(1495807323.735548) can0 415#0000FCED0FFE0FFE
(1495807323.736553) can0 1E6#800CE80700000000
(1495807323.739378) can0 167#727FFF100019F700
(1495807323.740815) can0 55D#0402000000000000
(1495807323.741829) can0 3A5#0000000000000000
(1495807323.742845) can0 3A7#0E400A045F700000
(1495807323.743859) can0 3AD#FFFFFFFFFFFFFFFF
(1495807323.748682) can0 167#727FFF100019F700
(1495807323.750329) can0 333#0000000000000000
(1495807323.753276) can0 083#0000000000017EF4
(1495807323.754302) can0 3BC#0C00089601852700
(1495807323.755301) can0 216#0000000082000000
(1495807323.756316) can0 33B#0000000000000000
(1495807323.757331) can0 415#0000C0FC0FFE0FFE
(1495807323.758336) can0 42A#D93C6BE000000000
(1495807323.759346) can0 42C#05515400A77EA400
(1495807323.760360) can0 167#727FFF100019F700
(1495807323.761381) can0 326#81A025CB81C400C8
(1495807323.762388) can0 35E#00C000D4B6559800
(1495807323.763397) can0 3A4#0000000000000000
(1495807323.764427) can0 346#000000030300C000
(1495807323.765432) can0 348#0000000000000000
(1495807323.766436) can0 3A6#0E400A045F700000
(1495807323.767444) can0 3AC#FFFFFFFFFFFFFFFF
(1495807323.768454) can0 42E#9F0000E1770FBBF1
(1495807323.769469) can0 42F#7D04002E66030177
(1495807323.770480) can0 167#727FFF100019F700
(1495807323.771489) can0 332#0000000000000000
(1495807323.772505) can0 33A#0000000000000000
(1495807323.773695) can0 216#0000000082000000
(1495807323.774704) can0 415#0000C4FB0FFE0FFE
(1495807323.779179) can0 167#727FFF100019F700
(1495807323.788678) can0 167#727FFF100019F700
(1495807323.789858) can0 42F#7D04002E66030177
(1495807323.791548) can0 3A5#0000000000000000
(1495807323.792553) can0 3AD#FFFFFFFFFFFFFFFF
(1495807323.793956) can0 216#0000000082000000
(1495807323.794965) can0 415#0000C8FA0FFE0FFE
(1495807323.799451) can0 167#727FFF100019F700
(1495807323.803098) can0 083#0000000000017EF5
(1495807323.804113) can0 3BC#0C00089601862700
(1495807323.805136) can0 3BE#00204CEE4000D300
(1495807323.806141) can0 3C4#7794E831000093DE
(1495807323.807151) can0 42A#D83C6BE000000000
(1495807323.808177) can0 42C#05515400A746A400
(1495807323.809182) can0 331#C0061B570CD49414
(1495807323.810190) can0 167#727FFF100019F700
(1495807323.811205) can0 42E#9B0000E17503BBC0
(1495807323.812727) can0 3A4#0000000000000000
(1495807323.813743) can0 3AC#FFFFFFFFFFFFFFFF
(1495807323.814747) can0 216#0000000082000000
(1495807323.815756) can0 33B#0000000000000000
(1495807323.816770) can0 415#0000CCF90FFE0FFE
(1495807323.818643) can0 40A#C100334641365030
(1495807323.819883) can0 167#727FFF100019F700
(1495807323.820898) can0 178#000001FF0E91CE92
(1495807323.823983) can0 42F#7D04002E66040177
(1495807323.828691) can0 167#727FFF100019F700
(1495807323.834508) can0 216#0000000082000000
(1495807323.835519) can0 415#0000D0F80FFE0FFE
(1495807323.839209) can0 167#727FFF100019F800
(1495807323.841057) can0 504#0512000000000000
(1495807323.842073) can0 3A5#0000000000000000
(1495807323.843088) can0 3AD#FFFFFFFFFFFFFFFF
(1495807323.848712) can0 167#727FFF100019F800
(1495807323.849727) can0 42F#7D04002E66040177
(1495807323.850733) can0 333#0000000000000000
(1495807323.853228) can0 083#0000000000017EF7
(1495807323.854231) can0 3BC#0C00089601872700
(1495807323.855242) can0 216#0000000082000000
(1495807323.856260) can0 415#0000D4F70FFE0FFE
(1495807323.857307) can0 42A#D93C6AE000000000
(1495807323.858310) can0 42C#05515400A77EA400
(1495807323.859320) can0 42E#9F0000E1750FBBF1
(1495807323.860331) can0 167#727FFF100019F800
(1495807323.861345) can0 34E#0000000000000000
(1495807323.862352) can0 326#81A025CB81C400C8
(1495807323.863361) can0 358#0000000000000000
(1495807323.864376) can0 346#000000030300C000
(1495807323.865392) can0 348#0000000000000000
(1495807323.866398) can0 3A4#0000000000000000
(1495807323.867423) can0 3AC#FFFFFFFFFFFFFFFF
(1495807323.868428) can0 331#C0061B570CD49414
(1495807323.869433) can0 3B6#0800020000000000
(1495807323.870443) can0 167#727FFF100019F800
(1495807323.871458) can0 3B7#0000000060A67C5C
(1495807323.872468) can0 332#0000000000000000
(1495807323.873482) can0 33A#0000000000000000
(1495807323.874488) can0 216#0000000082000000
(1495807323.875505) can0 33B#0000000000000000
(1495807323.876518) can0 415#0000D8F60FFE0FFE
(1495807323.878204) can0 084#1100009202040900
(1495807323.879219) can0 167#727FFF100019F800
(1495807323.880678) can0 42F#7D04002E66050177
(1495807323.888721) can0 167#727FFF100019F800
(1495807323.891489) can0 3A5#0000000000000000
(1495807323.892495) can0 3AD#FFFFFFFFFFFFFFFF
(1495807323.893934) can0 216#0000000082000000
(1495807323.894940) can0 415#0000DCF50FFE0FFE
(1495807323.899434) can0 167#727FFF100019F800
(1495807323.903197) can0 083#0000000000017EF4
(1495807323.904210) can0 3BC#0C00089601862700
(1495807323.905224) can0 3BE#00204CEE4000D300
(1495807323.906229) can0 42A#D83C6AE000000000
(1495807323.907239) can0 42C#05515400A746A400
(1495807323.908258) can0 42E#9B0000E17603BBC0
(1495807323.909276) can0 167#727FFF100019F800
(1495807323.910300) can0 42F#7D04002E66050177
(1495807323.912752) can0 3A4#0000000000000000
(1495807323.913768) can0 3AC#FFFFFFFFFFFFFFFF
(1495807323.914798) can0 216#0000000082000000
(1495807323.915803) can0 415#0000E0F40FFE0FFE
(1495807323.919695) can0 167#727FFF100019F800
(1495807323.920707) can0 178#000002000E91CE92
(1495807323.928751) can0 167#727FFF100019F800
(1495807323.934558) can0 216#0000000082000000
(1495807323.935553) can0 33B#0000000000000000
(1495807323.936569) can0 415#0000E4F30FFE0FFE
(1495807323.939210) can0 167#727FFF100019F800
(1495807323.940367) can0 505#0B12000000000000
(1495807323.941386) can0 42F#7D04002E66040177
(1495807323.942397) can0 3A5#0000000000000000
(1495807323.943422) can0 3A7#0E400A045F700000
(1495807323.944428) can0 3AD#FFFFFFFFFFFFFFFF
(1495807323.948678) can0 167#727FFF100019F800
(1495807323.950194) can0 333#0000000000000000
(1495807323.952889) can0 083#0000000000017EF4
(1495807323.953928) can0 3BC#0C00089601862700
(1495807323.954929) can0 216#0000000082000000
(1495807323.955928) can0 415#0000E8F20FFE0FFE
(1495807323.956943) can0 42A#D93C6AE000000000
(1495807323.957952) can0 42C#05515400A77EA400
(1495807323.958962) can0 42E#9F0000E1760FBBF1
(1495807323.959972) can0 167#727FFF100019F800
(1495807323.961704) can0 124#0202000000000000
(1495807323.962713) can0 22C#000A000000000000
(1495807323.963722) can0 326#81A025CB81C400C8
(1495807323.964733) can0 346#000000030300C000
(1495807323.965757) can0 348#0000000000000000
(1495807323.966765) can0 355#60003D8000800000
(1495807323.967798) can0 3A4#0000000000000000
(1495807323.968803) can0 356#003C484948490000
(1495807323.969807) can0 167#727FFF100019F800
(1495807323.970815) can0 35E#00C000D4B6559800
(1495807323.971829) can0 332#0000000000000000
(1495807323.972843) can0 3A6#0E400A045F700000
(1495807323.973855) can0 33A#0000000000000000
(1495807323.974865) can0 216#0000000082000000
(1495807323.975878) can0 3AC#FFFFFFFFFFFFFFFF
(1495807323.976889) can0 3E7#0000000000000000
(1495807323.977899) can0 415#0000ECF10FFE0FFE
(1495807323.978923) can0 41A#8A00000000000000
(1495807323.979928) can0 42F#7D04002E66040177
(1495807323.980933) can0 167#727FFF100019F800
(1495807323.988698) can0 167#727FFF100019F800
(1495807323.991526) can0 3A5#0000000000000000
(1495807323.992548) can0 3AD#FFFFFFFFFFFFFFFF
(1495807323.994159) can0 216#0000000082000000
(1495807323.995174) can0 33B#0000000000000000
(1495807323.996178) can0 415#0000F0F00FFE0FFE
(1495807323.997187) can0 465#63EE415234F08FCC
(1495807323.999471) can0 167#727FFF100019F800
(1495807324.000928) can0 42F#7D04002E66040177
(1495807324.003026) can0 083#0000000000017EF5
(1495807324.004053) can0 3BC#0C00089601862700
(1495807324.005053) can0 3BE#00204CEE4000D300
(1495807324.006066) can0 3C4#7794E801000093DE
(1495807324.007073) can0 3D5#0400000000000000
(1495807324.008084) can0 42A#D83C6AE000000000
(1495807324.009101) can0 42C#05515400A746A400
(1495807324.010112) can0 167#727FFF100019F700
(1495807324.011123) can0 42E#9B0000E17803BBC0
(1495807324.012133) can0 467#A280003593001830
(1495807324.013162) can0 3A4#0000000000000000
(1495807324.014173) can0 3AC#FFFFFFFFFFFFFFFF
(1495807324.015178) can0 216#0000000082000000
(1495807324.016195) can0 415#0000F4EF0FFE0FFE
(1495807324.019679) can0 167#727FFF100019F700
(1495807324.020690) can0 178#000002000E91CE92
(1495807324.022804) can0 40A#C1014B3931485232
(1495807324.028693) can0 167#727FFF100019F700
(1495807324.029877) can0 42F#7D04002E66030177
(1495807324.034521) can0 216#0000000082000000
(1495807324.035548) can0 415#0000F8EE0FFE0FFE
(1495807324.036553) can0 50B#1E12000000000000
(1495807324.039230) can0 167#727FFF100019F700
(1495807324.041557) can0 3A5#0000000000000000
(1495807324.042555) can0 3AD#FFFFFFFFFFFFFFFF
(1495807324.048730) can0 167#727FFF100019F700
(1495807324.050181) can0 333#0000000000000000
(1495807324.052848) can0 083#0000000000017EF4
(1495807324.053866) can0 3BC#0C00089601852700
(1495807324.054875) can0 216#0000000082000000
(1495807324.055889) can0 33B#0000000000000000
(1495807324.056923) can0 415#0000FCED0FFE0FFE
(1495807324.057929) can0 42A#D93C6BE000000000
(1495807324.058928) can0 42C#05515400A77EA400
(1495807324.059942) can0 167#727FFF100019F700
(1495807324.060957) can0 42E#9F0000E1790FBBF1
(1495807324.061975) can0 42F#7D04002E66030177
(1495807324.062979) can0 326#81A025CB81C400C8
(1495807324.063994) can0 346#000000030300C000
(1495807324.065005) can0 348#0000000000000000
(1495807324.066021) can0 3A4#0000000000000000
(1495807324.067048) can0 3AC#FFFFFFFFFFFFFFFF
(1495807324.068880) can0 167#727FFF100019F700
(1495807324.070850) can0 332#0000000000000000
(1495807324.071854) can0 33A#0000000000000000
(1495807324.073956) can0 216#0000000082000000
(1495807324.074959) can0 415#0000C0FC0FFE0FFE
(1495807324.079246) can0 167#727FFF100019F700
(1495807324.088739) can0 167#727FFF100019F700
(1495807324.090182) can0 42F#7D04002E66030177
(1495807324.091553) can0 3A5#0000000000000000
(1495807324.092569) can0 3AD#FFFFFFFFFFFFFFFF
(1495807324.093946) can0 216#0000000082000000
(1495807324.094949) can0 415#0000C4FB0FFE0FFE
(1495807324.099429) can0 167#727FFF100019F700
(1495807324.102979) can0 083#0000000000017EF4
(1495807324.103992) can0 2FD#D400E3C108520000
(1495807324.105001) can0 3BC#0C00089601852700
(1495807324.106017) can0 3BE#00204CEE4000D300
(1495807324.107025) can0 42A#D93C6BE000000000
(1495807324.108048) can0 42C#05515400A746A400
(1495807324.109053) can0 42E#9B0000E17803BBC0
(1495807324.110069) can0 167#727FFF100019F700
(1495807324.112829) can0 3A4#0000000000000000
(1495807324.113837) can0 3AC#FFFFFFFFFFFFFFFF
(1495807324.114851) can0 216#0000000082000000
(1495807324.115862) can0 33B#0000000000000000
(1495807324.116871) can0 415#0000C8FA0FFE0FFE
(1495807324.118370) can0 3B6#0800030000000000
(1495807324.119376) can0 3B7#0000010060A6144E
(1495807324.120387) can0 167#727FFF100019F700
(1495807324.121401) can0 178#000001FF0E91CE92
(1495807324.122423) can0 51E#3B02000000000000
(1495807324.124175) can0 42F#7D04002E66020177
(1495807324.128748) can0 167#727FFF100019F600
(1495807324.134527) can0 216#0000000082000000
(1495807324.135547) can0 415#0000CCF90FFE0FFE
(1495807324.139199) can0 167#727FFF100019F600
(1495807324.141556) can0 3A5#0000000000000000
(1495807324.142570) can0 3A7#0E400A045F700000
(1495807324.143581) can0 3AD#FFFFFFFFFFFFFFFF
(1495807324.148692) can0 167#727FFF100019F600
(1495807324.149704) can0 42F#7D04002E66020177
(1495807324.150715) can0 333#0000000000000000
(1495807324.152843) can0 083#0000000000017EF5
(1495807324.153860) can0 3BC#0C00089601862700
(1495807324.154872) can0 216#0000000082000000
(1495807324.155883) can0 415#0000D0F80FFE0FFE
(1495807324.156892) can0 42A#D93C6BE000000000
(1495807324.157925) can0 42C#05515400A77EA400
(1495807324.158927) can0 42E#9F0000E1780FBBF1
(1495807324.159927) can0 167#727FFF100019F600
(1495807324.162631) can0 346#000000030300C000
(1495807324.163636) can0 2A0#FFFFFFFF00001E00
(1495807324.164644) can0 326#81A025CB81C400C8
(1495807324.165680) can0 348#0000000000000000
(1495807324.166677) can0 35E#00C000D4B6569800
(1495807324.167681) can0 3A4#0000000000000000
(1495807324.168690) can0 3A6#0E400A045F700000
(1495807324.169704) can0 167#727FFF100019F700
(1495807324.170711) can0 3AC#FFFFFFFFFFFFFFFF
(1495807324.171720) can0 332#0000000000000000
(1495807324.172730) can0 33A#0000000000000000
(1495807324.173987) can0 216#0000000082000000
(1495807324.174994) can0 33B#0000000000000000
(1495807324.176011) can0 415#0000D4F70FFE0FFE
(1495807324.179193) can0 167#727FFF100019F700
(1495807324.180646) can0 42F#7D04002E66030177
(1495807324.188684) can0 167#727FFF100019F700
(1495807324.191577) can0 3A5#0000000000000000
(1495807324.192596) can0 3AD#FFFFFFFFFFFFFFFF
(1495807324.193959) can0 216#0000000082000000
(1495807324.194978) can0 415#0000D8F60FFE0FFE
(1495807324.199469) can0 167#727FFF100019F700
(1495807324.202805) can0 083#0000000000017EF4
(1495807324.203802) can0 3BC#0C00089601862700
(1495807324.204809) can0 3BE#00204CEE4000D300
(1495807324.205819) can0 3C4#7794E841000093DE
(1495807324.206830) can0 42A#D93C6BE000000000
(1495807324.207840) can0 42C#05515400A746A400
(1495807324.208858) can0 42E#9B0000E17503BBC0
(1495807324.209877) can0 167#727FFF100019F700
(1495807324.210884) can0 42F#7D04002E66030177
(1495807324.211895) can0 53B#5D12000000000000
(1495807324.212927) can0 3A4#0000000000000000
(1495807324.213931) can0 3AC#FFFFFFFFFFFFFFFF
(1495807324.214934) can0 216#0000000082000000
(1495807324.215947) can0 415#0000DCF50FFE0FFE
(1495807324.218652) can0 3B3#4048061210050022
(1495807324.219837) can0 167#727FFF100019F800
(1495807324.220848) can0 178#000001FF0E91CE92
(1495807324.222717) can0 40A#C1023130373639FF
(1495807324.228716) can0 167#727FFF100019F800
(1495807324.234513) can0 216#0000000082000000
(1495807324.235520) can0 33B#0000000000000000
(1495807324.236552) can0 415#0000E0F40FFE0FFE
(1495807324.239267) can0 167#727FFF100019F800
(1495807324.240691) can0 42F#7D04002E66040177
(1495807324.241712) can0 3A5#0000000000000000
(1495807324.242721) can0 3AD#FFFFFFFFFFFFFFFF
(1495807324.248732) can0 167#727FFF100019F800
(1495807324.250076) can0 333#0000000000000000
(1495807324.252521) can0 083#0000000000017EF4
(1495807324.253553) can0 3BC#0C00089601852700
(1495807324.254552) can0 216#0000000082000000
(1495807324.255555) can0 415#0000E4F30FFE0FFE
(1495807324.256565) can0 42A#D83C6AE000000000
(1495807324.257575) can0 42C#05515400A77EA400
(1495807324.258584) can0 42E#9F0000E1770FBBF1
(1495807324.259605) can0 167#727FFF100019F800
(1495807324.262865) can0 3A4#0000000000000000
(1495807324.263874) can0 326#81A025CB81C400C8
(1495807324.264884) can0 346#000000030300C000
(1495807324.265913) can0 348#0000000000000000
(1495807324.266927) can0 3AC#FFFFFFFFFFFFFFFF
(1495807324.268699) can0 167#727FFF100019F800
(1495807324.269889) can0 42F#7D04002E66040177
(1495807324.270901) can0 332#0000000000000000
(1495807324.271924) can0 33A#0000000000000000
(1495807324.273959) can0 216#0000000082000000
(1495807324.274975) can0 415#0000E8F20FFE0FFE
(1495807324.279260) can0 167#727FFF100019F800
(1495807324.286137) can0 304#0800000000000000
(1495807324.288729) can0 167#727FFF100019F700
(1495807324.291614) can0 3A5#0000000000000000
(1495807324.292633) can0 3AD#FFFFFFFFFFFFFFFF
(1495807324.293964) can0 216#0000000082000000
(1495807324.294968) can0 33B#0000000000000000
(1495807324.295978) can0 415#0000ECF10FFE0FFE
(1495807324.299454) can0 167#727FFF100019F700
(1495807324.300892) can0 42F#7D04002E66040177
(1495807324.302883) can0 083#0000000000017EF4
(1495807324.303899) can0 3BC#0C00089601852700
(1495807324.304924) can0 3BE#00204CEE4000D300
(1495807324.305933) can0 42A#D93C6AE000000000
(1495807324.306936) can0 42C#05515400A746A400
(1495807324.307945) can0 42E#9B0000E17A03BBC0
(1495807324.308956) can0 55D#0402000000000000
(1495807324.309970) can0 167#727FFF100019F700
(1495807324.312880) can0 3A4#0000000000000000
(1495807324.313892) can0 3AC#FFFFFFFFFFFFFFFF
(1495807324.314924) can0 216#0000000082000000
(1495807324.315929) can0 415#0000F0F00FFE0FFE
(1495807324.319728) can0 167#727FFF100019F700
(1495807324.320736) can0 178#000002010E91CE92
(1495807324.328723) can0 167#727FFF100019F700
(1495807324.329739) can0 42F#7D04002E66030177
(1495807324.334534) can0 216#0000000082000000
(1495807324.335549) can0 415#0000F4EF0FFE0FFE
(1495807324.339378) can0 167#727FFF100019F600
(1495807324.341622) can0 3A5#0000000000000000
(1495807324.342639) can0 3A7#0E400A045F700000
(1495807324.343674) can0 3AD#FFFFFFFFFFFFFFFF
(1495807324.348704) can0 167#727FFF100019F600
(1495807324.350072) can0 333#0000000000000000
(1495807324.351080) can0 33C#0000000000000000
(1495807324.352300) can0 083#0000000000017EF4
(1495807324.353311) can0 3BC#0C00089601852700
(1495807324.354309) can0 42A#D93C6AE000000000
(1495807324.355319) can0 216#0000000082000000
(1495807324.356329) can0 33B#0000000000000000
(1495807324.357345) can0 415#0000F8EE0FFE0FFE
(1495807324.358351) can0 42C#05515400A77EA400
(1495807324.359363) can0 42E#9F0000E17B0FBBF1
(1495807324.360371) can0 167#727FFF100019F600
(1495807324.361388) can0 466#70081431B2403800
(1495807324.362398) can0 42F#7D04002E66010177
(1495807324.363424) can0 346#000000030300C000
(1495807324.364428) can0 326#81A025CB81C400C8
(1495807324.365438) can0 348#0000000000000000
(1495807324.366446) can0 3A4#0000000000000000
(1495807324.367465) can0 3A6#0E400A045F700000
(1495807324.368473) can0 3AC#FFFFFFFFFFFFFFFF
(1495807324.369494) can0 3B6#0800040000000000
(1495807324.370499) can0 167#727FFF100019F600
(1495807324.371513) can0 3B7#0000020060A67BEB
(1495807324.372548) can0 332#0000000000000000
(1495807324.373558) can0 33A#0000000000000000
(1495807324.374559) can0 216#0000000082000000
(1495807324.375576) can0 415#0000FCED0FFE0FFE
(1495807324.376587) can0 358#0020000000000000
(1495807324.379220) can0 167#727FFF100019F600
(1495807324.386183) can0 3E1#8000010701800000
(1495807324.388696) can0 167#727FFF100019F600
(1495807324.389929) can0 42F#7D04002E66010177
(1495807324.391638) can0 3A5#0000000000000000
(1495807324.392649) can0 3AD#FFFFFFFFFFFFFFFF
(1495807324.393893) can0 216#0000000082000000
(1495807324.394897) can0 415#0000C0FC0FFE0FFE
(1495807324.399490) can0 167#727FFF100019F600
(1495807324.400888) can0 504#0512000000000000
(1495807324.402433) can0 083#0000000000017EF4
(1495807324.403437) can0 3BC#0C00089601852700
(1495807324.404446) can0 3BE#00204CEE4000D300
(1495807324.405462) can0 3C4#7794E801000093DE
(1495807324.406468) can0 42A#D93C6AE000000000
(1495807324.407485) can0 42C#05515400A746A400
(1495807324.408496) can0 42E#9B0000E17603BBC0
(1495807324.409519) can0 167#727FFF100019F600
(1495807324.412928) can0 3A4#0000000000000000
(1495807324.413938) can0 216#0000000082000000
(1495807324.414942) can0 33B#0000000000000000
(1495807324.415954) can0 356#12BC383538350000
(1495807324.416963) can0 358#0000000000000000
(1495807324.417976) can0 3AC#FFFFFFFFFFFFFFFF
(1495807324.418988) can0 40A#C104014107F670C1
(1495807324.419997) can0 415#0000C4FB0FFE0FFE
(1495807324.421008) can0 167#727FFF100019F600
(1495807324.422024) can0 178#000001FE0E91CE92
(1495807324.423828) can0 42F#7D04002E66020177
(1495807324.428707) can0 167#727FFF100019F600
(1495807324.434162) can0 216#0000000082000000
(1495807324.435174) can0 415#0000C8FA0FFE0FFE
(1495807324.436945) can0 35D#0000000000000000
(1495807324.439265) can0 167#727FFF100019F600
(1495807324.441686) can0 3A5#0000000000000000
(1495807324.442683) can0 3AD#FFFFFFFFFFFFFFFF
(1495807324.448759) can0 167#727FFF100019F600
(1495807324.449777) can0 42F#7D04002E66020177
(1495807324.450799) can0 333#0000000000000000
(1495807324.452345) can0 083#0000000000017EF4
(1495807324.453364) can0 3BC#0C00089601852700
(1495807324.454368) can0 356#02BC383538350000
(1495807324.455376) can0 216#0000000082000000
(1495807324.456395) can0 415#0000CCF90FFE0FFE
(1495807324.457429) can0 42A#D93C6BE000000000
(1495807324.458429) can0 42C#05515400A77EA400
(1495807324.459429) can0 42E#9F0000E1750FBBF1
(1495807324.460441) can0 167#727FFF100019F700
(1495807324.462933) can0 3A4#0000000000000000
(1495807324.463933) can0 3AC#FFFFFFFFFFFFFFFF
(1495807324.464941) can0 326#81A025CB81C400C8
(1495807324.465958) can0 346#000000030300C000
(1495807324.466962) can0 348#0000000000000000
(1495807324.467972) can0 3E0#0000000080000000
(1495807324.468982) can0 167#727FFF100019F700
(1495807324.470724) can0 332#0000000000000000
(1495807324.471731) can0 33A#0000000000000000
(1495807324.472741) can0 3DE#0000000080000000
(1495807324.473759) can0 216#0000000082000000
(1495807324.474765) can0 33B#0000000000000000
(1495807324.475775) can0 415#0000D0F80FFE0FFE
(1495807324.479249) can0 167#727FFF100019F700
(1495807324.480704) can0 42F#7D04002E66030177
(1495807324.488770) can0 167#727FFF100019F800
(1495807324.491681) can0 3A5#0000000000000000
(1495807324.492684) can0 3AD#FFFFFFFFFFFFFFFF
(1495807324.493853) can0 216#0000000082000000
(1495807324.494857) can0 3E7#0000000000000000
(1495807324.495867) can0 415#0000D4F70FFE0FFE
(1495807324.499465) can0 167#727FFF100019F800
(1495807324.500480) can0 505#0B12000000000000
(1495807324.502588) can0 083#0000000000017EF4
(1495807324.503598) can0 3BC#0C00089601852700
(1495807324.504610) can0 3BE#00204CEE4000D300
(1495807324.505624) can0 42A#D93C6BE000000000
(1495807324.506634) can0 42C#05515400A746A400
(1495807324.507674) can0 42E#9B0000E17203BBC0
(1495807324.508679) can0 3EB#5704140403100000
(1495807324.509683) can0 167#727FFF100019F800
(1495807324.510700) can0 42F#7D04002E66050177
(1495807324.512956) can0 3A4#0000000000000000
(1495807324.513963) can0 216#0000000082000000
(1495807324.514976) can0 3AC#FFFFFFFFFFFFFFFF
(1495807324.515985) can0 415#0000D8F60FFE0FFE
(1495807324.519734) can0 167#727FFF100019F800
(1495807324.520752) can0 178#000001FE0E91CE92
(1495807324.528747) can0 167#727FFF100019F900
(1495807324.534580) can0 216#0000000082000000
(1495807324.535584) can0 33B#0000000000000000
(1495807324.536603) can0 415#0000DCF50FFE0FFE
(1495807324.539205) can0 167#727FFF100019F900
(1495807324.540674) can0 42F#7D04002E66060177
(1495807324.541683) can0 3A5#0000000000000000
(1495807324.542687) can0 3A7#0E400A045F700000
(1495807324.543699) can0 3AD#FFFFFFFFFFFFFFFF
(1495807324.548705) can0 167#727FFF100019F900
(1495807324.549947) can0 333#0000000000000000
(1495807324.551924) can0 083#0000000000017EF4
(1495807324.552929) can0 3BC#0C00089601862700
(1495807324.553946) can0 42A#D93C6AE000000000
(1495807324.554948) can0 216#0000000082000000
(1495807324.555959) can0 415#0000E0F40FFE0FFE
(1495807324.556974) can0 42C#05515400A77EA400
(1495807324.557984) can0 42E#9F0000E1720FBBF1
(1495807324.559238) can0 167#727FFF100019F900
(1495807324.562265) can0 346#000000030300C000
(1495807324.563269) can0 348#0000000000000000
(1495807324.564301) can0 3A4#0000000000000000
(1495807324.565310) can0 326#81A025CB81C400C8
(1495807324.566309) can0 35E#00C000D1B6579800
(1495807324.567318) can0 3A6#0E400A045F700000
(1495807324.568329) can0 3AC#FFFFFFFFFFFFFFFF
(1495807324.569352) can0 167#727FFF100019F900
(1495807324.570365) can0 42F#7D04002E66060177
(1495807324.571374) can0 332#0000000000000000
(1495807324.572386) can0 33A#0000000000000000
(1495807324.573968) can0 216#0000000082000000
(1495807324.574981) can0 415#0000E4F30FFE0FFE
(1495807324.579208) can0 167#727FFF100019F900
(1495807324.588707) can0 167#727FFF100019F900
(1495807324.591699) can0 3A5#0000000000000000
(1495807324.592712) can0 3AD#FFFFFFFFFFFFFFFF
(1495807324.593767) can0 216#0000000082000000
(1495807324.594799) can0 33B#0000000000000000
(1495807324.595804) can0 415#0000E8F20FFE0FFE
(1495807324.596804) can0 50B#1E12000000000000
(1495807324.599489) can0 167#727FFF100019F900
(1495807324.600942) can0 42F#7D04002E66060177
(1495807324.602433) can0 083#0000000000017EF4
(1495807324.603429) can0 3BC#0C00089601852700
(1495807324.604441) can0 3BE#00204CEE4000D300
(1495807324.605455) can0 3C4#7794E801000093DE
(1495807324.606460) can0 42A#D93C6AE000000000
(1495807324.607469) can0 42C#05515400A746A400
(1495807324.608479) can0 42E#9B0000E17303BBC0
(1495807324.609492) can0 167#727FFF100019F900
(1495807324.613071) can0 3A4#0000000000000000
(1495807324.614081) can0 216#0000000082000000
(1495807324.615098) can0 3AC#FFFFFFFFFFFFFFFF
(1495807324.616107) can0 415#0000ECF10FFE0FFE
(1495807324.618817) can0 3B6#0800050000000000
(1495807324.619990) can0 167#727FFF100019F900
(1495807324.621002) can0 178#000001FF0E91CE92
(1495807324.622933) can0 3B7#0000030060A65F8C
(1495807324.623934) can0 3EB#5704140403100000
(1495807324.624944) can0 40A#C110409060250000
(1495807324.626110) can0 447#2100000002000000
(1495807324.628709) can0 167#727FFF100019F900
(1495807324.629734) can0 42F#7D04002E66060176
(1495807324.634180) can0 216#0000000082000000
(1495807324.635179) can0 415#0000F0F00FFE0FFE
(1495807324.636185) can0 3E2#0000000080000000
(1495807324.639554) can0 167#727FFF100019F900
(1495807324.641713) can0 3A5#0000000000000000
(1495807324.642727) can0 3AD#FFFFFFFFFFFFFFFF
(1495807324.648759) can0 167#727FFF100019F900
(1495807324.649944) can0 333#0000000000000000
(1495807324.651874) can0 083#0000000000017EF7
(1495807324.652885) can0 3BC#0C00089601862700
(1495807324.653899) can0 42A#D83C6AE000000000
(1495807324.654924) can0 216#0000000082000000
(1495807324.655929) can0 33B#0000000000000000
(1495807324.656932) can0 415#0000F4EF0FFE0FFE
(1495807324.657943) can0 42C#05515400A77FA500
(1495807324.658955) can0 42E#9F0000E1740FBBF1
(1495807324.659965) can0 167#727FFF100019F900
(1495807324.660982) can0 42F#7D04002E66060176
(1495807324.662683) can0 346#000000030300C000
(1495807324.663679) can0 348#0000000000000000
(1495807324.664685) can0 3A4#0000000000000000
(1495807324.665699) can0 326#81A025CB81C400C8
(1495807324.666709) can0 35E#00C000CDB6579800
(1495807324.667723) can0 3AC#FFFFFFFFFFFFFFFF
(1495807324.668732) can0 3B4#401111FF25250000
(1495807324.669749) can0 167#727FFF100019F900
(1495807324.670753) can0 332#0000000000000000
(1495807324.671768) can0 33A#0000000000000000
(1495807324.672799) can0 33F#0100000000000000
(1495807324.673933) can0 216#0000000082000000
(1495807324.674933) can0 415#0000F8EE0FFE0FFE
(1495807324.679589) can0 167#727FFF100019F900
(1495807324.681228) can0 51E#3B02000000000000
(1495807324.688743) can0 167#727FFF100019F900
(1495807324.689932) can0 42F#7D04002E66060176
(1495807324.691740) can0 3A5#0000000000000000
(1495807324.692758) can0 3AD#FFFFFFFFFFFFFFFF
(1495807324.693804) can0 216#0000000082000000
(1495807324.694809) can0 415#0000FCED0FFE0FFE
(1495807324.699628) can0 167#727FFF100019F800
(1495807324.702483) can0 083#0000000000017EF4
(1495807324.703495) can0 3BC#0C00089601862700
(1495807324.704505) can0 3BE#00204CEE4000D301
(1495807324.705519) can0 42A#D93C6AE000000000
(1495807324.706551) can0 42C#05515400A746A400
(1495807324.707554) can0 42E#9B0000E17603BBC0
(1495807324.708716) can0 167#727FFF100019F900
(1495807324.713007) can0 3A4#0000000000000000
(1495807324.714021) can0 216#0000000082000000
(1495807324.715041) can0 33B#0000000000000000
(1495807324.716054) can0 3AC#FFFFFFFFFFFFFFFF
(1495807324.717053) can0 415#0000C0FC0FFE0FFE
(1495807324.718237) can0 3B3#4048061210050022
(1495807324.719246) can0 3C3#40C8000000004100
(1495807324.720257) can0 167#727FFF100019F900
(1495807324.721267) can0 178#000002010E91CE92
(1495807324.724373) can0 42F#7D04002E66060176
(1495807324.728760) can0 167#727FFF100019F800
(1495807324.734559) can0 216#0000000082000000
(1495807324.735558) can0 415#0000C4FB0FFE0FFE
(1495807324.736571) can0 1E6#800CE80700000000
(1495807324.739388) can0 167#727FFF100019F800
(1495807324.741742) can0 3A5#0000000000000000
(1495807324.742751) can0 3A7#0E400A045F700000
(1495807324.743760) can0 3AD#FFFFFFFFFFFFFFFF
(1495807324.748708) can0 167#727FFF100019F800
(1495807324.749721) can0 42F#7D04002E66040176
(1495807324.750729) can0 333#0000000000000000
(1495807324.751798) can0 083#0000000000017EF4
(1495807324.752798) can0 3BC#0C00089601862700
(1495807324.753805) can0 42A#D93C6AE000000000
(1495807324.754807) can0 216#0000000082000000
(1495807324.755816) can0 415#0000C8FA0FFE0FFE
(1495807324.756825) can0 42C#05515400A77EA400
(1495807324.757840) can0 42E#9F0000E1780FBBF1
(1495807324.759501) can0 167#727FFF100019F800
(1495807324.762090) can0 346#000000030300C000
(1495807324.763098) can0 348#0000000000000000
(1495807324.764107) can0 3A4#0000000000000000
(1495807324.765120) can0 3A6#0E400A045F700000
(1495807324.766137) can0 326#81A025CB81C400C8
(1495807324.767172) can0 35E#00C000CAB6579800
(1495807324.768177) can0 3AC#FFFFFFFFFFFFFFFF
(1495807324.769181) can0 167#727FFF100019F700
(1495807324.770636) can0 332#0000000000000000
(1495807324.771673) can0 53B#5D12000000000000
(1495807324.772678) can0 33A#0000000000000000
(1495807324.773972) can0 216#0000000082000000
(1495807324.774983) can0 33B#0000000000000000
(1495807324.775998) can0 415#0000CCF90FFE0FFE
(1495807324.779377) can0 167#727FFF100019F700
(1495807324.780839) can0 42F#7D04002E66040176
(1495807324.788718) can0 167#727FFF100019F700
(1495807324.791755) can0 3A5#0000000000000000
(1495807324.792775) can0 3AD#FFFFFFFFFFFFFFFF
(1495807324.793804) can0 216#0000000082000000
(1495807324.794803) can0 415#0000D0F80FFE0FFE
(1495807324.799683) can0 167#727FFF100019F700
(1495807324.802015) can0 083#0000000000017EF4
(1495807324.803048) can0 3BC#0C00089601862700
(1495807324.804053) can0 3BE#00204CEE4000D300
(1495807324.805053) can0 3C4#7794E831000093DE
(1495807324.806070) can0 42A#D93C6AE000000000
(1495807324.807085) can0 42C#05515400A746A400
(1495807324.808096) can0 42E#9B0000E17703BBC0
(1495807324.809108) can0 331#C0061B580CD49414
(1495807324.810117) can0 167#727FFF100019F700
(1495807324.811128) can0 42F#7D04002E66030176
(1495807324.813113) can0 3A4#0000000000000000
(1495807324.814122) can0 216#0000000082000000
(1495807324.815139) can0 3AC#FFFFFFFFFFFFFFFF
(1495807324.816150) can0 415#0000D4F70FFE0FFE
(1495807324.818444) can0 40A#C000000D11951E00
(1495807324.819899) can0 167#727FFF100019F700
(1495807324.820928) can0 178#000002000E91CE92
(1495807324.828718) can0 167#727FFF100019F700
(1495807324.834506) can0 216#0000000082000000
(1495807324.835521) can0 33B#0000000000000000
(1495807324.836548) can0 415#0000D8F60FFE0FFE
(1495807324.839462) can0 167#727FFF100019F700
(1495807324.840928) can0 42F#7D04002E66030176
(1495807324.841945) can0 3A5#0000000000000000
(1495807324.842955) can0 3AD#FFFFFFFFFFFFFFFF
(1495807324.848761) can0 167#727FFF100019F700
(1495807324.849843) can0 333#0000000000000000
(1495807324.851610) can0 083#0000000000017EF4
(1495807324.852619) can0 3BC#0C00089601862700
(1495807324.853634) can0 42A#D83C6AE000000000
(1495807324.854650) can0 216#0000000082000000
(1495807324.855673) can0 415#0000DCF50FFE0FFE
(1495807324.856678) can0 42C#05515400A77EA400
(1495807324.857692) can0 42E#9F0000E1760FBBF1
(1495807324.859381) can0 167#727FFF100019F700
(1495807324.860475) can0 34E#0000000000000000
(1495807324.861488) can0 358#0000000000000000
(1495807324.862798) can0 346#000000030300C000
(1495807324.863803) can0 348#0000000000000000
(1495807324.864803) can0 3A4#0000000000000000
(1495807324.865814) can0 3AC#FFFFFFFFFFFFFFFF
(1495807324.866822) can0 326#81A025CB81C400C8
(1495807324.867833) can0 331#C0061B580CD49414
(1495807324.868844) can0 35E#00C000C6B6579000
(1495807324.869854) can0 167#727FFF100019F700
(1495807324.870865) can0 3B6#0800060000000000
(1495807324.871876) can0 332#0000000000000000
(1495807324.872887) can0 3B7#0000000060A67C5C
(1495807324.873929) can0 33A#0000000000000000
(1495807324.874929) can0 216#0000000082000000
(1495807324.875929) can0 415#0000E0F40FFE0FFE
(1495807324.876940) can0 42F#7D04002E66030176
(1495807324.877949) can0 55D#0402000000000000
(1495807324.878959) can0 084#1100009202050900
(1495807324.879974) can0 167#727FFF100019F700
(1495807324.888742) can0 167#727FFF100019F700
(1495807324.891804) can0 3A5#0000000000000000
(1495807324.892804) can0 3AD#FFFFFFFFFFFFFFFF
(1495807324.893844) can0 216#0000000082000000
(1495807324.894850) can0 33B#0000000000000000
(1495807324.895867) can0 415#0000E4F30FFE0FFE
(1495807324.899624) can0 167#727FFF100019F700
(1495807324.901085) can0 42F#7D04002E66040176
(1495807324.902428) can0 083#0000000000017EF4
(1495807324.903440) can0 3BC#0C00089601862700
(1495807324.904451) can0 3BE#00204CEE4000D300
(1495807324.905469) can0 42A#D93C6AE000000000
(1495807324.906478) can0 42C#05515400A746A400
(1495807324.907491) can0 42E#9B0000E17703BBC0
(1495807324.908705) can0 167#727FFF100019F700
(1495807324.913072) can0 3A4#0000000000000000
(1495807324.914082) can0 216#0000000082000000
(1495807324.915099) can0 3AC#FFFFFFFFFFFFFFFF
(1495807324.916108) can0 415#0000E8F20FFE0FFE
(1495807324.919986) can0 167#727FFF100019F700
(1495807324.921001) can0 178#000001FF0E91CE92
(1495807324.928747) can0 167#727FFF100019F700
(1495807324.929763) can0 42F#7D04002E66040176
(1495807324.934239) can0 216#0000000082000000
(1495807324.935252) can0 415#0000ECF10FFE0FFE
(1495807324.939619) can0 167#727FFF100019F700
(1495807324.941807) can0 3A5#0000000000000000
(1495807324.942818) can0 3A7#0E400A045F700000
(1495807324.943826) can0 3AD#FFFFFFFFFFFFFFFF
(1495807324.948729) can0 167#727FFF100019F700
(1495807324.949806) can0 333#0000000000000000
(1495807324.951605) can0 083#0000000000017EF4
(1495807324.952616) can0 3BC#0C00089601872700
(1495807324.953637) can0 42A#D93B6AE000000000
(1495807324.954644) can0 42C#05515400A77EA400
(1495807324.955678) can0 216#0000000082000000
(1495807324.956679) can0 33B#0000000000000000
(1495807324.957689) can0 415#0000F0F00FFE0FFE
(1495807324.958701) can0 42E#9F0000E1760FBBF1
(1495807324.959708) can0 167#727FFF100019F700
(1495807324.960941) can0 42F#7D04002E66040176
(1495807324.961947) can0 346#000000030300C000
(1495807324.962961) can0 348#0000000000000000
(1495807324.963971) can0 3A4#0000000000000000
(1495807324.964983) can0 3A6#0E400A045F700000
(1495807324.965997) can0 3AC#FFFFFFFFFFFFFFFF
(1495807324.967004) can0 124#0202000000000000
(1495807324.968014) can0 22C#000A000000000000
(1495807324.969048) can0 167#727FFF100019F700
(1495807324.970056) can0 326#81A025CB81C400C8
(1495807324.971053) can0 332#0000000000000000
(1495807324.972070) can0 355#60003D8000800000
(1495807324.973079) can0 33A#0000000000000000
(1495807324.974097) can0 356#02BC383538350000
(1495807324.975106) can0 216#0000000082000000
(1495807324.976116) can0 35E#00C000C3B6579000
(1495807324.977144) can0 3E7#0000000000000000
(1495807324.978150) can0 415#0000F4EF0FFE0FFE
(1495807324.979173) can0 41A#8A00000000000000
(1495807324.980178) can0 167#727FFF100019F700
(1495807324.981190) can0 504#0512000000000000
(1495807324.988726) can0 167#727FFF100019F700
(1495807324.989930) can0 42F#7D04002E66040176
(1495807324.991816) can0 3A5#0000000000000000
(1495807324.992827) can0 3AD#FFFFFFFFFFFFFFFF
(1495807324.993839) can0 216#0000000082000000
(1495807324.994847) can0 415#0000F8EE0FFE0FFE
(1495807324.999607) can0 167#727FFF100019F700
(1495807325.001932) can0 083#0000000000017EF7
(1495807325.002940) can0 3BC#0C00089601872700
(1495807325.003947) can0 3BE#00204CEE4000D300
(1495807325.004956) can0 3C4#7794E801000093DE
(1495807325.005966) can0 3D5#0400000000000000
(1495807325.006977) can0 42A#D93B6AE000000000
(1495807325.007987) can0 42C#05515400A746A400
(1495807325.008998) can0 42E#9B0000E17803BBC0
(1495807325.010009) can0 167#727FFF100019F700
(1495807325.013246) can0 3A4#0000000000000000
(1495807325.014258) can0 216#0000000082000000
(1495807325.015267) can0 33B#0000000000000000
(1495807325.016300) can0 3AC#FFFFFFFFFFFFFFFF
(1495807325.017305) can0 415#0000FCED0FFE0FFE
(1495807325.018320) can0 465#63EE415234F08FCC
(1495807325.019326) can0 40A#C100334641365030
(1495807325.020342) can0 467#AA80003593001830
(1495807325.021358) can0 167#727FFF100019F700
(1495807325.022368) can0 178#000002000E91CE92
(1495807325.024148) can0 42F#7D04002E66030176
(1495807325.028741) can0 167#727FFF100019F700
(1495807325.034385) can0 216#0000000082000000
(1495807325.035386) can0 415#0000C0FC0FFE0FFE
(1495807325.039251) can0 167#727FFF100019F700
(1495807325.041830) can0 3A5#0000000000000000
(1495807325.042846) can0 3AD#FFFFFFFFFFFFFFFF
(1495807325.048757) can0 167#727FFF100019F700
(1495807325.049785) can0 333#0000000000000000
(1495807325.050797) can0 42F#7D04002E66030176
(1495807325.051803) can0 083#0000000000017EF4
(1495807325.052808) can0 3BC#0C00089601862700
(1495807325.053822) can0 42A#D83C6AE000000000
(1495807325.054829) can0 216#0000000082000000
(1495807325.055839) can0 415#0000C4FB0FFE0FFE
(1495807325.056850) can0 42C#05515400A77EA400
(1495807325.057867) can0 42E#9F0000E17A0FBBF1
(1495807325.059216) can0 167#727FFF100019F700
(1495807325.062320) can0 346#000000030300C000
(1495807325.063328) can0 348#0000000000000000
(1495807325.064339) can0 3A4#0000000000000000
(1495807325.065353) can0 3AC#FFFFFFFFFFFFFFFF
(1495807325.066771) can0 326#81A025CB81C400C8
(1495807325.067798) can0 35E#00C000BFB6579000
(1495807325.068803) can0 167#727FFF100019F700
(1495807325.070553) can0 332#0000000000000000
(1495807325.071565) can0 33A#0000000000000000
(1495807325.073811) can0 216#0000000082000000
(1495807325.074816) can0 33B#0000000000000000
(1495807325.075828) can0 415#0000C8FA0FFE0FFE
(1495807325.079300) can0 167#727FFF100019F700
(1495807325.080305) can0 505#0B12000000000000
(1495807325.081307) can0 42F#7D04002E66030177
(1495807325.088771) can0 167#727FFF100019F600
(1495807325.091848) can0 3A5#0000000000000000
(1495807325.092859) can0 3AD#FFFFFFFFFFFFFFFF
(1495807325.093872) can0 216#0000000082000000
(1495807325.094880) can0 415#0000CCF90FFE0FFE
(1495807325.099498) can0 167#727FFF100019F600
(1495807325.102023) can0 083#0000000000017EF7
(1495807325.103049) can0 2FD#D400E3C108520000
(1495807325.104053) can0 3BC#0C00089601862700
(1495807325.105058) can0 3BE#00204CEE4000D300
(1495807325.106068) can0 42A#D93C6AE000000000
(1495807325.107079) can0 42C#05515400A746A400
(1495807325.108097) can0 42E#9B0000E17803BBC0
(1495807325.109112) can0 167#727FFF100019F600
(1495807325.110121) can0 42F#7D04002E66020177
(1495807325.113141) can0 3A4#0000000000000000
(1495807325.114173) can0 216#0000000082000000
(1495807325.115178) can0 3AC#FFFFFFFFFFFFFFFF
(1495807325.116181) can0 415#0000D0F80FFE0FFE
(1495807325.118264) can0 3B6#0800070000000000
(1495807325.119271) can0 3B7#0000010060A6144E
(1495807325.120300) can0 167#727FFF100019F600
(1495807325.121310) can0 178#000001FF0E91CE92
(1495807325.128760) can0 167#727FFF100019F700
(1495807325.134429) can0 216#0000000082000000
(1495807325.135428) can0 33B#0000000000000000
(1495807325.136428) can0 415#0000D4F70FFE0FFE
(1495807325.139303) can0 167#727FFF100019F700
(1495807325.141744) can0 42F#7D04002E66020177
(1495807325.142757) can0 3A5#0000000000000000
(1495807325.143774) can0 3A7#0E400A045F700000
(1495807325.144803) can0 3AD#FFFFFFFFFFFFFFFF
(1495807325.148720) can0 167#727FFF100019F700
(1495807325.149731) can0 333#0000000000000000
(1495807325.151423) can0 083#0000000000017EF4
(1495807325.152428) can0 3BC#0C00089601862700
(1495807325.153438) can0 42A#D93C6BE000000000
(1495807325.154452) can0 216#0000000082000000
(1495807325.155462) can0 415#0000D8F60FFE0FFE
(1495807325.156473) can0 42C#05515400A77EA400
(1495807325.157490) can0 42E#9F0000E1770FBBF1
(1495807325.159258) can0 167#727FFF100019F700
(1495807325.161738) can0 346#000000030300C000
(1495807325.162746) can0 348#0000000000000000
(1495807325.163755) can0 3A4#0000000000000000
(1495807325.164774) can0 3A6#0E400A045F700000
(1495807325.165800) can0 3AC#FFFFFFFFFFFFFFFF
(1495807325.167274) can0 2A0#FFFFFFFF00001E00
(1495807325.168302) can0 326#81A025CB81C400C8
(1495807325.169307) can0 167#727FFF100019F700
(1495807325.170310) can0 35E#00C000BCB6588800
(1495807325.171326) can0 332#0000000000000000
(1495807325.172333) can0 42F#7D04002E66020177
(1495807325.173350) can0 33A#0000000000000000
(1495807325.174354) can0 216#0000000082000000
(1495807325.175366) can0 415#0000DCF50FFE0FFE
(1495807325.176804) can0 50B#1E12000000000000
(1495807325.179238) can0 167#727FFF100019F700
(1495807325.188747) can0 167#727FFF100019F700
(1495807325.191874) can0 3A5#0000000000000000
(1495807325.192889) can0 3AD#FFFFFFFFFFFFFFFF
(1495807325.193926) can0 216#0000000082000000
(1495807325.194927) can0 33B#0000000000000000
(1495807325.195931) can0 415#0000E0F40FFE0FFE
(1495807325.199506) can0 167#727FFF100019F700
(1495807325.201684) can0 42F#7D04002E66030177
(1495807325.202691) can0 083#0000000000017EF4
(1495807325.203698) can0 3BC#0C00089601862700
(1495807325.204708) can0 3BE#00204CEE4000D300
(1495807325.205721) can0 3C4#7794E841000093DE
(1495807325.206729) can0 42A#D93C6BE000000000
(1495807325.207742) can0 42C#05515400A746A400
(1495807325.208761) can0 42E#9B0000E17803BBC0
(1495807325.209774) can0 167#727FFF100019F700
(1495807325.213290) can0 3A4#0000000000000000
(1495807325.214302) can0 216#0000000082000000
(1495807325.215304) can0 3AC#FFFFFFFFFFFFFFFF
(1495807325.216312) can0 415#0000E4F30FFE0FFE
(1495807325.218597) can0 3B3#4048061210050022
(1495807325.219806) can0 167#727FFF100019F700
(1495807325.220819) can0 178#000002000E91CE92
(1495807325.223183) can0 40A#C1014B3931485232
(1495807325.228729) can0 167#727FFF100019F700
(1495807325.229739) can0 42F#7D04002E66030177
(1495807325.234312) can0 216#0000000082000000
(1495807325.235330) can0 415#0000E8F20FFE0FFE
(1495807325.239241) can0 167#727FFF100019F700
(1495807325.241897) can0 3A5#0000000000000000
(1495807325.242929) can0 3AD#FFFFFFFFFFFFFFFF
(1495807325.248768) can0 167#727FFF100019F700
(1495807325.249801) can0 333#0000000000000000
(1495807325.251423) can0 083#0000000000017EF4
(1495807325.252424) can0 3BC#0C00089601862700
(1495807325.253432) can0 42A#D93C6BE000000000
(1495807325.254433) can0 216#0000000082000000
(1495807325.255443) can0 33B#0000000000000000
(1495807325.256458) can0 415#0000ECF10FFE0FFE
(1495807325.257473) can0 42C#05515400A77EA400
(1495807325.258483) can0 42E#9F0000E1780FBBF1
(1495807325.259501) can0 167#727FFF100019F700
(1495807325.260679) can0 51E#3B02000000000000
(1495807325.261683) can0 42F#7D04002E66030177
(1495807325.262694) can0 346#000000030300C000
(1495807325.263703) can0 348#0000000000000000
(1495807325.264712) can0 3A4#0000000000000000
(1495807325.265726) can0 3AC#FFFFFFFFFFFFFFFF
(1495807325.267707) can0 326#81A025CB81C400C8
(1495807325.268720) can0 35E#00C000B8B6588800
(1495807325.269737) can0 167#727FFF100019F700
(1495807325.270747) can0 332#0000000000000000
(1495807325.271767) can0 33A#0000000000000000
(1495807325.273760) can0 216#0000000082000000
(1495807325.274775) can0 415#0000F0F00FFE0FFE
(1495807325.279306) can0 167#727FFF100019F700
(1495807325.286931) can0 304#0800000000000000
(1495807325.288761) can0 167#727FFF100019F700
(1495807325.289962) can0 42F#7D04002E66030177
(1495807325.291928) can0 3A5#0000000000000000
(1495807325.292936) can0 3AD#FFFFFFFFFFFFFFFF
(1495807325.293949) can0 216#0000000082000000
(1495807325.294958) can0 415#0000F4EF0FFE0FFE
(1495807325.299469) can0 167#727FFF100019F700
(1495807325.301828) can0 083#0000000000017EF4
(1495807325.302844) can0 3BC#0C00089601852700
(1495807325.303862) can0 3BE#00204CEE4000D300
(1495807325.304871) can0 42A#D93C6BE000000000
(1495807325.305885) can0 42C#05515400A746A400
(1495807325.306897) can0 42E#9B0000E17A03BBC0
(1495807325.308726) can0 167#727FFF100019F700
(1495807325.313201) can0 3A4#0000000000000000
(1495807325.314215) can0 216#0000000082000000
(1495807325.315220) can0 33B#0000000000000000
(1495807325.316236) can0 3AC#FFFFFFFFFFFFFFFF
(1495807325.317260) can0 415#0000F8EE0FFE0FFE
(1495807325.319985) can0 167#727FFF100019F700
(1495807325.320992) can0 178#000002010E91CE92
(1495807325.324094) can0 42F#7D04002E66030177
(1495807325.328804) can0 167#727FFF100019F600
(1495807325.334144) can0 216#0000000082000000
(1495807325.335150) can0 415#0000FCED0FFE0FFE
(1495807325.336307) can0 466#70081831B2403800
(1495807325.339455) can0 167#727FFF100019F600
(1495807325.341938) can0 3A5#0000000000000000
(1495807325.342945) can0 3A7#0E400A045F700000
(1495807325.343953) can0 3AD#FFFFFFFFFFFFFFFF
(1495807325.348740) can0 167#727FFF100019F600
(1495807325.349757) can0 333#0000000000000000
(1495807325.350762) can0 42F#7D04002E66010177
(1495807325.351799) can0 083#0000000000017EF4
(1495807325.352804) can0 33C#0000000000000000
(1495807325.353809) can0 3BC#0C00089601852700
(1495807325.354824) can0 216#0000000082000000
(1495807325.355833) can0 415#0000C0FC0FFE0FFE
(1495807325.356850) can0 42A#D93B6AE000000000
(1495807325.357861) can0 42C#05515400A77EA400
(1495807325.358871) can0 42E#9F0000E17B0FBBF1
(1495807325.359881) can0 167#727FFF100019F600
(1495807325.360893) can0 53B#5D12000000000000
(1495807325.361911) can0 346#000000030300C000
(1495807325.362929) can0 348#0000000000000000
(1495807325.363933) can0 3A4#0000000000000000
(1495807325.364944) can0 3A6#0E400A045F700000
(1495807325.365964) can0 3AC#FFFFFFFFFFFFFFFF
(1495807325.367702) can0 3B6#0800080000000000
(1495807325.368714) can0 326#81A025CB81C400C8
(1495807325.369725) can0 167#727FFF100019F600
(1495807325.370734) can0 332#0000000000000000
(1495807325.371743) can0 35E#00C000B5B6588800
(1495807325.372754) can0 33A#0000000000000000
(1495807325.373770) can0 3B7#0000020060A67BEB
(1495807325.374799) can0 216#0000000082000000
(1495807325.375804) can0 33B#0000000000000000
(1495807325.376804) can0 415#0000C4FB0FFE0FFE
(1495807325.379251) can0 167#727FFF100019F600
(1495807325.380705) can0 42F#7D04002E66010177
(1495807325.386966) can0 3E1#8000010701800000
(1495807325.388735) can0 167#727FFF100019F600
(1495807325.391935) can0 3A5#0000000000000000
(1495807325.392948) can0 3AD#FFFFFFFFFFFFFFFF
(1495807325.393960) can0 216#0000000082000000
(1495807325.394968) can0 415#0000C8FA0FFE0FFE
(1495807325.399554) can0 167#727FFF100019F600
(1495807325.401634) can0 083#0000000000017EF4
(1495807325.402649) can0 3BC#0C00089601862700
(1495807325.403674) can0 3BE#00204CEE4000D300
(1495807325.404679) can0 3C4#7794E801000093DE
(1495807325.405684) can0 42A#D93B6AE000000000
(1495807325.406696) can0 42C#05515400A746A400
(1495807325.407710) can0 42E#9B0000E17903BBC0
(1495807325.408804) can0 167#727FFF100019F600
(1495807325.409808) can0 42F#7D04002E66010177
(1495807325.413227) can0 3A4#0000000000000000
(1495807325.414236) can0 216#0000000082000000
(1495807325.415253) can0 3AC#FFFFFFFFFFFFFFFF
(1495807325.416301) can0 415#0000CCF90FFE0FFE
(1495807325.418679) can0 40A#C1023130373639FF
(1495807325.419929) can0 167#727FFF100019F600
(1495807325.420936) can0 178#000001FF0E91CE92
(1495807325.428765) can0 167#727FFF100019F600
(1495807325.434286) can0 216#0000000082000000
(1495807325.435300) can0 33B#0000000000000000
(1495807325.436303) can0 415#0000D0F80FFE0FFE
(1495807325.437739) can0 35D#0000000000000000
(1495807325.439306) can0 167#727FFF100019F600
(1495807325.440758) can0 42F#7D04002E66010177
(1495807325.441952) can0 3A5#0000000000000000
(1495807325.442960) can0 3AD#FFFFFFFFFFFFFFFF
(1495807325.448720) can0 55D#0402000000000000
(1495807325.449725) can0 167#727FFF100019F600
(1495807325.450741) can0 333#0000000000000000
(1495807325.451752) can0 083#0000000000017EF5
(1495807325.452769) can0 3BC#0C00089601852700
(1495807325.453802) can0 42A#D93A69E000000000
(1495807325.454804) can0 216#0000000082000000
(1495807325.455807) can0 415#0000D4F70FFE0FFE
(1495807325.456811) can0 42C#05515400A87EA400
(1495807325.457831) can0 42E#9F0000E1770FBBF1
(1495807325.459259) can0 167#727FFF100019F600
(1495807325.463246) can0 3A4#0000000000000000
(1495807325.464249) can0 3AC#FFFFFFFFFFFFFFFF
(1495807325.465497) can0 346#000000030300C000
(1495807325.466506) can0 348#0000000000000000
(1495807325.467514) can0 3E0#0000000080000000
(1495807325.468686) can0 326#81A025CB81C400C8
(1495807325.469696) can0 167#727FFF100019F600
(1495807325.470706) can0 332#0000000000000000
(1495807325.471723) can0 35E#00C000B1B6588000
(1495807325.472732) can0 33A#0000000000000000
(1495807325.473744) can0 42F#7D04002E66020177
(1495807325.474758) can0 216#0000000082000000
(1495807325.475764) can0 3DE#0000000080000000
(1495807325.476799) can0 415#0000D8F60FFE0FFE
(1495807325.479319) can0 167#727FFF100019F600
(1495807325.488801) can0 167#727FFF100019F700
(1495807325.489808) can0 3E7#0000000000000000
(1495807325.491971) can0 3A5#0000000000000000
(1495807325.492981) can0 3AD#FFFFFFFFFFFFFFFF
(1495807325.493993) can0 216#0000000082000000
(1495807325.495001) can0 33B#0000000000000000
(1495807325.496010) can0 415#0000DCF50FFE0FFE
(1495807325.499484) can0 167#727FFF100019F700
(1495807325.500976) can0 42F#7D04002E66020177
(1495807325.501990) can0 083#0000000000017EF5
(1495807325.502997) can0 3BC#0C00089601862700
(1495807325.504008) can0 3BE#00204CEE4000D300
(1495807325.505025) can0 42A#D93A69E000000000
(1495807325.506052) can0 42C#05515400A846A400
(1495807325.507054) can0 42E#9B0000E17903BBC0
(1495807325.508070) can0 3EB#5704140404100000
(1495807325.509081) can0 167#727FFF100019F700
(1495807325.513267) can0 3A4#0000000000000000
(1495807325.514269) can0 216#0000000082000000
(1495807325.515301) can0 3AC#FFFFFFFFFFFFFFFF
(1495807325.516303) can0 415#0000E0F40FFE0FFE
(1495807325.519758) can0 167#727FFF100019F700
(1495807325.520769) can0 178#000002000E91CE92
(1495807325.528775) can0 167#727FFF100019F700
(1495807325.529802) can0 42F#7D04002E66020177
(1495807325.534057) can0 216#0000000082000000
(1495807325.535062) can0 415#0000E4F30FFE0FFE
(1495807325.539471) can0 167#727FFF100019F600
(1495807325.540554) can0 504#0512000000000000
(1495807325.542090) can0 3A5#0000000000000000
(1495807325.543099) can0 3A7#0E400A045F700000
(1495807325.544111) can0 3AD#FFFFFFFFFFFFFFFF
(1495807325.548756) can0 167#727FFF100019F600
(1495807325.549776) can0 333#0000000000000000
(1495807325.551054) can0 083#0000000000017EF4
(1495807325.552061) can0 3BC#0C00089601852700
(1495807325.553071) can0 42A#D93A68E000000000
(1495807325.554084) can0 42C#05515400A87EA400
(1495807325.555093) can0 216#0000000082000000
(1495807325.556103) can0 33B#0000000000000000
(1495807325.557119) can0 415#0000E8F20FFE0FFE
(1495807325.558133) can0 42E#9F0000E1790FBBF1
(1495807325.559309) can0 167#727FFF100019F600
(1495807325.560744) can0 42F#7D04002E66020178
(1495807325.561755) can0 346#000000030300C000
(1495807325.562770) can0 348#0000000000000000
(1495807325.563799) can0 3A4#0000000000000000
(1495807325.564804) can0 3A6#0E400A045F700000
(1495807325.565810) can0 3AC#FFFFFFFFFFFFFFFF
(1495807325.568805) can0 167#727FFF100019F600
(1495807325.569810) can0 326#81A025CB81C400C8
(1495807325.570817) can0 332#0000000000000000
(1495807325.571827) can0 35E#00C000AEB6588000
(1495807325.572836) can0 33A#0000000000000000
(1495807325.573849) can0 216#0000000082000000
(1495807325.574859) can0 415#0000ECF10FFE0FFE
(1495807325.576306) can0 358#0020000000000000
(1495807325.579276) can0 167#727FFF100019F600
(1495807325.588748) can0 167#727FFF100019F600
(1495807325.589958) can0 42F#7D04002E66010178
(1495807325.592080) can0 3A5#0000000000000000
(1495807325.593096) can0 3AD#FFFFFFFFFFFFFFFF
(1495807325.594108) can0 216#0000000082000000
(1495807325.595124) can0 415#0000F0F00FFE0FFE
(1495807325.599558) can0 167#727FFF100019F600
(1495807325.601510) can0 083#0000000000017EF4
(1495807325.602517) can0 3BC#0C00089601852700
(1495807325.603549) can0 3BE#00204CEE4000D300
(1495807325.604554) can0 3C4#7794E801000093DE
(1495807325.605569) can0 42A#D93A68E000000000
(1495807325.606573) can0 42C#05515400A846A400
(1495807325.607582) can0 42E#9B0000E17A03BBC0
(1495807325.608836) can0 167#727FFF100019F600
(1495807325.609848) can0 356#12BC383438340000
(1495807325.613303) can0 3A4#0000000000000000
(1495807325.614304) can0 216#0000000082000000
(1495807325.615313) can0 33B#0000000000000000
(1495807325.616324) can0 3AC#FFFFFFFFFFFFFFFF
(1495807325.617335) can0 358#0000000000000000
(1495807325.618350) can0 415#0000F4EF0FFE0FFE
(1495807325.619805) can0 167#727FFF100019F600
(1495807325.620804) can0 178#000002000E91CE92
(1495807325.623002) can0 3B6#0800090000000000
(1495807325.624014) can0 3B7#0000030060A65F8C
(1495807325.625049) can0 3EB#5704140404100000
(1495807325.626057) can0 40A#C104014107F670C1
(1495807325.627059) can0 42F#7D04002E66010178
(1495807325.628073) can0 447#2100000002000000
(1495807325.629082) can0 167#727FFF100019F600
(1495807325.634276) can0 216#0000000082000000
(1495807325.635301) can0 415#0000F8EE0FFE0FFE
(1495807325.636303) can0 3E2#0000000080000000
(1495807325.639345) can0 167#727FFF100019F600
(1495807325.640356) can0 505#0B12000000000000
(1495807325.642015) can0 3A5#0000000000000000
(1495807325.643049) can0 3AD#FFFFFFFFFFFFFFFF
(1495807325.648819) can0 167#727FFF100019F600
(1495807325.649835) can0 333#0000000000000000
(1495807325.650842) can0 356#02BC383438340000
(1495807325.651852) can0 083#0000000000017EF4
(1495807325.652861) can0 3BC#0C00089601852700
(1495807325.653876) can0 42A#D93968E000000000
(1495807325.654882) can0 216#0000000082000000
(1495807325.655895) can0 415#0000FCED0FFE0FFE
(1495807325.656924) can0 42C#05515400A87FA500
(1495807325.657929) can0 42E#9F0000E17A0FBBF1
(1495807325.658941) can0 42F#7D04002E66010178
(1495807325.659949) can0 167#727FFF100019F600
(1495807325.662051) can0 346#000000030300C000
(1495807325.663054) can0 348#0000000000000000
(1495807325.664058) can0 3A4#0000000000000000
(1495807325.665074) can0 3AC#FFFFFFFFFFFFFFFF
(1495807325.667595) can0 3B4#401111FF25250000
(1495807325.668764) can0 167#727FFF100019F600
(1495807325.669785) can0 326#81A025CB81C400C8
(1495807325.670799) can0 332#0000000000000000
(1495807325.671804) can0 35E#00C000AAB6587800
(1495807325.672811) can0 33A#0000000000000000
(1495807325.673823) can0 33F#0100000000000000
(1495807325.674833) can0 216#0000000082000000
(1495807325.675846) can0 33B#0000000000000000
(1495807325.676855) can0 415#0000C0FC0FFE0FFE
(1495807325.679332) can0 167#727FFF100019F600
(1495807325.680808) can0 42F#7D04002E66010178
(1495807325.688807) can0 167#727FFF100019F600
(1495807325.692034) can0 3A5#0000000000000000
(1495807325.693055) can0 3AD#FFFFFFFFFFFFFFFF
(1495807325.694054) can0 216#0000000082000000
(1495807325.695066) can0 415#0000C4FB0FFE0FFE
(1495807325.699554) can0 167#727FFF100019F600
(1495807325.701677) can0 083#0000000000017EF4
(1495807325.702679) can0 3BC#0C00089601842700
(1495807325.703682) can0 3BE#00204CEE4000D301
(1495807325.704696) can0 42A#D93968E000000000
(1495807325.705706) can0 42C#05515400A846A400
(1495807325.706722) can0 42E#9B0000E17903BBC0
(1495807325.708756) can0 167#727FFF100019F600
(1495807325.709772) can0 42F#7D04002E66010178
(1495807325.713323) can0 3A4#0000000000000000
(1495807325.714328) can0 216#0000000082000000
(1495807325.715339) can0 3AC#FFFFFFFFFFFFFFFF
(1495807325.716349) can0 415#0000C8FA0FFE0FFE
(1495807325.718149) can0 3B3#4048061210050022
(1495807325.719174) can0 3C3#40C8000000004100
(1495807325.720180) can0 167#727FFF100019F600
(1495807325.721184) can0 178#000001FF0E91CE92
(1495807325.728811) can0 167#727FFF100019F700
(1495807325.734311) can0 216#0000000082000000
(1495807325.735324) can0 33B#0000000000000000
(1495807325.736337) can0 1E6#800CE80700000000
(1495807325.737349) can0 415#0000CCF90FFE0FFE
(1495807325.738356) can0 50B#1E12000000000000
(1495807325.739369) can0 167#727FFF100019F700
(1495807325.741469) can0 42F#7D04002E66020178
(1495807325.742483) can0 3A5#0000000000000000
(1495807325.743517) can0 3A7#0E400A045F700000
(1495807325.744554) can0 3AD#FFFFFFFFFFFFFFFF
(1495807325.748753) can0 167#727FFF100019F700
(1495807325.749768) can0 333#0000000000000000
(1495807325.750826) can0 083#0000000000017EF4
(1495807325.751844) can0 3BC#0C00089601842700
(1495807325.752856) can0 42A#D93868E000000000
(1495807325.753871) can0 42C#05515400A87EA400
(1495807325.754879) can0 216#0000000082000000
(1495807325.755891) can0 415#0000D0F80FFE0FFE
(1495807325.756899) can0 42E#9F0000E1780FBBF1
(1495807325.759349) can0 167#727FFF100019F700
(1495807325.761213) can0 346#000000030300C000
(1495807325.762222) can0 348#0000000000000000
(1495807325.763343) can0 3A4#0000000000000000
(1495807325.764352) can0 3A6#0E400A045F700000
(1495807325.765364) can0 3AC#FFFFFFFFFFFFFFFF
(1495807325.768804) can0 167#727FFF100019F700
(1495807325.770000) can0 42F#7D04002E66020178
(1495807325.771014) can0 326#81A025CB81C400C8
(1495807325.772018) can0 332#0000000000000000
(1495807325.773049) can0 35E#00C000A7B6597800
(1495807325.774055) can0 216#0000000082000000
(1495807325.775054) can0 33A#0000000000000000
(1495807325.776067) can0 415#0000D4F70FFE0FFE
(1495807325.779262) can0 167#727FFF100019F700
(1495807325.788746) can0 167#727FFF100019F700
(1495807325.792242) can0 3A5#0000000000000000
(1495807325.793261) can0 3AD#FFFFFFFFFFFFFFFF
(1495807325.794271) can0 216#0000000082000000
(1495807325.795301) can0 33B#0000000000000000
(1495807325.796306) can0 415#0000D8F60FFE0FFE
(1495807325.799569) can0 167#727FFF100019F700
(1495807325.801020) can0 42F#7D04002E66030178
(1495807325.802051) can0 083#0000000000017EF4
(1495807325.803054) can0 3BC#0C00089601832700
(1495807325.804058) can0 3BE#00204CEE4000D300
(1495807325.805071) can0 3C4#7794E831000093DE
(1495807325.806086) can0 42A#D93868E000000000
(1495807325.807097) can0 42C#05515400A846A400
(1495807325.808107) can0 42E#9B0000E17703BBC0
(1495807325.809130) can0 331#C0061B590CD49414
(1495807325.810135) can0 167#727FFF100019F700
(1495807325.813355) can0 3A4#0000000000000000
(1495807325.814363) can0 216#0000000082000000
(1495807325.815378) can0 3AC#FFFFFFFFFFFFFFFF
(1495807325.816388) can0 415#0000DCF50FFE0FFE
(1495807325.818425) can0 40A#C110409060250000
(1495807325.819854) can0 167#727FFF100019F700
(1495807325.820868) can0 178#000001FF0E91CE92
(1495807325.821884) can0 51E#3B02000000000000
(1495807325.828746) can0 167#727FFF100019F700
(1495807325.829760) can0 42F#7D04002E66040178
(1495807325.834227) can0 216#0000000082000000
(1495807325.835235) can0 415#0000E0F40FFE0FFE
(1495807325.839325) can0 167#727FFF100019F700
(1495807325.842090) can0 3A5#0000000000000000
(1495807325.843098) can0 3AD#FFFFFFFFFFFFFFFF
(1495807325.848807) can0 167#727FFF100019F700
(1495807325.849819) can0 333#0000000000000000
(1495807325.850822) can0 083#0000000000017EF8
(1495807325.851834) can0 3BC#0C00089601822700
(1495807325.852848) can0 42A#D93867E000000000
(1495807325.853860) can0 42C#05515400A87EA400
(1495807325.854873) can0 216#0000000082000000
(1495807325.855884) can0 33B#0000000000000000
(1495807325.856924) can0 415#0000E4F30FFE0FFE
(1495807325.857929) can0 42E#9F0000E1780FBBF1
(1495807325.859270) can0 167#727FFF100019F700
(1495807325.860712) can0 42F#7D04002E66030178
(1495807325.861723) can0 34E#0000000000000000
(1495807325.862731) can0 346#000000030300C000
(1495807325.863742) can0 348#0000000000000000
(1495807325.864752) can0 358#0000000000000000
(1495807325.865764) can0 3A4#0000000000000000
(1495807325.866772) can0 3AC#FFFFFFFFFFFFFFFF
(1495807325.867799) can0 331#C0061B590CD49414
(1495807325.868804) can0 3B6#08000A0000000000
(1495807325.869813) can0 167#727FFF100019F700
(1495807325.870821) can0 332#0000000000000000
(1495807325.871829) can0 326#81A025CB81C400C8
(1495807325.872840) can0 33A#0000000000000000
(1495807325.873856) can0 35E#00C000A3B6597800
(1495807325.874871) can0 216#0000000082000000
(1495807325.875881) can0 3B7#0000000060A67C5C
(1495807325.876896) can0 415#0000E8F20FFE0FFE
(1495807325.878223) can0 084#1100009202060900
(1495807325.879303) can0 167#727FFF100019F700
(1495807325.888809) can0 167#727FFF100019F700
(1495807325.890010) can0 42F#7D04002E66030178
(1495807325.892103) can0 3A5#0000000000000000
(1495807325.893126) can0 3AD#FFFFFFFFFFFFFFFF
(1495807325.894131) can0 216#0000000082000000
(1495807325.895179) can0 415#0000ECF10FFE0FFE
(1495807325.899512) can0 167#727FFF100019F700
(1495807325.901327) can0 083#0000000000017EF4
(1495807325.902344) can0 3BC#0C00089601822700
(1495807325.903355) can0 3BE#00204CEE4000D300
(1495807325.904365) can0 42A#D93867E000000000
(1495807325.905376) can0 42C#05515400A846A400
(1495807325.906389) can0 42E#9B0000E17903BBC0
(1495807325.908756) can0 167#727FFF100019F700
(1495807325.911085) can0 53B#5D12000000000000
(1495807325.913397) can0 3A4#0000000000000000
(1495807325.914424) can0 216#0000000082000000
(1495807325.915430) can0 33B#0000000000000000
(1495807325.916433) can0 3AC#FFFFFFFFFFFFFFFF
(1495807325.917447) can0 415#0000F0F00FFE0FFE
(1495807325.919824) can0 167#727FFF100019F700
(1495807325.920832) can0 178#000001FE0E91CE92
(1495807325.923694) can0 42F#7D04002E66030178
(1495807325.928805) can0 167#727FFF100019F700
(1495807325.934777) can0 216#0000000082000000
(1495807325.935799) can0 415#0000F4EF0FFE0FFE
(1495807325.939262) can0 167#727FFF100019F700
(1495807325.942113) can0 3A5#0000000000000000
(1495807325.943120) can0 3A7#0E400A045F700000
(1495807325.944131) can0 3AD#FFFFFFFFFFFFFFFF
(1495807325.948770) can0 167#727FFF100019F700
(1495807325.949789) can0 333#0000000000000000
(1495807325.950800) can0 42F#7D04002E66030178
(1495807325.951819) can0 083#0000000000017EF4
(1495807325.952812) can0 3BC#0C00089601812700
(1495807325.953830) can0 42A#D93767E000000000
(1495807325.954844) can0 42C#05515400A87EA400
(1495807325.955847) can0 216#0000000082000000
(1495807325.956870) can0 415#0000F8EE0FFE0FFE
(1495807325.957889) can0 42E#9F0000E1750FBBF1
(1495807325.959344) can0 167#727FFF100019F700
(1495807325.961084) can0 346#000000030300C000
(1495807325.962093) can0 348#0000000000000000
(1495807325.963425) can0 3A4#0000000000000000
(1495807325.964435) can0 3A6#0E400A045F700000
(1495807325.965435) can0 3AC#FFFFFFFFFFFFFFFF
(1495807325.968833) can0 167#727FFF100019F800
(1495807325.970290) can0 332#0000000000000000
(1495807325.971301) can0 124#0202000000000000
(1495807325.972303) can0 22C#000A000000000000
(1495807325.973315) can0 326#81A025CB81C400C8
(1495807325.974324) can0 33A#0000000000000000
(1495807325.975334) can0 216#0000000082000000
(1495807325.976349) can0 33B#0000000000000000
(1495807325.977363) can0 355#60003D8000800000
(1495807325.978368) can0 356#02BC383438340000
(1495807325.979378) can0 35E#00C000A0B6597000
(1495807325.980394) can0 167#727FFF100019F800
(1495807325.981429) can0 3E7#0000000000000000
(1495807325.982429) can0 415#0000FCED0FFE0FFE
(1495807325.983433) can0 41A#8A00000000000000
(1495807325.984444) can0 42F#7D04002E66040178
(1495807325.988761) can0 167#727FFF100019F800
(1495807325.992114) can0 3A5#0000000000000000
(1495807325.993136) can0 3AD#FFFFFFFFFFFFFFFF
(1495807325.994597) can0 216#0000000082000000
(1495807325.995608) can0 415#0000C0FC0FFE0FFE
(1495807325.999605) can0 167#727FFF100019F800
(1495807326.001016) can0 083#0000000000017EF4
(1495807326.002049) can0 3BC#0C00089601832700
(1495807326.003054) can0 3BE#00204CEE4000D300
(1495807326.004054) can0 3C4#7794E801000093DE
(1495807326.005058) can0 3D5#0400000000000000
(1495807326.006069) can0 42A#D93767E000000000
(1495807326.007088) can0 42C#05515400A846A400
(1495807326.008098) can0 42E#9B0000E17503BBC0
(1495807326.009113) can0 167#727FFF100019F800
(1495807326.010124) can0 42F#7D04002E66040177
(1495807326.011346) can0 55D#0402000000000000
(1495807326.013429) can0 3A4#0000000000000000
(1495807326.014429) can0 216#0000000082000000
(1495807326.015442) can0 3AC#FFFFFFFFFFFFFFFF
(1495807326.016457) can0 415#0000C4FB0FFE0FFE
(1495807326.018482) can0 40A#C000000D11952A00
(1495807326.019955) can0 167#727FFF100019F800
(1495807326.020970) can0 178#000001FF0E91CE92
(1495807326.026232) can0 465#63EE415234F08FCC
(1495807326.027242) can0 467#AA80003593001028
(1495807326.028769) can0 167#727FFF100019F800
(1495807326.034749) can0 216#0000000082000000
(1495807326.035757) can0 33B#0000000000000000
(1495807326.036769) can0 415#0000C8FA0FFE0FFE
(1495807326.039348) can0 167#727FFF100019F800
(1495807326.040804) can0 42F#7D04002E66040177
(1495807326.042142) can0 3A5#0000000000000000
(1495807326.043175) can0 3AD#FFFFFFFFFFFFFFFF
(1495807326.048810) can0 167#727FFF100019F700
(1495807326.049833) can0 333#0000000000000000
(1495807326.050850) can0 083#0000000000017EF4
(1495807326.051857) can0 3BC#0C00089601812700
(1495807326.052872) can0 42A#D93666E000000000
(1495807326.053902) can0 42C#05515400A87EA400
(1495807326.054930) can0 216#0000000082000000
(1495807326.055931) can0 415#0000CCF90FFE0FFE
(1495807326.056936) can0 42E#9F0000E1780FBBF1
(1495807326.059310) can0 167#727FFF100019F800
(1495807326.061689) can0 346#000000030300C000
(1495807326.062702) can0 348#0000000000000000
(1495807326.063707) can0 3A4#0000000000000000
(1495807326.064729) can0 3AC#FFFFFFFFFFFFFFFF
(1495807326.068799) can0 167#727FFF100019F800
(1495807326.069987) can0 42F#7D04002E66040177
(1495807326.070992) can0 332#0000000000000000
(1495807326.072001) can0 326#81A025CB81C400C8
(1495807326.073019) can0 33A#0000000000000000
(1495807326.074031) can0 35E#00C0009CB6597000
(1495807326.075061) can0 216#0000000082000000
(1495807326.076061) can0 415#0000D0F80FFE0FFE
(1495807326.079346) can0 167#727FFF100019F800
(1495807326.088831) can0 167#727FFF100019F700
(1495807326.092173) can0 3A5#0000000000000000
(1495807326.093172) can0 3AD#FFFFFFFFFFFFFFFF
(1495807326.094356) can0 216#0000000082000000
(1495807326.095366) can0 33B#0000000000000000
(1495807326.096382) can0 415#0000D4F70FFE0FFE
(1495807326.099507) can0 167#727FFF100019F700
(1495807326.100968) can0 42F#7D04002E66030177
(1495807326.101980) can0 083#0000000000017EF4
(1495807326.102993) can0 2FD#D400E3C108520000
(1495807326.104005) can0 3BC#0C00089601812700
(1495807326.105016) can0 3BE#00204CEE4000D300
(1495807326.106026) can0 42A#D93666E000000000
(1495807326.107048) can0 42C#05515400A846A400
(1495807326.108053) can0 42E#9B0000E17803BBC0
(1495807326.109066) can0 167#727FFF100019F700
(1495807326.110405) can0 504#0512000000000000
(1495807326.113455) can0 3A4#0000000000000000
(1495807326.114466) can0 216#0000000082000000
(1495807326.115482) can0 3AC#FFFFFFFFFFFFFFFF
(1495807326.116491) can0 415#0000D8F60FFE0FFE
(1495807326.118757) can0 3B6#08000B0000000000
(1495807326.119959) can0 167#727FFF100019F700
(1495807326.120968) can0 178#000001FF0E91CE92
(1495807326.122874) can0 3B7#0000010060A6144E
(1495807326.128819) can0 167#727FFF100019F700
(1495807326.129837) can0 42F#7D04002E66030177
(1495807326.134655) can0 216#0000000082000000
(1495807326.135676) can0 415#0000DCF50FFE0FFE
(1495807326.139306) can0 167#727FFF100019F700
(1495807326.142187) can0 3A5#0000000000000000
(1495807326.143203) can0 3A7#0E400A045F700000
(1495807326.144219) can0 3AD#FFFFFFFFFFFFFFFF
(1495807326.148762) can0 167#727FFF100019F700
(1495807326.149806) can0 333#0000000000000000
(1495807326.150806) can0 083#0000000000017EF4
(1495807326.151810) can0 3BC#0C00089601812700
(1495807326.152819) can0 42A#D93567E000000000
(1495807326.153830) can0 42C#05515400A87EA400
(1495807326.154846) can0 216#0000000082000000
(1495807326.155857) can0 33B#0000000000000000
(1495807326.156868) can0 415#0000E0F40FFE0FFE
(1495807326.157880) can0 42E#9F0000E1760FBBF1
(1495807326.159335) can0 167#727FFF100019F700
(1495807326.160801) can0 42F#7D04002E66030177
(1495807326.161810) can0 346#000000030300C000
(1495807326.162811) can0 348#0000000000000000
(1495807326.163821) can0 3A4#0000000000000000
(1495807326.164838) can0 3A6#0E400A045F700000
(1495807326.165851) can0 3AC#FFFFFFFFFFFFFFFF
(1495807326.168833) can0 167#727FFF100019F800
(1495807326.170240) can0 332#0000000000000000
(1495807326.171248) can0 33A#0000000000000000
(1495807326.172257) can0 2A0#FFFFFFFF00001E00
(1495807326.173272) can0 326#81A025CB81C400C8
(1495807326.174303) can0 216#0000000082000000
(1495807326.175303) can0 35E#00C00099B6597000
(1495807326.176308) can0 415#0000E4F30FFE0FFE
(1495807326.179308) can0 167#727FFF100019F800
(1495807326.188767) can0 167#727FFF100019F800
(1495807326.189967) can0 42F#7D04002E66040177
(1495807326.192187) can0 3A5#0000000000000000
(1495807326.193204) can0 3AD#FFFFFFFFFFFFFFFF
(1495807326.194213) can0 216#0000000082000000
(1495807326.195224) can0 415#0000E8F20FFE0FFE
(1495807326.199581) can0 167#727FFF100019F800
(1495807326.200828) can0 083#0000000000017EF5
(1495807326.201845) can0 3BC#0C00089601802700
(1495807326.202851) can0 3BE#00204CEE4000D300
(1495807326.203862) can0 3C4#7794E841000093DE
(1495807326.204874) can0 42A#D93567E000000000
(1495807326.205890) can0 42C#05515400A846A400
(1495807326.206895) can0 42E#9B0000E17403BBC0
(1495807326.208811) can0 167#727FFF100019F800
(1495807326.209820) can0 505#0B12000000000000
(1495807326.213492) can0 3A4#0000000000000000
(1495807326.214503) can0 216#0000000082000000
(1495807326.215513) can0 33B#0000000000000000
(1495807326.216528) can0 3AC#FFFFFFFFFFFFFFFF
(1495807326.217560) can0 415#0000ECF10FFE0FFE
(1495807326.218555) can0 3B3#4048061210050022
(1495807326.219562) can0 40A#C100334641365030
(1495807326.220571) can0 167#727FFF100019F800
(1495807326.221586) can0 178#000001FF0E91CE92
(1495807326.224049) can0 42F#7D04002E66050177
(1495807326.228778) can0 167#727FFF100019F800
(1495807326.234230) can0 216#0000000082000000
(1495807326.235236) can0 415#0000F0F00FFE0FFE
(1495807326.239339) can0 167#727FFF100019F800
(1495807326.242206) can0 3A5#0000000000000000
(1495807326.243219) can0 3AD#FFFFFFFFFFFFFFFF
(1495807326.248820) can0 167#727FFF100019F800
(1495807326.249830) can0 333#0000000000000000
(1495807326.250837) can0 083#0000000000017EF4
(1495807326.251853) can0 3BC#0C00089601812700
(1495807326.252865) can0 42A#D93565E000000000
(1495807326.253880) can0 42C#05515400A87EA400
(1495807326.254888) can0 216#0000000082000000
(1495807326.255901) can0 415#0000F4EF0FFE0FFE
(1495807326.256929) can0 42E#9F0000E1740FBBF1
(1495807326.257932) can0 42F#7D04002E66050177
(1495807326.259302) can0 167#727FFF100019F800
(1495807326.261307) can0 346#000000030300C000
(1495807326.262303) can0 348#0000000000000000
(1495807326.263514) can0 3A4#0000000000000000
(1495807326.264524) can0 3AC#FFFFFFFFFFFFFFFF
(1495807326.268803) can0 167#727FFF100019F800
(1495807326.270221) can0 332#0000000000000000
(1495807326.271229) can0 33A#0000000000000000
(1495807326.272379) can0 326#81A025CB81C400C8
(1495807326.273394) can0 35E#00C00095B6596800
(1495807326.274398) can0 216#0000000082000000
(1495807326.275425) can0 33B#0000000000000000
(1495807326.276431) can0 415#0000F8EE0FFE0FFE
(1495807326.279357) can0 167#727FFF100019F800
(1495807326.280805) can0 42F#7D04002E66060177
(1495807326.287685) can0 304#0800000000000000
(1495807326.288808) can0 167#727FFF100019F800
(1495807326.292213) can0 3A5#0000000000000000
(1495807326.293222) can0 3AD#FFFFFFFFFFFFFFFF
(1495807326.294236) can0 216#0000000082000000
(1495807326.295245) can0 415#0000FCED0FFE0FFE
(1495807326.299555) can0 167#727FFF100019F800
(1495807326.300865) can0 083#0000000000017EF4
(1495807326.301879) can0 3BC#0C000896017F2700
(1495807326.302891) can0 3BE#00204CEE4000D300
(1495807326.303903) can0 42A#D93565E000000000
(1495807326.304925) can0 42C#05515400A846A400
(1495807326.305933) can0 42E#9B0000E17703BBC0
(1495807326.307680) can0 50B#1E12000000000000
(1495807326.308772) can0 167#727FFF100019F800
(1495807326.309800) can0 42F#7D04002E66050177
(1495807326.313521) can0 3A4#0000000000000000
(1495807326.314524) can0 216#0000000082000000
(1495807326.315554) can0 3AC#FFFFFFFFFFFFFFFF
(1495807326.316560) can0 415#0000C0FC0FFE0FFE
(1495807326.319814) can0 167#727FFF100019F800
(1495807326.320821) can0 178#000002020E91CE92
(1495807326.326245) can0 466#70081C31B2403800
(1495807326.328849) can0 167#727FFF100019F700
(1495807326.334342) can0 216#0000000082000000
(1495807326.335350) can0 33B#0000000000000000
(1495807326.336367) can0 415#0000C4FB0FFE0FFE
(1495807326.339304) can0 167#727FFF100019F700
(1495807326.340744) can0 42F#7D04002E66030177
(1495807326.342224) can0 3A5#0000000000000000
(1495807326.343234) can0 3A7#0E400A045F700000
(1495807326.344243) can0 3AD#FFFFFFFFFFFFFFFF
(1495807326.348805) can0 167#727FFF100019F700
(1495807326.349808) can0 333#0000000000000000
(1495807326.350808) can0 083#0000000000017EF5
(1495807326.351816) can0 33C#0000000000000000
(1495807326.352835) can0 3BC#0C000896017F2700
(1495807326.353850) can0 42A#D93465E000000000
(1495807326.354856) can0 216#0000000082000000
(1495807326.355867) can0 415#0000C8FA0FFE0FFE
(1495807326.356877) can0 42C#05515400A87EA400
(1495807326.357892) can0 42E#9F0000E17A0FBBF1
(1495807326.359348) can0 167#727FFF100019F700
(1495807326.360692) can0 346#000000030300C000
(1495807326.361703) can0 348#0000000000000000
(1495807326.363525) can0 3A4#0000000000000000
(1495807326.364555) can0 3A6#0E400A045F700000
(1495807326.365570) can0 3AC#FFFFFFFFFFFFFFFF
(1495807326.367680) can0 3B6#08000000307FE171
(1495807326.368680) can0 3B7#0000020060A67BEB
(1495807326.369695) can0 167#727FFF100019F700
(1495807326.370700) can0 332#0000000000000000
(1495807326.371716) can0 42F#7D04002E66030177
(1495807326.372733) can0 33A#0000000000000000
(1495807326.373749) can0 326#81A025CB81C400C8
(1495807326.374755) can0 216#0000000082000000
(1495807326.375765) can0 35E#00C00092B6596800
(1495807326.376775) can0 415#0000CCF90FFE0FFE
(1495807326.379304) can0 167#727FFF100019F600
(1495807326.387730) can0 3E1#8000010701800000
(1495807326.388800) can0 167#727FFF100019F600
(1495807326.392264) can0 3A5#0000000000000000
(1495807326.393274) can0 3AD#FFFFFFFFFFFFFFFF
(1495807326.394303) can0 216#0000000082000000
(1495807326.395304) can0 33B#0000000000000000
(1495807326.396304) can0 415#0000D0F80FFE0FFE
(1495807326.399591) can0 167#727FFF100019F600
(1495807326.400600) can0 51E#3B02000000000000
(1495807326.401618) can0 083#0000000000017EF4
(1495807326.402634) can0 3BC#0C000896017E2700
(1495807326.403645) can0 3BE#00204CEE4000D300
(1495807326.404675) can0 3C4#7794E801000093DE
(1495807326.405684) can0 42A#D93465E000000000
(1495807326.406687) can0 42C#05515400A846A400
(1495807326.407702) can0 42E#9B0000E17B03BBC0
(1495807326.408714) can0 42F#7D04002E66020177
(1495807326.409731) can0 167#727FFF100019F600
(1495807326.413564) can0 3A4#0000000000000000
(1495807326.414577) can0 216#0000000082000000
(1495807326.415594) can0 3AC#FFFFFFFFFFFFFFFF
(1495807326.416607) can0 415#0000D4F70FFE0FFE
(1495807326.418430) can0 40A#C1014B3931485232
(1495807326.419930) can0 167#727FFF100019F600
(1495807326.420929) can0 178#000002000E91CE92
(1495807326.428805) can0 167#727FFF100019F600
(1495807326.430007) can0 42F#7D04002E66010177
(1495807326.434224) can0 216#0000000082000000
(1495807326.435230) can0 415#0000D8F60FFE0FFE
(1495807326.438560) can0 35D#0000000000000000
(1495807326.439568) can0 167#727FFF100019F600
(1495807326.442270) can0 3A5#0000000000000000
(1495807326.443302) can0 3AD#FFFFFFFFFFFFFFFF
(1495807326.448863) can0 167#727FFF100019F600
(1495807326.449881) can0 333#0000000000000000
(1495807326.450891) can0 083#0000000000017EF4
(1495807326.451925) can0 3BC#0C000896017D2700
(1495807326.452931) can0 42A#D93466E000000000
(1495807326.453935) can0 42C#05515400A87EA400
(1495807326.454951) can0 216#0000000082000000
(1495807326.455964) can0 33B#0000000000000000
(1495807326.456974) can0 415#0000DCF50FFE0FFE
(1495807326.457984) can0 42E#9F0000E1780FBBF1
(1495807326.459302) can0 167#727FFF100019F600
(1495807326.460740) can0 42F#7D04002E66010177
(1495807326.463570) can0 3A4#0000000000000000
(1495807326.464583) can0 3AC#FFFFFFFFFFFFFFFF
(1495807326.465596) can0 346#000000030300C000
(1495807326.466603) can0 348#0000000000000000
(1495807326.467616) can0 3E0#0000000080000000
(1495807326.468801) can0 167#727FFF100019F600
(1495807326.470175) can0 332#0000000000000000
(1495807326.471180) can0 33A#0000000000000000
(1495807326.472185) can0 3DE#0000000080000000
(1495807326.473336) can0 326#81A025CB81C400C8
(1495807326.474344) can0 216#0000000082000000
(1495807326.475355) can0 35E#00C0008EB65A6800
(1495807326.476371) can0 415#0000E0F40FFE0FFE
(1495807326.479343) can0 167#727FFF100019F600
(1495807326.488828) can0 167#727FFF100019F600
(1495807326.490308) can0 42F#7D04002E66020177
(1495807326.491304) can0 53B#5D12000000000000
(1495807326.492304) can0 3A5#0000000000000000
(1495807326.493331) can0 3AD#FFFFFFFFFFFFFFFF
(1495807326.494336) can0 216#0000000082000000
(1495807326.495342) can0 3E7#0000000000000000
(1495807326.496355) can0 415#0000E4F30FFE0FFE
(1495807326.499558) can0 167#727FFF100019F600
(1495807326.500675) can0 083#0000000000017EF4
(1495807326.501680) can0 3BC#0C000896017D2700
(1495807326.502685) can0 3BE#00204CEE4000D300
(1495807326.503701) can0 42A#D93466E000000000
(1495807326.504710) can0 42C#05515400A846A400
(1495807326.505724) can0 42E#9B0000E17703BBC0
(1495807326.507641) can0 3EB#5704140405100000
(1495807326.508805) can0 167#727FFF100019F600
(1495807326.513604) can0 3A4#0000000000000000
(1495807326.514610) can0 216#0000000082000000
(1495807326.515619) can0 33B#0000000000000000
(1495807326.516636) can0 3AC#FFFFFFFFFFFFFFFF
(1495807326.517645) can0 415#0000E8F20FFE0FFE
(1495807326.519854) can0 167#727FFF100019F600
(1495807326.520872) can0 178#000001FE0E91CE92
(1495807326.523741) can0 42F#7D04002E66020177
(1495807326.528934) can0 167#727FFF100019F700
(1495807326.534276) can0 216#0000000082000000
(1495807326.535278) can0 415#0000ECF10FFE0FFE
(1495807326.539327) can0 167#727FFF100019F700
(1495807326.542302) can0 3A5#0000000000000000
(1495807326.543304) can0 3A7#0E400A045F700000
(1495807326.544304) can0 3AD#FFFFFFFFFFFFFFFF
(1495807326.548800) can0 167#727FFF100019F700
(1495807326.549808) can0 333#0000000000000000
(1495807326.550820) can0 083#0000000000017EF4
(1495807326.551829) can0 3BC#0C000896017C2700
(1495807326.552839) can0 42A#D93366E000000000
(1495807326.553850) can0 42C#05515400A87EA400
(1495807326.554860) can0 216#0000000082000000
(1495807326.555871) can0 415#0000F0F00FFE0FFE
(1495807326.556885) can0 42E#9F0000E1750FBBF1
(1495807326.557898) can0 42F#7D04002E66030177
(1495807326.559359) can0 167#727FFF100019F700
(1495807326.560648) can0 346#000000030300C000
(1495807326.561680) can0 348#0000000000000000
(1495807326.563595) can0 3A4#0000000000000000
(1495807326.564605) can0 3A6#0E400A045F700000
(1495807326.565616) can0 3AC#FFFFFFFFFFFFFFFF
(1495807326.568941) can0 167#727FFF100019F700
(1495807326.570125) can0 332#0000000000000000
(1495807326.571130) can0 33A#0000000000000000
(1495807326.573785) can0 216#0000000082000000
(1495807326.574800) can0 326#81A025CB81C400C8
(1495807326.575805) can0 33B#0000000000000000
(1495807326.576805) can0 35E#00C00089B65A6000
(1495807326.577823) can0 415#0000F4EF0FFE0FFE
(1495807326.578830) can0 55D#0402000000000000
(1495807326.579841) can0 167#727FFF100019F700
(1495807326.580849) can0 42F#7D04002E66040177
