(1494906022.967502) can0 05A#00000009F7600000
(1494906022.967519) can0 167#80800009FFE00000
(1494906022.967877) can0 25C#01F402274418803D
(1494906022.970749) can0 078#010A800000000000
(1494906022.970763) can0 165#18C0000000000000
(1494906022.970773) can0 076#3E7BC18000000000
(1494906022.970782) can0 077#000007FF7FF7F1FD
(1494906022.970876) can0 07D#0000FE10001FF7FF
(1494906022.971125) can0 200#0252800080000877
(1494906022.971374) can0 213#FFFF00048011FF41
(1494906022.971623) can0 214#8000000000007E10
(1494906022.971873) can0 216#0000000082000C36
(1494906022.972123) can0 217#0000000000000000
(1494906022.972372) can0 415#0000D4F70FFE0FFE
(1494906022.972623) can0 202#04F4425064000000
(1494906022.972916) can0 204#E0007D0000F40000
(1494906022.973123) can0 41D#0000E00000000000
(1494906022.973377) can0 4B0#B3000000100000FE
(1494906022.974751) can0 091#7EF57F0132D4F000
(1494906022.974764) can0 230#0000000000000000
(1494906022.974877) can0 082#7F0814007A800000
(1494906022.974889) can0 085#7D51800053B07D56
(1494906022.974898) can0 092#6FA16F9173724DD4
(1494906022.975257) can0 242#03DF1F20C4000001
(1494906022.977879) can0 047#04DAEEBC10720000
(1494906022.977893) can0 167#80800009FFE00000
(1494906022.978123) can0 25C#01F402274418803D
(1494906022.980752) can0 202#04F34A5064000000
(1494906022.980764) can0 217#0000000000000000
(1494906022.980876) can0 204#E4007D0000F30000
(1494906022.983625) can0 3A8#0100270C00000000
(1494906022.983638) can0 33B#0000000000000000
(1494906022.984001) can0 04A#0200000000000000
(1494906022.984250) can0 04B#00C0D8D8D8D8C000
(1494906022.984500) can0 04C#20AFFFC000000000
(1494906022.984749) can0 085#7D51800052C07D56
(1494906022.985000) can0 091#7EF57F0032D5F000
(1494906022.985126) can0 092#6FA16F9273734AD5
(1494906022.987881) can0 167#80800009FFE00000
(1494906022.987895) can0 25C#01F402274418803D
(1494906022.990756) can0 078#000A000000000000
(1494906022.990769) can0 422#000000593812FF02
(1494906022.990778) can0 076#3E7BC18000000000
(1494906022.990786) can0 077#000007FF7FF7F1FD
(1494906022.990883) can0 07D#0000FD20001FF7FF
(1494906022.991006) can0 165#18C0000000000000
(1494906022.991265) can0 213#FFFF00048011FF41
(1494906022.991509) can0 214#8000000000007D20
(1494906022.991756) can0 216#0000000082000D30
(1494906022.992005) can0 217#0000000000000000
(1494906022.992257) can0 3CA#FE80080000000000
(1494906022.992506) can0 200#0252800080000A75
(1494906022.992755) can0 415#0000D8F60FFE0FFE
(1494906022.993006) can0 202#04F2525064000000
(1494906022.993255) can0 41D#0000E00000000000
(1494906022.993506) can0 204#E8007D0000F20000
(1494906022.993756) can0 423#9F20000000000000
(1494906022.994006) can0 430#370001E7C0777700
(1494906022.994259) can0 4B0#B3000000200000FD
(1494906022.994506) can0 082#7F0814007A800000
(1494906022.994755) can0 085#7D51800051D07D56
(1494906022.995005) can0 091#7EF67EFF32D6F000
(1494906022.995132) can0 092#6FA16F93737348D6
(1494906022.995382) can0 230#0000000000000000
(1494906022.995631) can0 3CC#8000000000000000
(1494906022.997007) can0 42C#8C42000003D00000
(1494906022.997134) can0 455#0000000000000000
(1494906022.997259) can0 047#04DAEEBC10720000
(1494906022.997506) can0 167#80800009FFE00000
(1494906022.998883) can0 25C#01F402274418803D
(1494906023.001509) can0 202#04F15A5064000000
(1494906023.001522) can0 217#0000000000000000
(1494906023.001633) can0 204#EC007D0000F10000
(1494906023.003132) can0 3A8#0100270C00000000
(1494906023.004508) can0 091#7EF77F002ED7F000
(1494906023.004521) can0 085#7D51800050E07D56
(1494906023.004881) can0 092#6FA16F94737247D7
(1494906023.007512) can0 167#80800009FFE00000
(1494906023.007879) can0 25C#01F402274418803D
(1494906023.010754) can0 078#510A800000000000
(1494906023.010767) can0 165#18C0000000000000
(1494906023.010776) can0 076#3E7BC18000000000
(1494906023.010784) can0 077#000007FF7FF7F1FD
(1494906023.010880) can0 07D#0000FC30001FF7FF
(1494906023.011129) can0 200#0252800080000C73
(1494906023.011379) can0 213#FFFF00048011FF41
(1494906023.011627) can0 214#8000000000007C30
(1494906023.011877) can0 216#0000000082000E32
(1494906023.012128) can0 217#0000000000000000
(1494906023.012378) can0 415#0000DCF50FFE0FFE
(1494906023.012628) can0 202#04F0625064000000
(1494906023.012878) can0 204#F0007D0000F00000
(1494906023.013129) can0 41D#0000E00000000000
(1494906023.013381) can0 4B0#B3000000300000FC
(1494906023.014878) can0 230#0000000000000000
(1494906023.014891) can0 242#03DF1F20C4000001
(1494906023.014900) can0 082#7F0814007A800000
(1494906023.015006) can0 085#7D5180004FF07D56
(1494906023.015018) can0 091#7EF47F012FD8F000
(1494906023.015253) can0 092#6FA26F94736F48D8
(1494906023.017886) can0 047#04DAEEBC10720000
(1494906023.017899) can0 167#80800009FFE00000
(1494906023.018132) can0 25C#01F402274418803D
(1494906023.020761) can0 3CA#FE80080000000000
(1494906023.020773) can0 05C#00DC00ED20950000
(1494906023.020885) can0 217#0000000000000000
(1494906023.022260) can0 178#013F01E20E4EC64F
(1494906023.022387) can0 202#04EF6A5064000000
(1494906023.022510) can0 204#F4007D0000EF0000
(1494906023.023885) can0 3A8#0100270C00000000
(1494906023.025261) can0 091#7EF47F022DD9F000
(1494906023.025273) can0 085#7D5180005E007D56
(1494906023.025387) can0 092#6FA26F92736E4AD9
(1494906023.025406) can0 3CC#8000000000000000
(1494906023.028137) can0 167#80800009FFE00000
(1494906023.028150) can0 25C#01F402274418803D
(1494906023.029512) can0 078#050B800000000000
(1494906023.031010) can0 165#18C0000000000000
(1494906023.031023) can0 076#3E7BC18000000000
(1494906023.031033) can0 077#000007FF7FF7F1FE
(1494906023.031141) can0 07D#0000FB40001FE7FF
(1494906023.031154) can0 05D#20D49CDB47000000
(1494906023.031387) can0 200#0252800080000E71
(1494906023.031635) can0 213#FFFF00048011FF41
(1494906023.031885) can0 214#8000000000007B40
(1494906023.032135) can0 169#0078C00000000000
(1494906023.032388) can0 216#0000000082000F2D
(1494906023.032635) can0 217#0000000000000000
(1494906023.032885) can0 202#04EE725064000000
(1494906023.033135) can0 415#0000E0F40FFE0FFE
(1494906023.033385) can0 204#F8007D0000EE0000
(1494906023.033635) can0 41D#0000E00000000000
(1494906023.033885) can0 4B0#B3000000400000FB
(1494906023.035261) can0 082#7F0814007A800000
(1494906023.035273) can0 085#7D5180005D107D56
(1494906023.035511) can0 091#7EF27F022EDAF000
(1494906023.035523) can0 092#6FA26F91736E4ADA
(1494906023.035532) can0 230#0000000000000000
(1494906023.038264) can0 047#04DAEEBC10720000
(1494906023.038277) can0 167#80800009FFE00000
(1494906023.038286) can0 25C#01F402274418803D
(1494906023.040889) can0 202#04ED7A5064000000
(1494906023.040902) can0 217#0000000000000000
(1494906023.041013) can0 204#FC007D0000ED0000
(1494906023.041261) can0 42C#8C42000003D00000
(1494906023.042637) can0 3A8#0100270C00000000
(1494906023.044013) can0 33B#0000000000000000
(1494906023.044387) can0 091#7EF17F012FDBF000
(1494906023.044637) can0 085#7D5180005C207D56
(1494906023.044886) can0 092#6FA36F91736F47DB
(1494906023.047514) can0 167#80800009FFE00000
(1494906023.047526) can0 25C#01F402274418803D
(1494906023.051515) can0 078#000A000000000000
(1494906023.051528) can0 076#3E7BC18000000000
(1494906023.051538) can0 077#000007FF7FF7F1FD
(1494906023.051641) can0 07D#0000FA50001FE7FF
(1494906023.051654) can0 165#18C0000000000000
(1494906023.051663) can0 213#FFFF00048011FF41
(1494906023.051765) can0 214#8000000000007A50
(1494906023.052013) can0 216#0000000082001041
(1494906023.052263) can0 217#0000000000000000
(1494906023.052514) can0 3CA#FE80080000000000
(1494906023.052639) can0 200#025280008000007F
(1494906023.052888) can0 202#04FC025064000000
(1494906023.053015) can0 204#C0007D0000FC0000
(1494906023.053265) can0 415#0000E4F30FFE0FFE
(1494906023.053513) can0 416#5500F90001000000
(1494906023.053763) can0 41D#0000E00000000000
(1494906023.054013) can0 4B0#B3000000500000FA
(1494906023.054387) can0 230#0000000000000000
(1494906023.054638) can0 082#7F0814007A800000
(1494906023.054888) can0 085#7D5180005B307D56
(1494906023.055015) can0 091#7EF17F012EDCF000
(1494906023.055273) can0 092#6FA56F91737043DC
(1494906023.055760) can0 242#03DF1F20C4000001
(1494906023.055774) can0 3CC#8000000000000000
(1494906023.058396) can0 047#04DAEEBC10720000
(1494906023.058410) can0 167#80800009FFE00000
(1494906023.058518) can0 25C#01F402274418803D
(1494906023.061268) can0 217#0000000000000000
(1494906023.061281) can0 202#04FB0A5064000000
(1494906023.061290) can0 204#C4007D0000FB0000
(1494906023.062764) can0 3A8#0100270C00000000
(1494906023.064140) can0 081#0000000000000000
(1494906023.064267) can0 083#0000000000000000
(1494906023.064395) can0 091#7EF27F012CDDF000
(1494906023.064407) can0 2A1#FFFFFFFF00000000
(1494906023.064516) can0 085#7D5180005A407D56
(1494906023.064765) can0 092#6FA56F90737142DD
(1494906023.065015) can0 3E6#0001040880000000
(1494906023.067767) can0 05A#00000009FD000000
(1494906023.067780) can0 167#80800009FFE00000
(1494906023.067789) can0 3A7#0E400A045F700000
(1494906023.068015) can0 25C#01F402274418803D
(1494906023.070641) can0 078#010A800000000000
(1494906023.070767) can0 165#18C0000000000000
(1494906023.070893) can0 076#3E7BC18000000000
(1494906023.070906) can0 077#000007FF7FF7F5FD
(1494906023.070915) can0 07D#0000F960001FE7FF
(1494906023.071141) can0 200#025280008000027D
(1494906023.071394) can0 213#FFFF00048011FF41
(1494906023.071640) can0 214#8000000000007960
(1494906023.072016) can0 216#0000000082001146
(1494906023.072142) can0 217#0000000000000000
(1494906023.072392) can0 3A6#0E400A045F700000
(1494906023.072639) can0 202#04FA125064000000
(1494906023.072893) can0 204#C8007D0000FA0000
(1494906023.073141) can0 415#0000E8F20FFE0FFE
(1494906023.073390) can0 41D#0000E00000000000
(1494906023.073640) can0 4B0#B3000000600000F9
(1494906023.075143) can0 230#0000000000000000
(1494906023.075156) can0 082#7F0814007A800000
(1494906023.075165) can0 085#7D51800059507D56
(1494906023.075174) can0 091#7EF37F0229DEF000
(1494906023.075268) can0 092#6FA56F90737240DE
(1494906023.077899) can0 047#04DAEEBC10720000
(1494906023.077912) can0 167#80800009FFE00000
(1494906023.078018) can0 25C#01F402274418803D
(1494906023.080643) can0 3CA#FE80080000000000
(1494906023.080655) can0 217#0000000000000000
(1494906023.080770) can0 202#04F91A5064000000
(1494906023.080893) can0 204#CC007D0000F90000
(1494906023.083517) can0 3A8#0100270C00000000
(1494906023.083645) can0 5B3#B300FFFFFFFFFFFF
(1494906023.085017) can0 04A#0200000000000000
(1494906023.085030) can0 04B#00C0D8D8D8D8C000
(1494906023.085270) can0 04C#20AFFFC000000000
(1494906023.085283) can0 085#7D51800058607D56
(1494906023.085292) can0 091#7EF47F0227DFF000
(1494906023.085300) can0 092#6FA36F91737240DF
(1494906023.085397) can0 3CC#8000000000000000
(1494906023.088140) can0 167#80800009FFE00000
(1494906023.088152) can0 25C#01F402274418803D
(1494906023.090891) can0 078#010A800000000000
(1494906023.090904) can0 422#000000593812FF02
(1494906023.090913) can0 076#3E7BC18000000000
(1494906023.090921) can0 077#000007FF7FF7F5FC
(1494906023.091016) can0 07D#0000F870001FF7FF
(1494906023.091139) can0 165#18C0000000000000
(1494906023.091388) can0 213#FFFF00048011FF41
(1494906023.091637) can0 200#025280008000047B
(1494906023.091888) can0 214#8000000000007870
(1494906023.092137) can0 216#0000000082001200
(1494906023.092388) can0 217#0000000000000000
(1494906023.092515) can0 202#04F8225064000000
(1494906023.092764) can0 415#0000ECF10FFE0FFE
(1494906023.093013) can0 204#D0007D0000F80000
(1494906023.093265) can0 41D#0000E00000000000
(1494906023.093513) can0 423#9F20000000000000
(1494906023.093889) can0 430#370001E7C0777700
(1494906023.094015) can0 4B0#B3000000700000F8
(1494906023.094263) can0 230#0000000000000000
(1494906023.094513) can0 082#7F0814007A800000
(1494906023.094763) can0 085#7D51800057707D56
(1494906023.095013) can0 091#7EF47F0127E0F000
(1494906023.095264) can0 092#6FA16F91737142E0
(1494906023.095514) can0 242#03DF1F20C4000001
(1494906023.095762) can0 40A#C100334641365030
(1494906023.097265) can0 42C#8C42000003D00000
(1494906023.097277) can0 047#04DAEEBC10720000
(1494906023.097391) can0 167#80800009FFE00000
(1494906023.098894) can0 25C#01F402274418803D
(1494906023.098907) can0 455#0000000000000000
(1494906023.101522) can0 202#04F72A5064000000
(1494906023.101534) can0 217#0000000000000000
(1494906023.101645) can0 204#D4007D0000F70000
(1494906023.103021) can0 3A8#0100270C00000000
(1494906023.104522) can0 33B#0000000000000000
(1494906023.104535) can0 091#7EF37F0127E1F000
(1494906023.104646) can0 085#7D51800056807D56
(1494906023.104770) can0 092#6FA06F91736F44E1
(1494906023.108647) can0 167#80800009FFE00000
(1494906023.108773) can0 25C#01F402274418803D
(1494906023.110146) can0 078#500A000000000000
(1494906023.110273) can0 165#18C0000000000000
(1494906023.110397) can0 076#3E7BC18000000000
(1494906023.110645) can0 077#000007FF7FF7F1FD
(1494906023.110895) can0 07D#0000F780001FF7FF
(1494906023.111271) can0 213#FFFF00048011FF41
(1494906023.111396) can0 214#8000000000007780
(1494906023.111644) can0 216#0000000082001300
(1494906023.111895) can0 217#0000000000000000
(1494906023.112145) can0 3CA#FE80080000000000
(1494906023.112397) can0 415#0000F0F00FFE0FFE
(1494906023.112645) can0 200#0252800080000679
(1494906023.112895) can0 202#04F6325064000000
(1494906023.113146) can0 204#D8007D0000F60000
(1494906023.113395) can0 41D#0000E00000000000
(1494906023.113647) can0 4B0#B3000000800000F7
(1494906023.115021) can0 230#0000000000000000
(1494906023.115271) can0 082#7F0814007A800000
(1494906023.115284) can0 085#7D51800055907D56
(1494906023.115293) can0 091#7EF17F0128E2F000
(1494906023.115301) can0 092#6FA16F91736F42E2
(1494906023.115521) can0 3CC#8000000000000000
(1494906023.118149) can0 047#04DAEEBC10720000
(1494906023.118273) can0 167#80800009FFE00000
(1494906023.118286) can0 25C#01F402274418803D
(1494906023.120897) can0 217#0000000000000000
(1494906023.120910) can0 05C#007C00F320950000
(1494906023.121272) can0 178#013F01E20E4EC64F
(1494906023.122648) can0 202#04F53A5064000000
(1494906023.122774) can0 204#DC007D0000F50000
(1494906023.122786) can0 3A8#0100270C00000000
(1494906023.125400) can0 085#7D51800054A07D56
(1494906023.125413) can0 091#7EF27F0126E3F000
(1494906023.125525) can0 092#6FA26F9273713DE3
(1494906023.128150) can0 167#80800009FFE00000
(1494906023.128275) can0 25C#01F402274418803D
(1494906023.129649) can0 078#050B800000000000
(1494906023.131150) can0 165#18C0000000000000
(1494906023.131163) can0 076#3E7BC18000000000
(1494906023.131172) can0 077#000007FF7FF7F1FD
(1494906023.131180) can0 07D#0000F690001FE7FF
(1494906023.131276) can0 05D#20D484DB4D000000
(1494906023.131402) can0 200#0252800080000877
(1494906023.131648) can0 213#FFFF00048011FF41
(1494906023.131898) can0 214#8000000000007690
(1494906023.132148) can0 216#0000000082001454
(1494906023.132523) can0 217#0000000000000000
(1494906023.132650) can0 415#0000F4EF0FFE0FFE
(1494906023.132897) can0 084#1100008833110A00
(1494906023.133024) can0 202#04F4425064000000
(1494906023.133276) can0 204#E0007D0000F40000
(1494906023.133523) can0 41D#0000E00000000000
(1494906023.133897) can0 4B0#B3000000900000F6
(1494906023.135282) can0 082#7F0814007A800000
(1494906023.135295) can0 085#7D51800053B07D56
(1494906023.135529) can0 091#7EF47F0123E4F000
(1494906023.135541) can0 092#6FA36F9273723AE4
(1494906023.135550) can0 230#0000000000000000
(1494906023.135650) can0 242#03DF1F20C4000001
(1494906023.137150) can0 047#04DAEEBC10720000
(1494906023.137397) can0 167#80800009FFE00000
(1494906023.137774) can0 25C#01F402274418803D
(1494906023.141651) can0 3CA#FE80080000000000
(1494906023.141664) can0 217#0000000000000000
(1494906023.141777) can0 202#04F34A5064000000
(1494906023.141790) can0 204#E4007D0000F30000
(1494906023.141800) can0 42C#8C42000003D00000
(1494906023.143150) can0 3A8#0100270C00000000
(1494906023.144527) can0 091#7EF77F011FE5F000
(1494906023.144539) can0 085#7D51800052C07D56
(1494906023.144902) can0 092#6FA46F92737337E5
(1494906023.145026) can0 3CC#8000000000000000
(1494906023.147657) can0 167#80800009FFE00000
(1494906023.147669) can0 25C#01F402274418803D
(1494906023.150401) can0 078#010A800000000000
(1494906023.150414) can0 165#18C0000000000000
(1494906023.150529) can0 076#3E7BC18000000000
(1494906023.150651) can0 077#000007FF7FF7F5FD
(1494906023.150901) can0 07D#0000F5A0001FF7FF
(1494906023.151150) can0 200#0252800080000A75
(1494906023.151403) can0 213#FFFF00048011FF41
(1494906023.151650) can0 214#80000000000075A0
(1494906023.151900) can0 216#0000000082001551
(1494906023.152150) can0 217#0000000000000000
(1494906023.152403) can0 415#0000F8EE0FFE0FFE
(1494906023.152650) can0 202#04F2525064000000
(1494906023.152900) can0 204#E8007D0000F20000
(1494906023.153276) can0 416#5600F80001000000
(1494906023.153402) can0 41D#0000E00000000000
(1494906023.153528) can0 4B0#B3000000A00000F5
(1494906023.155027) can0 091#7EF47F0121E6F000
(1494906023.155040) can0 230#0000000000000000
(1494906023.155049) can0 082#7F0814007A800000
(1494906023.155154) can0 085#7D51800051D07D56
(1494906023.155166) can0 092#6FA46F92737237E6
(1494906023.156900) can0 047#04DAEEBC10720000
(1494906023.158281) can0 167#80800009FFE00000
(1494906023.158403) can0 25C#01F402274418803D
(1494906023.161028) can0 217#0000000000000000
(1494906023.161154) can0 202#04F15A5064000000
(1494906023.161166) can0 204#EC007D0000F10000
(1494906023.162527) can0 3A8#0100270C00000000
(1494906023.163902) can0 083#0000000000000000
(1494906023.164029) can0 2A1#FFFFFFFF00000000
(1494906023.164153) can0 091#7EF27F0122E7F000
(1494906023.164402) can0 33B#0000000000000000
(1494906023.164529) can0 085#7D51800050E07D56
(1494906023.164777) can0 092#6FA36F91736F3BE7
(1494906023.168656) can0 05A#00000009F3A00000
(1494906023.168669) can0 167#80800009FFE00000
(1494906023.168781) can0 25C#01F402274418803D
(1494906023.170280) can0 078#000A000000000000
(1494906023.170293) can0 165#18C0000000000000
(1494906023.170408) can0 076#3E7BC18000000000
(1494906023.170653) can0 077#000007FF7FF7F5FD
(1494906023.170903) can0 07D#0000F4B0001FF7FF
(1494906023.171154) can0 213#FFFF00048011FF41
(1494906023.171403) can0 214#80000000000074B0
(1494906023.171653) can0 216#0000000082001655
(1494906023.171902) can0 217#0000000000000000
(1494906023.172153) can0 3CA#FE80080000000000
(1494906023.172403) can0 415#0000FCED0FFE0FFE
(1494906023.172653) can0 200#0252800080000C73
(1494906023.172902) can0 202#04F0625064000000
(1494906023.173153) can0 204#F0007D0000F00000
(1494906023.173406) can0 41D#0000E00000000000
(1494906023.173652) can0 4B0#B3000000B00000F4
(1494906023.175029) can0 230#0000000000000000
(1494906023.175041) can0 082#7F0814007A800000
(1494906023.175157) can0 085#7D5180004FF07D56
(1494906023.175169) can0 091#7EF07F0024E8F000
(1494906023.175280) can0 092#6FA26F90736F3CE8
(1494906023.175528) can0 242#03DF1F20C4000001
(1494906023.175778) can0 3CC#8000000000000000
(1494906023.177404) can0 047#04DAEEBC10720000
(1494906023.177417) can0 167#80800009FFE00000
(1494906023.177779) can0 25C#01F402274418803D
(1494906023.181779) can0 202#04EF6A5064000000
(1494906023.181791) can0 217#0000000000000000
(1494906023.181800) can0 204#F4007D0000EF0000
(1494906023.183287) can0 3A8#0100270C00000000
(1494906023.184780) can0 04A#0200000000000000
(1494906023.184793) can0 04B#00C0D8D8D8D8C000
(1494906023.184801) can0 04C#20AFFFC000000000
(1494906023.184809) can0 085#7D5180005E007D56
(1494906023.184906) can0 091#7EF37EFF22E9F000
(1494906023.185279) can0 092#6FA16F8E736F3EE9
(1494906023.187907) can0 167#80800009FFE00000
(1494906023.187919) can0 25C#01F402274418803D
(1494906023.189409) can0 59E#9E00FFFFFFFFFFFF
(1494906023.190782) can0 078#010A800000000000
(1494906023.190794) can0 422#000000593812FF02
(1494906023.191031) can0 076#3E7BC18000000000
(1494906023.191043) can0 077#000007FF7FF7F1FC
(1494906023.191052) can0 07D#0000F3C0001FE7FF
(1494906023.191060) can0 165#18C0000000000000
(1494906023.191281) can0 213#FFFF00048011FF41
(1494906023.191531) can0 200#0252800080000E71
(1494906023.191781) can0 214#80000000000073C0
(1494906023.192030) can0 216#0000000082001755
(1494906023.192281) can0 217#0000000000000000
(1494906023.192531) can0 415#0000C0FC0FFE0FFE
(1494906023.192780) can0 41D#0000E00000000000
(1494906023.193031) can0 423#9F20000000000000
(1494906023.193281) can0 430#370001E7C0777700
(1494906023.193530) can0 202#04EE725064000000
(1494906023.193780) can0 204#F8007D0000EE0000
(1494906023.194031) can0 43A#0000020000000000
(1494906023.194281) can0 230#0000000000000000
(1494906023.194531) can0 082#7F0814007A800000
(1494906023.194781) can0 085#7D5180005D107D56
(1494906023.195031) can0 091#7EF47EFF20EAF000
(1494906023.195281) can0 092#6FA06F8F73703CEA
(1494906023.195530) can0 4B0#B3000000C00000F3
(1494906023.198159) can0 047#04DAEEBC10720000
(1494906023.198284) can0 167#80800009FFE00000
(1494906023.198296) can0 25C#01F402274418803D
(1494906023.198407) can0 42C#8C42000003D00000
(1494906023.198656) can0 455#0000000000000000
(1494906023.201284) can0 3CA#FE80080000000000
(1494906023.201297) can0 217#0000000000000000
(1494906023.201410) can0 202#04ED7A5064000000
(1494906023.201423) can0 204#FC007D0000ED0000
(1494906023.202907) can0 3A8#0100270C00000000
(1494906023.205659) can0 091#7EF47F001DEBF000
(1494906023.205671) can0 092#6FA06F91737237EB
(1494906023.205680) can0 085#7D5180005C207D56
(1494906023.205784) can0 3CC#8000000000000000
(1494906023.208412) can0 167#80800009FFE00000
(1494906023.208535) can0 25C#01F402274418803D
(1494906023.209909) can0 078#510A800000000000
(1494906023.210157) can0 165#18C0000000000000
(1494906023.210408) can0 076#3E7BC18000000000
(1494906023.210658) can0 077#000007FF7FF7F1FC
(1494906023.210907) can0 07D#0000F2D0001FE7FF
(1494906023.211158) can0 200#025280008000007F
(1494906023.211407) can0 213#FFFF00048011FF41
(1494906023.211657) can0 214#80000000000072D0
(1494906023.211907) can0 216#0000000082001854
(1494906023.212159) can0 217#0000000000000000
(1494906023.212407) can0 415#0000C4FB0FFE0FFE
(1494906023.212657) can0 202#04FC025064000000
(1494906023.212908) can0 204#C0007D0000FC0000
(1494906023.213159) can0 41D#0000E00000000000
(1494906023.213411) can0 4B0#B3000000D00000F2
(1494906023.215034) can0 230#0000000000000000
(1494906023.215047) can0 242#03DF1F20C4000001
(1494906023.215056) can0 082#7F0814007A800000
(1494906023.215064) can0 085#7D5180005B307D56
(1494906023.215072) can0 091#7EF47F011BECF000
(1494906023.215292) can0 092#6FA06F93737333EC
(1494906023.216908) can0 047#04DAEEBC10720000
(1494906023.218288) can0 167#80800009FFE00000
(1494906023.218414) can0 25C#01F402274418803D
(1494906023.221035) can0 217#0000000000000000
(1494906023.221047) can0 05C#001C00F920950000
(1494906023.221412) can0 178#013F01E20E4FC64F
(1494906023.222786) can0 202#04FB0A5064000000
(1494906023.222799) can0 204#C4007D0000FB0000
(1494906023.222911) can0 3A8#0100270C00000000
(1494906023.224285) can0 33B#0000000000000000
(1494906023.224413) can0 085#7D5180005A407D56
(1494906023.224659) can0 091#7EF37F001CEDF000
(1494906023.224908) can0 092#6FA06F93737233ED
(1494906023.227536) can0 167#80800009FFE00000
(1494906023.227549) can0 25C#01F402274418803D
(1494906023.230165) can0 078#040B000000000000
(1494906023.230287) can0 165#18C0000000000000
(1494906023.230536) can0 076#3E7BC18000000000
(1494906023.230662) can0 077#000007FF7FF7F1FD
(1494906023.230911) can0 07D#0000F1E0001FF7FF
(1494906023.231160) can0 05D#20D4ACDB43000000
(1494906023.231414) can0 213#FFFF00048011FF41
(1494906023.231660) can0 214#80000000000071E0
(1494906023.231911) can0 216#0000000082001950
(1494906023.232161) can0 217#0000000000000000
(1494906023.232412) can0 3CA#FE80080000000000
(1494906023.232660) can0 415#0000C8FA0FFE0FFE
(1494906023.232911) can0 200#025280008000027D
(1494906023.233161) can0 202#04FA125064000000
(1494906023.233411) can0 204#C8007D0000FA0000
(1494906023.233538) can0 41D#0000E00000000000
(1494906023.233786) can0 4B0#B3000000E00000F1
(1494906023.235163) can0 082#7F0814007A800000
(1494906023.235175) can0 085#7D51800059507D56
(1494906023.235290) can0 091#7EF27EFF1EEEF000
(1494906023.235414) can0 092#6FA16F94737131EE
(1494906023.235427) can0 230#0000000000000000
(1494906023.235538) can0 3CC#8000000000000000
(1494906023.237037) can0 047#04DAEEBC10720000
(1494906023.237413) can0 167#80800009FFE00000
(1494906023.237787) can0 25C#01F402274418803D
(1494906023.241911) can0 202#04F91A5064000000
(1494906023.241923) can0 217#0000000000000000
(1494906023.241933) can0 204#CC007D0000F90000
(1494906023.241941) can0 42C#8C42000003D00000
(1494906023.243288) can0 3A8#0100270C00000000
(1494906023.244662) can0 091#7EF37EFF1CEFF000
(1494906023.244790) can0 092#6FA26F94737030EF
(1494906023.244802) can0 085#7D51800058607D56
(1494906023.248666) can0 167#80800009FFE00000
(1494906023.248678) can0 25C#01F402274418803D
(1494906023.251289) can0 165#18C0000000000000
(1494906023.251540) can0 076#3E7BC18000000000
(1494906023.251552) can0 077#000007FF7FF7F1FE
(1494906023.251562) can0 078#010A800000000000
(1494906023.251570) can0 07D#0000F0F0001FF7FF
(1494906023.251578) can0 200#025280008000047B
(1494906023.251666) can0 213#FFFF00048011FF41
(1494906023.252038) can0 214#80000000000070F0
(1494906023.252164) can0 216#0000000082001A55
(1494906023.252413) can0 217#0000000000000000
(1494906023.252663) can0 202#04F8225064000000
(1494906023.252913) can0 204#D0007D0000F80000
(1494906023.253163) can0 415#0000CCF90FFE0FFE
(1494906023.253416) can0 416#5700F70001000000
(1494906023.253540) can0 41D#0000E00000000000
(1494906023.253912) can0 4B0#B3000000F00000F0
(1494906023.254040) can0 091#7EF37F0019F0F000
(1494906023.254413) can0 230#0000000000000000
(1494906023.254540) can0 082#7F0814007A800000
(1494906023.254788) can0 085#7D51800057707D56
(1494906023.255039) can0 092#6FA16F93736F32F0
(1494906023.255289) can0 242#03DF1F20C4000001
(1494906023.256912) can0 047#04DAEEBC10720000
(1494906023.258292) can0 167#80800009FFE00000
(1494906023.258416) can0 25C#01F402274418803D
(1494906023.261291) can0 3CA#FE80080000000000
(1494906023.261304) can0 217#0000000000000000
(1494906023.261313) can0 202#04F72A5064000000
(1494906023.261321) can0 204#D4007D0000F70000
(1494906023.262665) can0 3A8#0100270C00000000
(1494906023.264040) can0 083#0000000000000000
(1494906023.264290) can0 2A1#FFFFFFFF00000000
(1494906023.264418) can0 091#7EF47F0215F1F000
(1494906023.264664) can0 085#7D51800056807D56
(1494906023.264791) can0 092#6FA06F92736E34F1
(1494906023.265041) can0 3CC#8000000000000000
(1494906023.267668) can0 05A#00000009F9400000
(1494906023.267793) can0 167#80800009FFE00000
(1494906023.267806) can0 3A7#0E400A045F700000
(1494906023.268040) can0 25C#01F402274418803D
(1494906023.270666) can0 078#010A800000000000
(1494906023.270793) can0 165#18C0000000000000
(1494906023.270917) can0 076#3E7BC18000000000
(1494906023.270930) can0 077#000007FF7FF7F1FD
(1494906023.270939) can0 07D#0000FF00001FE7FF
(1494906023.271165) can0 200#0252800080000679
(1494906023.271415) can0 213#FFFF00048011FF41
(1494906023.271665) can0 214#8000000000007F00
(1494906023.272041) can0 216#0000000082001B55
(1494906023.272167) can0 217#0000000000000000
(1494906023.272418) can0 3A6#0E400A045F700000
(1494906023.272665) can0 202#04F6325064000000
(1494906023.272916) can0 204#D8007D0000F60000
(1494906023.273166) can0 415#0000D0F80FFE0FFE
(1494906023.273416) can0 41D#0000E00000000000
(1494906023.273664) can0 4B0#B3000000000000FF
(1494906023.275166) can0 230#0000000000000000
(1494906023.275179) can0 082#7F0814007A800000
(1494906023.275187) can0 085#7D51800055907D56
(1494906023.275195) can0 091#7EF47F0214F2F000
(1494906023.275292) can0 092#6FA06F92736E33F2
(1494906023.276914) can0 047#04DAEEBC10720000
(1494906023.278294) can0 167#80800009FFE00000
(1494906023.278418) can0 25C#01F402274418803D
(1494906023.281043) can0 202#04F53A5064000000
(1494906023.281056) can0 217#0000000000000000
(1494906023.281169) can0 204#DC007D0000F50000
(1494906023.282791) can0 3A8#0100270C00000000
(1494906023.284167) can0 33B#0000000000000000
(1494906023.284417) can0 04A#0200000000000000
(1494906023.284667) can0 04B#00C0D8D8D8D8C000
(1494906023.284917) can0 04C#20AFFFC000000000
(1494906023.285044) can0 085#7D51800054A07D56
(1494906023.285297) can0 091#7EF47F0015F3F000
(1494906023.285543) can0 092#6FA06F92736D33F3
(1494906023.288170) can0 167#80800009FFE00000
(1494906023.288182) can0 25C#01F402274418803D
(1494906023.290789) can0 078#000A000000000000
(1494906023.291039) can0 422#000000593812FF02
(1494906023.291051) can0 076#3E7BC18000000000
(1494906023.291060) can0 077#000007FF7FF7F1FD
(1494906023.291068) can0 07D#0000FE10001FE7FF
(1494906023.291076) can0 165#18C0000000000000
(1494906023.291413) can0 213#FFFF00048011FF41
(1494906023.291539) can0 214#8000000000007E10
(1494906023.291789) can0 216#0000000082001C00
(1494906023.292039) can0 217#0000000000000000
(1494906023.292288) can0 3CA#FE80080000000000
(1494906023.292539) can0 415#0000D4F70FFE0FFE
(1494906023.292914) can0 41D#0000E00000000000
(1494906023.293039) can0 423#9F20000000000000
(1494906023.293291) can0 430#370001E7C0777700
(1494906023.293539) can0 200#0252800080000877
(1494906023.293788) can0 202#04F4425064000000
(1494906023.294038) can0 204#E0007D0000F40000
(1494906023.294288) can0 431#051D004A11800002
(1494906023.294540) can0 082#7F0814007A800000
(1494906023.294788) can0 085#7D51800053B07D56
(1494906023.294915) can0 091#7EF47EFE17F4F000
(1494906023.295164) can0 092#6FA06F93736E30F4
(1494906023.295417) can0 230#0000000000000000
(1494906023.295663) can0 242#03DF1F20C4000001
(1494906023.295914) can0 3CC#8000000000000000
(1494906023.296164) can0 4B0#B3000000100000FE
(1494906023.296418) can0 3B3#4148001210050032
(1494906023.296664) can0 40A#C1014C5534485233
(1494906023.296914) can0 047#04DAEEBC10720000
(1494906023.298424) can0 167#80800009FFE00000
(1494906023.298437) can0 25C#01F402274418803D
(1494906023.298669) can0 42C#8C42000003D00000
(1494906023.298918) can0 455#0000000000000000
(1494906023.301546) can0 202#04F34A5064000000
(1494906023.301558) can0 217#0000000000000000
(1494906023.301671) can0 204#E4007D0000F30000
(1494906023.303170) can0 3A8#0100270C00000000
(1494906023.304670) can0 091#7EF47EFE16F5F000
(1494906023.304683) can0 092#6FA16F9473702BF5
(1494906023.304692) can0 085#7D51800052C07D56
(1494906023.308547) can0 167#80800009FFE00000
(1494906023.308797) can0 25C#01F402274418803D
(1494906023.310171) can0 078#510A800000000000
(1494906023.310297) can0 165#18C0000000000000
(1494906023.310422) can0 076#3E7BC18000000000
(1494906023.310670) can0 077#000007FF7FF7F1FD
(1494906023.310920) can0 07D#0000FD20001FE7FF
(1494906023.311170) can0 200#0252800080000A75
(1494906023.311426) can0 213#FFFF00048011FF41
(1494906023.311671) can0 214#8000000000007D20
(1494906023.311920) can0 216#0000000082001D15
(1494906023.312170) can0 217#0000000000000000
(1494906023.312422) can0 415#0000D8F60FFE0FFE
(1494906023.312671) can0 202#04F2525064000000
(1494906023.312920) can0 204#E8007D0000F20000
(1494906023.313171) can0 41D#0000E00000000000
(1494906023.313297) can0 4B0#B3000000200000FD
(1494906023.314671) can0 230#0000000000000000
(1494906023.314798) can0 082#7F0814007A800000
(1494906023.314811) can0 085#7D51800051D07D56
(1494906023.314820) can0 091#7EF47EFF14F6F000
(1494906023.315047) can0 092#6FA26F93737129F6
(1494906023.317799) can0 047#04DAEEBC10720000
(1494906023.317811) can0 167#80800009FFE00000
(1494906023.317924) can0 25C#01F402274418803D
(1494906023.320672) can0 05C#00BC00EF20950000
(1494906023.320685) can0 217#0000000000000000
(1494906023.320694) can0 3CA#FE80080000000000
(1494906023.322047) can0 178#013F01E20E4EC64F
(1494906023.322174) can0 202#04F15A5064000000
(1494906023.322422) can0 204#EC007D0000F10000
(1494906023.323797) can0 3A8#0100270C00000000
(1494906023.325173) can0 085#7D51800050E07D56
(1494906023.325185) can0 091#7EF47F0011F7F000
(1494906023.325301) can0 092#6FA26F93737128F7
(1494906023.325313) can0 3CC#8000000000000000
(1494906023.328049) can0 167#80800009FFE00000
(1494906023.328061) can0 25C#01F402274418803D
(1494906023.330673) can0 078#050B800000000000
(1494906023.330924) can0 165#18C0000000000000
(1494906023.330937) can0 076#3E7BC18000000000
(1494906023.330946) can0 077#000007FF7FF7F1FD
(1494906023.331051) can0 07D#0000FC30001FF7FF
(1494906023.331174) can0 05D#20D494DB49000000
(1494906023.331423) can0 200#0252800080000C73
(1494906023.331673) can0 213#FFFF00048011FF41
(1494906023.331923) can0 214#8000000000007C30
(1494906023.332172) can0 216#0000000082001E55
(1494906023.332423) can0 217#0000000000000000
(1494906023.332550) can0 415#0000DCF50FFE0FFE
(1494906023.332798) can0 202#04F0625064000000
(1494906023.333049) can0 204#F0007D0000F00000
(1494906023.333300) can0 41D#0000E00000000000
(1494906023.333672) can0 4B0#B3000000300000FC
(1494906023.335051) can0 230#0000000000000000
(1494906023.335063) can0 082#7F0814007A800000
(1494906023.335178) can0 085#7D5180004FF07D56
(1494906023.335190) can0 091#7EF47F0010F8F000
(1494906023.335300) can0 092#6FA26F92737128F8
(1494906023.335548) can0 242#03E01F20C4000001
(1494906023.337050) can0 047#04DAEEBC10720000
(1494906023.337300) can0 167#80800009FFE00000
(1494906023.338800) can0 25C#01F402274418803D
(1494906023.341429) can0 202#04EF6A5064000000
(1494906023.341441) can0 217#0000000000000000
(1494906023.341551) can0 41E#0000000000000000
(1494906023.341564) can0 204#F4007D0000EF0000
(1494906023.341573) can0 42C#8C42000003D00000
(1494906023.342925) can0 3A8#0100270C00000000
(1494906023.344428) can0 33B#0000000000000000
(1494906023.344441) can0 085#7D5180005E007D56
(1494906023.344676) can0 091#7EF47EFF11F9F000
(1494906023.344801) can0 092#6FA26F91737029F9
(1494906023.348678) can0 167#80800009FFE00000
(1494906023.348691) can0 25C#01F402274418803D
(1494906023.350051) can0 078#020A000000000000
(1494906023.350177) can0 165#18C0000000000000
(1494906023.350426) can0 076#3E7BC18000000000
(1494906023.350676) can0 077#000007FF7FF7F1FD
(1494906023.350926) can0 07D#0000FB40001FF7FF
(1494906023.351177) can0 213#FFFF00048011FF41
(1494906023.351425) can0 214#8000000000007B40
(1494906023.351675) can0 216#0000000082001F11
(1494906023.351925) can0 217#0000000000000000
(1494906023.352175) can0 3CA#FE80080000000000
(1494906023.352428) can0 415#0000E0F40FFE0FFE
(1494906023.352675) can0 200#0252800080000E71
(1494906023.352802) can0 202#04EE725064000000
(1494906023.353052) can0 204#F8007D0000EE0000
(1494906023.353302) can0 416#5800F60001000000
(1494906023.353551) can0 41D#0000E00000000000
(1494906023.353801) can0 4B0#B3000000400000FB
(1494906023.355179) can0 230#0000000000000000
(1494906023.355191) can0 082#7F0814007A800000
(1494906023.355428) can0 085#7D5180005D107D56
(1494906023.355440) can0 091#7EF57EFF0FFAF000
(1494906023.355450) can0 092#6FA26F91736F29FA
(1494906023.355552) can0 3CC#8000000000000000
(1494906023.357053) can0 047#04DAEEBC10720000
(1494906023.357304) can0 167#80800009FFE00000
(1494906023.358925) can0 25C#01F402274418803D
(1494906023.361554) can0 217#0000000000000000
(1494906023.361567) can0 202#04ED7A5064000000
(1494906023.361680) can0 596#9600FFFFFFFFFFFF
(1494906023.361693) can0 204#FC007D0000ED0000
(1494906023.363053) can0 3A8#0100270C00000000
(1494906023.364677) can0 083#0000000000000000
(1494906023.364690) can0 2A1#FFFFFFFF00000000
(1494906023.364700) can0 091#7EF57EFE0FFBF000
(1494906023.364708) can0 085#7D5180005C207D56
(1494906023.364804) can0 092#6FA26F90736E2AFB
(1494906023.368680) can0 05A#00000009EFE00000
(1494906023.368807) can0 167#80800009FFE00000
(1494906023.368819) can0 25C#01F402274418803D
(1494906023.370179) can0 078#010A800000000000
(1494906023.370305) can0 165#18C0000000000000
(1494906023.370429) can0 076#3E7BC18000000000
(1494906023.370679) can0 077#000007FF7FF7F1FD
(1494906023.370929) can0 07D#0000FA50001FE7FF
(1494906023.371178) can0 200#025280008000007F
(1494906023.371427) can0 213#FFFF00048011FF41
(1494906023.371677) can0 214#8000000000007A50
(1494906023.371927) can0 216#0000000082002051
(1494906023.372177) can0 217#0000000000000000
(1494906023.372429) can0 415#0000E4F30FFE0FFE
(1494906023.372679) can0 202#04FC025064000000
(1494906023.372927) can0 204#C0007D0000FC0000
(1494906023.373178) can0 41D#0000E00000000000
(1494906023.373430) can0 4B0#B3000000500000FA
(1494906023.374804) can0 230#0000000000000000
(1494906023.375055) can0 242#03E01F20C4000001
(1494906023.375068) can0 082#7F0814007A800000
(1494906023.375077) can0 085#7D5180005B307D56
(1494906023.375085) can0 091#7EF47EFD10FCF000
(1494906023.375312) can0 092#6FA16F90736C2CFC
(1494906023.376928) can0 047#04DAEEBC10720000
(1494906023.378309) can0 167#80800009FFE00000
(1494906023.378434) can0 25C#01F402274418803D
(1494906023.381056) can0 3CA#FE80080000000000
(1494906023.381069) can0 217#0000000000000000
(1494906023.381183) can0 202#04FB0A5064000000
(1494906023.381307) can0 204#C4007D0000FB0000
(1494906023.382804) can0 3A8#0100270C00000000
(1494906023.385555) can0 04A#0200000000000000
(1494906023.385568) can0 04B#00C0D8D8D8D8C000
(1494906023.385577) can0 04C#20AFFFC000000000
(1494906023.385585) can0 085#7D5180005A407D56
(1494906023.385682) can0 091#7EF47EFD0FFDF000
(1494906023.385691) can0 092#6FA26F91736D28FD
(1494906023.385807) can0 3CC#8000000000000000
(1494906023.388433) can0 167#80800009FFE00000
(1494906023.388446) can0 25C#01F402274418803D
(1494906023.391057) can0 078#010A800000000000
(1494906023.391315) can0 422#000000593812FF02
(1494906023.391327) can0 076#3E7BC18000000000
(1494906023.391337) can0 077#000007FE7FF7F1FC
(1494906023.391345) can0 07D#0000F960001FD7FF
(1494906023.391353) can0 165#18C0000000000000
(1494906023.391437) can0 213#FFFF00048011FF41
(1494906023.391681) can0 200#025280008000027D
(1494906023.391931) can0 214#8000000000007960
(1494906023.392057) can0 216#0000000082002115
(1494906023.392307) can0 217#0000000000000000
(1494906023.392556) can0 202#04FA125064000000
(1494906023.392806) can0 415#0000E8F20FFE0FFE
(1494906023.393056) can0 204#C8007D0000FA0000
(1494906023.393305) can0 41D#0000E00000000000
(1494906023.393556) can0 423#9F20000000000000
(1494906023.393805) can0 430#3F0001E7E0777700
(1494906023.394056) can0 4B0#B3000000600000F9
(1494906023.394308) can0 230#0000000000000000
(1494906023.394559) can0 082#7F0814007A800000
(1494906023.394806) can0 085#7D51800059507D56
(1494906023.395057) can0 091#7EF47EFE0DFEF000
(1494906023.395306) can0 092#6FA36F92736E24FE
(1494906023.396682) can0 42C#8C42000003D00000
(1494906023.396694) can0 455#0000000000000000
(1494906023.396933) can0 047#04DAEEBC10720000
(1494906023.398309) can0 167#80800009FFE00000
(1494906023.398433) can0 25C#01F402274418803D
(1494906023.401183) can0 202#04F91A5064000000
(1494906023.401195) can0 217#0000000000000000
(1494906023.401204) can0 204#CC007D0000F90000
(1494906023.402557) can0 3A8#0100270C00000000
(1494906023.404056) can0 33B#0000000000000000
(1494906023.404307) can0 091#7EF47EFF0BFFF000
(1494906023.404558) can0 085#7D51800058607D56
(1494906023.404807) can0 092#6FA46F9473701EFF
(1494906023.408809) can0 167#80800009FFE00000
(1494906023.408822) can0 25C#01F402274418803D
(1494906023.410183) can0 078#500A000000000000
(1494906023.410312) can0 165#18C0000000000000
(1494906023.410439) can0 076#3E7BC18000000000
(1494906023.410683) can0 077#000007FF7FF7F5FD
(1494906023.410932) can0 07D#0000F870001FE7FF
(1494906023.411183) can0 213#FFFF00048011FF41
(1494906023.411433) can0 214#8000000000007870
(1494906023.411683) can0 216#0000000082002215
(1494906023.411933) can0 217#0000000000000000
(1494906023.412183) can0 3CA#FE80080000000000
(1494906023.412434) can0 415#0000ECF10FFE0FFE
(1494906023.412560) can0 200#025280008000047B
(1494906023.412808) can0 202#04F8225064000000
(1494906023.413059) can0 204#D0007D0000F80000
(1494906023.413310) can0 41D#0000E00000000000
(1494906023.413559) can0 4B0#B3000000700000F8
(1494906023.415183) can0 230#0000000000000000
(1494906023.415196) can0 082#7F0814007A800000
(1494906023.415205) can0 085#7D51800057707D56
(1494906023.415214) can0 091#7EF47EFF0A00F000
(1494906023.415310) can0 092#6FA36F9373731C00
(1494906023.415559) can0 242#03E01F20C4000001
(1494906023.415810) can0 3CC#8000000000000000
(1494906023.416058) can0 454#3646201376534242
(1494906023.417559) can0 047#04DAEEBC10720000
(1494906023.417572) can0 167#80800009FFE00000
(1494906023.417809) can0 25C#01F402274418803D
(1494906023.421686) can0 217#0000000000000000
(1494906023.421811) can0 05C#005C00F520950000
(1494906023.421824) can0 178#013F01E20E4EC64F
(1494906023.422059) can0 202#04F72A5064000000
(1494906023.422310) can0 204#D4007D0000F70000
(1494906023.423811) can0 3A8#0100270C00000000
(1494906023.425312) can0 091#7EF47F010601F000
(1494906023.425325) can0 085#7D51800056807D56
(1494906023.425334) can0 092#6FA26F9273751B01
(1494906023.427938) can0 167#80800009FFE00000
(1494906023.427951) can0 25C#01F402274418803D
(1494906023.430562) can0 078#050B800000000000
(1494906023.430936) can0 165#18C0000000000000
(1494906023.430948) can0 076#3E7BC18000000000
(1494906023.430957) can0 077#000007FF7FF7F5FD
(1494906023.430966) can0 07D#0000F780001FF7FF
(1494906023.431186) can0 05D#20D4BCDB3F000000
(1494906023.431435) can0 200#0252800080000679
(1494906023.431686) can0 213#FFFF00048011FF41
(1494906023.431935) can0 214#8000000000007780
(1494906023.432185) can0 216#0000000082002340
(1494906023.432312) can0 217#0000000000000000
(1494906023.432561) can0 415#0000F0F00FFE0FFE
(1494906023.432811) can0 202#04F6325064000000
(1494906023.433187) can0 204#D8007D0000F60000
(1494906023.433312) can0 41D#0000E00000000000
(1494906023.433561) can0 4B0#B3000000800000F7
(1494906023.434937) can0 230#0000000000000000
(1494906023.434950) can0 082#7F0814007A800000
(1494906023.435064) can0 085#7D51800055907D56
(1494906023.435188) can0 091#7EF47F030302F000
(1494906023.435311) can0 092#6FA16F9173761B02
(1494906023.436812) can0 047#04DAEEBC10720000
(1494906023.438189) can0 167#80800009FFE00000
(1494906023.438313) can0 25C#01F402274418803D
(1494906023.440939) can0 3CA#FE80080000000000
(1494906023.441065) can0 217#0000000000000000
(1494906023.441077) can0 202#04F53A5064000000
(1494906023.441086) can0 204#DC007D0000F50000
(1494906023.442564) can0 42C#8C42000003D00000
(1494906023.442688) can0 3A8#0100270C00000000
(1494906023.445314) can0 091#7EF47F040103F000
(1494906023.445445) can0 085#7D51800054A07D56
(1494906023.445458) can0 092#6FA16F9273731C03
(1494906023.445467) can0 3CC#8000000000000000
(1494906023.448064) can0 167#80800009FFE00000
(1494906023.448077) can0 25C#01F402274418803D
(1494906023.450689) can0 165#18C0000000000000
(1494906023.450817) can0 076#3E7BC18000000000
(1494906023.450830) can0 077#000007FF7FF7F1FD
(1494906023.450939) can0 078#010A800000000000
(1494906023.451188) can0 07D#0000F690002007FF
(1494906023.451438) can0 200#0252800080000877
(1494906023.451688) can0 213#FFFF00048011FF41
(1494906023.451938) can0 202#04F4425064000000
(1494906023.452065) can0 214#8000000000007690
(1494906023.452314) can0 216#0000000082000000
(1494906023.452563) can0 217#0000000000000000
(1494906023.452814) can0 204#E0007D0000F40000
(1494906023.453189) can0 415#0000F4EF0FFE0FFE
(1494906023.453316) can0 416#5900F50001000000
(1494906023.453564) can0 41D#0000E00000000000
(1494906023.453814) can0 4B0#B3000000900000F6
(1494906023.454064) can0 230#0000000000000000
(1494906023.454317) can0 242#03E01F20C4000001
(1494906023.454689) can0 082#7F0814007A800000
(1494906023.454816) can0 085#7D51800053B07D56
(1494906023.455064) can0 091#7EF47F020204F000
(1494906023.455322) can0 092#6FA26F9473711A04
(1494906023.456814) can0 047#04DAEEBC10720000
(1494906023.458190) can0 167#80800009FFE00000
(1494906023.458318) can0 25C#01F402274418803D
(1494906023.460940) can0 202#04F34A5064000000
(1494906023.460953) can0 217#0000000000000000
(1494906023.461067) can0 204#E4007D0000F30000
(1494906023.463690) can0 3A8#0100270C00000000
(1494906023.463817) can0 083#0000000000000000
(1494906023.463942) can0 2A1#FFFFFFFF00000000
(1494906023.464315) can0 33B#0000000000000000
(1494906023.464443) can0 085#7D51800052C07D56
(1494906023.464690) can0 091#7EF47F010205F000
(1494906023.464939) can0 092#6FA36F9573711705
(1494906023.467566) can0 05A#00000009F5800000
(1494906023.467699) can0 167#80800009FFE00000
(1494906023.467941) can0 25C#01F402274418803D
(1494906023.468190) can0 3A7#0E400A045F700000
(1494906023.469566) can0 078#000A000000000000
(1494906023.470942) can0 165#18C0000000000000
(1494906023.470954) can0 076#3E7BC18000000000
(1494906023.471070) can0 077#000007FF7FF7F1FE
(1494906023.471082) can0 07D#0000F5A0001FF7FF
(1494906023.471192) can0 213#FFFF00048011FF41
(1494906023.471445) can0 214#80000000000075A0
(1494906023.471690) can0 216#0000000082000100
(1494906023.472066) can0 217#0000000000000000
(1494906023.472192) can0 3A6#0E400A045F700000
(1494906023.472442) can0 3CA#FE80080000000000
(1494906023.472568) can0 200#0252800080000A75
(1494906023.472940) can0 202#04F2525064000000
(1494906023.473067) can0 204#E8007D0000F20000
(1494906023.473440) can0 415#0000F8EE0FFE0FFE
(1494906023.473567) can0 41D#0000E00000000000
(1494906023.473816) can0 4B0#B3000000A00000F5
(1494906023.475192) can0 230#0000000000000000
(1494906023.475205) can0 082#7F0814007A800000
(1494906023.475319) can0 085#7D51800051D07D56
(1494906023.475444) can0 091#7EF47F000206F000
(1494906023.475456) can0 092#6FA36F9673721406
(1494906023.475567) can0 3CC#8000000000000000
(1494906023.477068) can0 047#04DAEEBC10720000
(1494906023.477319) can0 167#80800009FFE00000
(1494906023.478817) can0 25C#01F402274418803D
(1494906023.481569) can0 202#04F15A5064000000
(1494906023.481581) can0 217#0000000000000000
(1494906023.481591) can0 204#EC007D0000F10000
(1494906023.482943) can0 3A8#0100270C00000000
(1494906023.485569) can0 04A#0200000000000000
(1494906023.485582) can0 04B#00C0D8D8D8D8C000
(1494906023.485817) can0 04C#20AFFFC000000000
(1494906023.485829) can0 085#7D51800050E07D56
(1494906023.485838) can0 091#7EF47F000107F000
(1494906023.485846) can0 092#6FA36F9573731307
(1494906023.488447) can0 167#80800009FFE00000
(1494906023.488459) can0 25C#01F402274418803D
(1494906023.491315) can0 078#010A800000000000
(1494906023.491329) can0 076#3E7BC18000000000
(1494906023.491338) can0 077#000007FF7FF7F5FE
(1494906023.491346) can0 07D#0000F4B0001FF7FF
(1494906023.491354) can0 165#18C0000000000000
(1494906023.491361) can0 213#FFFF00048011FF41
(1494906023.491566) can0 200#0252800080000C73
(1494906023.491814) can0 214#80000000000074B0
(1494906023.492063) can0 216#00000000820002FA
(1494906023.492314) can0 217#0000000000000000
(1494906023.492564) can0 415#0000FCED0FFE0FFE
(1494906023.492939) can0 41D#0000E00000000000
(1494906023.493065) can0 422#000000593812FF02
(1494906023.493316) can0 423#9F20000000000000
(1494906023.493443) can0 202#04F0625064000000
(1494906023.493690) can0 204#F0007D0000F00000
(1494906023.493939) can0 430#370001E7C0777700
(1494906023.494313) can0 230#0000000000000000
(1494906023.494440) can0 082#7F0814007A800000
(1494906023.494689) can0 085#7D5180004FF07D56
(1494906023.494939) can0 091#7EF47EFF0208F000
(1494906023.495188) can0 092#6FA36F9373731408
(1494906023.495439) can0 242#03E01F20C4000001
(1494906023.495689) can0 4B0#B3000000B00000F4
(1494906023.495941) can0 40A#C1023130353736FF
(1494906023.498571) can0 047#04DAEEBC10720000
(1494906023.498585) can0 167#80800009FFE00000
(1494906023.498697) can0 25C#01F402274418803D
(1494906023.498710) can0 42C#8C42000003D00000
(1494906023.498820) can0 455#0000000000000000
(1494906023.501572) can0 3CA#FE80080000000000
(1494906023.501584) can0 217#0000000000000000
(1494906023.501593) can0 202#04EF6A5064000000
(1494906023.501601) can0 204#F4007D0000EF0000
(1494906023.502946) can0 3A8#0100270C00000000
(1494906023.505819) can0 091#7EF47EFF0109F000
(1494906023.505832) can0 085#7D5180005E007D56
(1494906023.505846) can0 092#6FA26F9173721709
(1494906023.505854) can0 3CC#8000000000000000
(1494906023.508449) can0 167#80800009FFE00000
(1494906023.508575) can0 25C#01F402274418803D
(1494906023.510072) can0 078#510A800000000000
(1494906023.510196) can0 165#18C0000000000000
(1494906023.510445) can0 076#3E7BC18000000000
(1494906023.510696) can0 077#000007FF7FF7F5FD
(1494906023.510945) can0 07D#0000F3C0001FF7FF
(1494906023.511195) can0 200#0252800080000E71
(1494906023.511448) can0 213#FFFF00048011FF41
(1494906023.511695) can0 214#80000000000073C0
(1494906023.511945) can0 216#00000000820003B3
(1494906023.512195) can0 217#0000000000000000
(1494906023.512323) can0 415#0000C0FC0FFE0FFE
(1494906023.512572) can0 202#04EE725064000000
(1494906023.512821) can0 204#F8007D0000EE0000
(1494906023.513071) can0 41D#0000E00000000000
(1494906023.513321) can0 4B0#B3000000C00000F3
(1494906023.514698) can0 091#7EF47F00FE0AF000
(1494906023.514711) can0 230#0000000000000000
(1494906023.514823) can0 082#7F0814007A800000
(1494906023.514835) can0 085#7D5180005D107D56
(1494906023.514947) can0 092#6FA26F8F73701A0A
(1494906023.517700) can0 047#04DAEEBC10720000
(1494906023.517712) can0 167#80800009FFE00000
(1494906023.517824) can0 25C#01F402274418803D
(1494906023.521823) can0 217#0000000000000000
(1494906023.521836) can0 05C#00FC00EB20950000
(1494906023.521845) can0 178#013F01E20E4EC64F
(1494906023.522072) can0 202#04ED7A5064000000
(1494906023.522326) can0 204#FC007D0000ED0000
(1494906023.523824) can0 3A8#0100270C00000000
(1494906023.523949) can0 33B#0000000000000000
(1494906023.525326) can0 085#7D5180005C207D56
(1494906023.525338) can0 091#7EF47F01FC0BF000
(1494906023.525454) can0 092#6FA36F8F736E1A0B
(1494906023.528074) can0 167#80800009FFE00000
(1494906023.528087) can0 25C#01F402274418803D
(1494906023.530948) can0 078#040B000000000000
(1494906023.530961) can0 165#18C0000000000000
(1494906023.530970) can0 076#3E7BC18000000000
(1494906023.530978) can0 077#000007FF7FF7F1FC
(1494906023.530986) can0 07D#0000F2D0001FE7FF
(1494906023.531075) can0 05D#20D4A4DB45000000
(1494906023.531324) can0 213#FFFF00048011FF41
(1494906023.531575) can0 214#80000000000072D0
(1494906023.531824) can0 216#0000000082000448
(1494906023.532074) can0 217#0000000000000000
(1494906023.532324) can0 3CA#FE80080000000000
(1494906023.532574) can0 3CD#0000000000000000
(1494906023.532824) can0 200#025280008000007F
(1494906023.533074) can0 202#04FC025064000000
(1494906023.533326) can0 204#C0007D0000FC0000
(1494906023.533574) can0 3D8#0000000080456020
(1494906023.533824) can0 415#0000C4FB0FFE0FFE
(1494906023.534074) can0 41D#0000E00000000000
(1494906023.534324) can0 4B0#B3000000D00000F2
(1494906023.534574) can0 082#7F0814007A800000
(1494906023.534823) can0 085#7D5180005B307D56
(1494906023.535074) can0 091#7EF47F01FB0CF000
(1494906023.535332) can0 092#6FA36F8F736E190C
(1494906023.535699) can0 230#0000000000000000
(1494906023.535825) can0 242#03E01F20C4000001
(1494906023.536074) can0 3CC#8000000000000000
(1494906023.537575) can0 047#04DAEEBC10720000
(1494906023.537588) can0 167#80800009FFE00000
(1494906023.537824) can0 25C#01F402274418803D
(1494906023.541949) can0 202#04FB0A5064000000
(1494906023.541962) can0 217#0000000000000000
(1494906023.541972) can0 204#C4007D0000FB0000
(1494906023.541980) can0 42C#8C42000003D00000
(1494906023.543327) can0 3A8#0100270C00000000
(1494906023.544701) can0 085#7D5180005A407D56
(1494906023.544827) can0 091#7EF47F01FA0DF000
(1494906023.544840) can0 092#6FA36F90736F160D
(1494906023.548703) can0 167#80800009FFE00000
(1494906023.548716) can0 25C#01F402274418803D
(1494906023.550077) can0 078#010A800000000000
(1494906023.550204) can0 165#18C0000000000000
(1494906023.550451) can0 076#3E7BC18000000000
(1494906023.550701) can0 077#000007FF7FF7F5FC
(1494906023.550951) can0 07D#0000F1E0001FE7FF
(1494906023.551200) can0 200#025280008000027D
(1494906023.551456) can0 213#FFFF00048011FF41
(1494906023.551581) can0 214#80000000000071E0
(1494906023.551826) can0 216#0000000082000547
(1494906023.552201) can0 217#0000000000000000
(1494906023.552329) can0 415#0000C8FA0FFE0FFE
(1494906023.552576) can0 202#04FA125064000000
(1494906023.552826) can0 204#C8007D0000FA0000
(1494906023.553078) can0 416#5A00F40001000000
(1494906023.553327) can0 41D#0000E00000000000
(1494906023.553577) can0 4B0#B3000000E00000F1
(1494906023.555078) can0 230#0000000000000000
(1494906023.555091) can0 091#7EF47F01F90EF000
(1494906023.555100) can0 082#7F0814007A800000
(1494906023.555108) can0 085#7D51800059507D56
(1494906023.555203) can0 092#6FA46F917370120E
(1494906023.555327) can0 350#0000000000000000
(1494906023.556703) can0 3E0#0000000080000000
(1494906023.556828) can0 047#04DAEEBC10720000
(1494906023.558205) can0 167#80800009FFE00000
(1494906023.558451) can0 25C#01F402274418803D
(1494906023.561204) can0 3CA#FE80080000000000
(1494906023.561217) can0 217#0000000000000000
(1494906023.561226) can0 202#04F91A5064000000
(1494906023.561234) can0 204#CC007D0000F90000
(1494906023.562579) can0 3A8#0100270C00000000
(1494906023.564202) can0 083#0000000000000000
(1494906023.564215) can0 091#7EF47F00F90FF000
(1494906023.564330) can0 2A1#FFFFFFFF00000000
(1494906023.564577) can0 085#7D51800058607D56
(1494906023.564827) can0 092#6FA36F927371100F
(1494906023.565076) can0 3CC#8000000000000000
(1494906023.567832) can0 05A#00000009FB200000
(1494906023.567845) can0 167#80800009FFE00000
(1494906023.567855) can0 25C#01F402274418803D
(1494906023.570457) can0 078#010A800000000000
(1494906023.570582) can0 165#18C0000000000000
(1494906023.570594) can0 076#3E7BC18000000000
(1494906023.570705) can0 077#000007FF7FF7F5FD
(1494906023.570954) can0 07D#0000F0F0001FE7FF
(1494906023.571203) can0 200#025280008000047B
(1494906023.571454) can0 213#FFFF00048011FF41
(1494906023.571703) can0 214#80000000000070F0
(1494906023.571953) can0 216#0000000082000639
(1494906023.572204) can0 217#0000000000000000
(1494906023.572330) can0 415#0000CCF90FFE0FFE
(1494906023.572579) can0 202#04F8225064000000
(1494906023.572829) can0 204#D0007D0000F80000
(1494906023.573080) can0 41D#0000E00000000000
(1494906023.573331) can0 4B0#B3000000F00000F0
(1494906023.574954) can0 230#0000000000000000
(1494906023.574967) can0 242#03E01F20C4000001
(1494906023.574976) can0 082#7F0814007A800000
(1494906023.574984) can0 085#7D51800057707D56
(1494906023.575080) can0 091#7EF47EFFFA10F000
(1494906023.575329) can0 092#6FA26F9173721010
(1494906023.576830) can0 047#04DAEEBC10720000
(1494906023.578207) can0 167#80800009FFE00000
(1494906023.578331) can0 25C#01F402274418803D
(1494906023.581080) can0 202#04F72A5064000000
(1494906023.581092) can0 217#0000000000000000
(1494906023.581101) can0 204#D4007D0000F70000
(1494906023.583706) can0 3A8#0100270C00000000
(1494906023.583832) can0 33B#0000000000000000
(1494906023.584080) can0 04A#0200000000000000
(1494906023.584331) can0 04B#00C0D8D8D8D8C000
(1494906023.584580) can0 04C#20AFFFC000000000
(1494906023.584955) can0 085#7D51800056807D56
(1494906023.585081) can0 091#7EF47EFFF911F000
(1494906023.585329) can0 092#6FA16F9173721011
(1494906023.587958) can0 167#80800009FFE00000
(1494906023.587971) can0 25C#01F402274418803D
(1494906023.590582) can0 078#000A000000000000
(1494906023.590709) can0 422#000000593812FF02
(1494906023.590722) can0 076#3E7BC18000000000
(1494906023.590731) can0 077#000007FF7FF7F1FD
(1494906023.590832) can0 07D#0000FF00001FF7FF
(1494906023.591080) can0 165#18C0000000000000
(1494906023.591331) can0 213#FFFF00048011FF41
(1494906023.591707) can0 214#8000000000007F00
(1494906023.591832) can0 216#0000000082000743
(1494906023.592081) can0 217#0000000000000000
(1494906023.592332) can0 3CA#FE80080000000000
(1494906023.592582) can0 415#0000D0F80FFE0FFE
(1494906023.592831) can0 200#0252800080000679
(1494906023.593080) can0 41D#0000E00000000000
(1494906023.593331) can0 202#04F6325064000000
(1494906023.593582) can0 423#9F20000000000000
(1494906023.593831) can0 204#D8007D0000F60000
(1494906023.594081) can0 430#370001E7C077F700
(1494906023.594331) can0 4B0#B3000000000000FF
(1494906023.594583) can0 082#7F0814007A800000
(1494906023.594832) can0 085#7D51800055907D56
(1494906023.595081) can0 091#7EF47F00F612F000
(1494906023.595208) can0 092#6FA16F9173720F12
(1494906023.595455) can0 230#0000000000000000
(1494906023.595708) can0 3CC#8000000000000000
(1494906023.597208) can0 42C#8C42000003D00000
(1494906023.597220) can0 047#04DAEEBC10720000
(1494906023.597460) can0 167#80800009FFE00000
(1494906023.598834) can0 25C#01F402274418803D
(1494906023.598847) can0 455#0000000000000000
(1494906023.601458) can0 202#04F53A5064000000
(1494906023.601585) can0 217#0000000000000000
(1494906023.601598) can0 204#DC007D0000F50000
(1494906023.602958) can0 3A8#0100270C00000000
(1494906023.605709) can0 091#7EF47F01F413F000
(1494906023.605722) can0 092#6FA26F92736F0F13
(1494906023.605731) can0 085#7D51800054A07D56
(1494906023.608335) can0 167#80800009FFE00000
(1494906023.608461) can0 25C#01F402274418803D
(1494906023.609834) can0 078#510A800000000000
(1494906023.610208) can0 165#18C0000000000000
(1494906023.610458) can0 076#3E7BC18000000000
(1494906023.610708) can0 077#000007FF7FF7F1FD
(1494906023.610958) can0 07D#0000FE10001FF7FF
(1494906023.611210) can0 200#0252800080000877
(1494906023.611335) can0 213#FFFF00048011FF41
(1494906023.611583) can0 214#8000000000007E10
(1494906023.611834) can0 216#000000008200082D
(1494906023.612208) can0 217#0000000000000000
(1494906023.612335) can0 415#0000D4F70FFE0FFE
(1494906023.612584) can0 202#04F4425064000000
(1494906023.612834) can0 204#E0007D0000F40000
(1494906023.613083) can0 41D#0000E00000000000
(1494906023.613336) can0 4B0#B3000000100000FE
(1494906023.614959) can0 230#0000000000000000
(1494906023.614972) can0 242#03E01F20C4000001
(1494906023.614981) can0 082#7F0814007A800000
(1494906023.614989) can0 085#7D51800053B07D56
(1494906023.614997) can0 091#7EF47F03F114F000
(1494906023.615342) can0 092#6FA26F92736F0E14
(1494906023.615464) can0 456#8000000000000000
(1494906023.616960) can0 047#04DAEEBC10720000
(1494906023.618338) can0 167#80800009FFE00000
(1494906023.618463) can0 25C#01F402274418803D
(1494906023.621086) can0 05C#009C00F120950000
(1494906023.621099) can0 217#0000000000000000
(1494906023.621213) can0 3CA#FE80080000000000
(1494906023.621338) can0 178#013F01E20E4FC24F
(1494906023.622711) can0 202#04F34A5064000000
(1494906023.622723) can0 204#E4007D0000F30000
(1494906023.624086) can0 3A8#0100270C00000000
(1494906023.624336) can0 085#7D51800052C07D56
(1494906023.624586) can0 091#7EF37F03F115F000
(1494906023.624836) can0 092#6FA26F9273700C15
(1494906023.625085) can0 3CC#8000000000000000
(1494906023.627719) can0 167#80800009FFE00000
(1494906023.627732) can0 25C#01F402274418803D
(1494906023.630462) can0 078#050B800000000000
(1494906023.630475) can0 165#18C0000000000000
(1494906023.630485) can0 076#3E7BC18000000000
(1494906023.630588) can0 077#000007FF7FF7F1FD
(1494906023.630960) can0 07D#0000FD20001FE7FF
(1494906023.631210) can0 05D#20D48CDB4B000000
(1494906023.631465) can0 200#0252800080000A75
(1494906023.631592) can0 213#FFFF00048011FF41
(1494906023.631837) can0 214#8000000000007D20
(1494906023.632086) can0 216#0000000082000931
(1494906023.632337) can0 217#0000000000000000
(1494906023.632586) can0 415#0000D8F60FFE0FFE
(1494906023.632962) can0 202#04F2525064000000
(1494906023.633087) can0 204#E8007D0000F20000
(1494906023.633336) can0 41D#0000E00000000000
(1494906023.633587) can0 4B0#B3000000200000FD
(1494906023.634962) can0 230#0000000000000000
(1494906023.634975) can0 082#7F0814007A800000
(1494906023.635088) can0 085#7D51800051D07D56
(1494906023.635100) can0 091#7EF37F01F216F000
(1494906023.635213) can0 092#6FA36F9273720816
(1494906023.636837) can0 047#04DAEEBC10720000
(1494906023.638213) can0 167#80800009FFE00000
(1494906023.638338) can0 25C#01F402274418803D
(1494906023.641212) can0 202#04F15A5064000000
(1494906023.641225) can0 217#0000000000000000
(1494906023.641235) can0 204#EC007D0000F10000
(1494906023.641242) can0 42C#8C42000003D00000
(1494906023.642588) can0 3A8#0100270C00000000
(1494906023.644088) can0 33B#0000000000000000
(1494906023.644339) can0 091#7EF47F00F117F000
(1494906023.644588) can0 085#7D51800050E07D56
(1494906023.644837) can0 092#6FA36F9273730617
(1494906023.648716) can0 167#80800009FFE00000
(1494906023.648729) can0 25C#01F402274418803D
(1494906023.651340) can0 165#18C0000000000000
(1494906023.651591) can0 076#3E7BC18000000000
(1494906023.651605) can0 077#000007FF7FF7F5FD
(1494906023.651613) can0 078#000A000000000000
(1494906023.651621) can0 07D#0000FC30001FF7FF
(1494906023.651629) can0 213#FFFF00048011FF41
(1494906023.651715) can0 214#8000000000007C30
(1494906023.651964) can0 216#0000000082000A34
(1494906023.652216) can0 217#0000000000000000
(1494906023.652340) can0 3CA#FE80080000000000
(1494906023.652589) can0 200#0252800080000C73
(1494906023.652838) can0 202#04F0625064000000
(1494906023.653214) can0 204#F0007D0000F00000
(1494906023.653342) can0 415#0000DCF50FFE0FFE
(1494906023.653589) can0 416#5B00F30001000000
(1494906023.653838) can0 41D#0000E00000000000
(1494906023.654089) can0 4B0#B3000000300000FC
(1494906023.654338) can0 230#0000000000000000
(1494906023.654714) can0 082#7F0814007A800000
(1494906023.654840) can0 085#7D5180004FF07D56
(1494906023.655090) can0 091#7EF47EFFF218F000
(1494906023.655339) can0 092#6FA36F9273710718
(1494906023.655589) can0 242#03E01F20C4000001
(1494906023.655839) can0 3CC#8000000000000000
(1494906023.657465) can0 047#04DAEEBC10720000
(1494906023.657478) can0 167#80800009FFE00000
(1494906023.657839) can0 25C#01F402274418803D
(1494906023.661840) can0 202#04EF6A5064000000
(1494906023.661853) can0 217#0000000000000000
(1494906023.661862) can0 204#F4007D0000EF0000
(1494906023.662215) can0 3A8#0100270C00000000
(1494906023.663839) can0 083#0000000000000000
(1494906023.664091) can0 091#7EF47EFFF119F000
(1494906023.664340) can0 2A1#FFFFFFFF00000000
(1494906023.664590) can0 085#7D5180005E007D56
(1494906023.664839) can0 092#6FA36F93736E0819
(1494906023.668965) can0 05A#00000009F1C00000
(1494906023.668979) can0 167#80800009FFE00000
(1494906023.668988) can0 25C#01F402274418803D
(1494906023.668999) can0 3A7#0E400A045F700000
(1494906023.670342) can0 078#010A800000000000
(1494906023.670468) can0 165#18C0000000000000
(1494906023.670592) can0 076#3E7BC18000000000
(1494906023.670717) can0 077#000007FF7FF7F5FD
(1494906023.670966) can0 07D#0000FB40001FF7FF
(1494906023.671216) can0 200#0252800080000E71
(1494906023.671466) can0 213#FFFF00048011FF41
(1494906023.671715) can0 214#8000000000007B40
(1494906023.671843) can0 216#0000000082000B43
(1494906023.672091) can0 217#0000000000000000
(1494906023.672342) can0 3A6#0E400A045F700000
(1494906023.672591) can0 202#04EE725064000000
(1494906023.672841) can0 204#F8007D0000EE0000
(1494906023.673216) can0 415#0000E0F40FFE0FFE
(1494906023.673342) can0 41D#0000E00000000000
(1494906023.673591) can0 4B0#B3000000400000FB
(1494906023.675093) can0 091#7EF37F01EE1AF000
(1494906023.675105) can0 230#0000000000000000
(1494906023.675114) can0 082#7F0814007A800000
(1494906023.675219) can0 085#7D5180005D107D56
(1494906023.675231) can0 092#6FA36F92736D091A
(1494906023.676842) can0 047#04DAEEBC10720000
(1494906023.678219) can0 167#80800009FFE00000
(1494906023.678343) can0 25C#01F402274418803D
(1494906023.680968) can0 3CA#FE80080000000000
(1494906023.681095) can0 217#0000000000000000
(1494906023.681108) can0 202#04ED7A5064000000
(1494906023.681117) can0 204#FC007D0000ED0000
(1494906023.683719) can0 3A8#0100270C00000000
(1494906023.684091) can0 04A#0200000000000000
(1494906023.684342) can0 04B#00C0D8D8D8D8C000
(1494906023.684592) can0 04C#20AFFFC000000000
(1494906023.684843) can0 085#7D5180005C207D56
(1494906023.685093) can0 091#7EF47F01EC1BF000
(1494906023.685345) can0 092#6FA26F91736E091B
(1494906023.685592) can0 3CC#8000000000000000
(1494906023.688220) can0 167#80800009FFE00000
(1494906023.688342) can0 25C#01F402274418803D
(1494906023.691091) can0 078#010A800000000000
(1494906023.691104) can0 422#000000593812FF02
(1494906023.691113) can0 076#3E7BC18000000000
(1494906023.691121) can0 077#000007FF7FF7F5FD
(1494906023.691129) can0 07D#0000FA50001FD7FF
(1494906023.691216) can0 165#18C0000000000000
(1494906023.691463) can0 213#FFFF00048011FF41
(1494906023.691713) can0 200#025280008000007F
(1494906023.691963) can0 214#8000000000007A50
(1494906023.692216) can0 216#0000000082000C36
(1494906023.692340) can0 217#0000000000000000
(1494906023.692714) can0 202#04FC025064000000
(1494906023.692841) can0 415#0000E4F30FFE0FFE
(1494906023.693089) can0 204#C0007D0000FC0000
(1494906023.693342) can0 41D#0000E00000000000
(1494906023.693589) can0 423#9F20000000000000
(1494906023.693963) can0 430#370001E7C0777700
(1494906023.694091) can0 091#7EF47F01EB1CF000
(1494906023.694339) can0 230#0000000000000000
(1494906023.694590) can0 082#7F0814007A800000
(1494906023.694839) can0 085#7D5180005B307D56
(1494906023.695089) can0 092#6FA26F917371051C
(1494906023.695470) can0 242#03E01F20C4000001
(1494906023.695594) can0 4B0#B3000000500000FA
(1494906023.698222) can0 047#04DAEEBC10720000
(1494906023.698236) can0 167#80800009FFE00000
(1494906023.698350) can0 25C#01F402274418803D
(1494906023.698474) can0 3E2#0000000080000000
(1494906023.699971) can0 3EB#1F04140000200000
(1494906023.699985) can0 40A#C104010107CC70C1
(1494906023.700344) can0 217#0000000000000000
(1494906023.700595) can0 202#04FB0A5064000000
(1494906023.700845) can0 204#C4007D0000FB0000
(1494906023.702221) can0 42C#8C42000003D00000
(1494906023.702469) can0 455#0000000000000000
(1494906023.702845) can0 3A8#0100270C00000000
(1494906023.704346) can0 33B#0000000000000000
(1494906023.704359) can0 091#7EF47F00EB1DF000
(1494906023.704594) can0 085#7D5180005A407D56
(1494906023.704845) can0 092#6FA36F917373011D
(1494906023.708847) can0 167#80800009FFE00000
(1494906023.708860) can0 25C#01F402274418803D
(1494906023.710223) can0 078#500A000000000000
(1494906023.710349) can0 165#18C0000000000000
(1494906023.710472) can0 076#3E7BC18000000000
(1494906023.710721) can0 077#000007FF7FF7F1FD
(1494906023.710971) can0 07D#0000F960001FF7FF
(1494906023.711222) can0 213#FFFF00048011FF41
(1494906023.711356) can0 214#8000000000007960
(1494906023.711599) can0 216#0000000082000D30
(1494906023.711846) can0 217#0000000000000000
(1494906023.712095) can0 3CA#FE80080000000000
(1494906023.712348) can0 415#0000E8F20FFE0FFE
(1494906023.712597) can0 200#025280008000027D
(1494906023.712846) can0 202#04FA125064000000
(1494906023.713096) can0 204#C8007D0000FA0000
(1494906023.713345) can0 41D#0000E00000000000
(1494906023.713596) can0 4B0#B3000000600000F9
(1494906023.714973) can0 230#0000000000000000
(1494906023.714986) can0 082#7F0814007A800000
(1494906023.715099) can0 085#7D51800059507D56
(1494906023.715111) can0 091#7EF47EFFEC1EF000
(1494906023.715346) can0 092#6FA46F927373FE1E
(1494906023.715721) can0 3CC#8000000000000000
(1494906023.717223) can0 047#04DAEEBC10720000
(1494906023.717350) can0 167#80800009FFE00000
(1494906023.718847) can0 25C#01F402274418803D
(1494906023.721474) can0 05C#003C00F720950000
(1494906023.721486) can0 217#0000000000000000
(1494906023.721723) can0 178#013F01E20E4EC64F
(1494906023.721849) can0 202#04F91A5064000000
(1494906023.722098) can0 204#CC007D0000F90000
(1494906023.723598) can0 3A8#0100270C00000000
(1494906023.724975) can0 085#7D51800058607D56
(1494906023.724987) can0 091#7EF47EFFEB1FF000
(1494906023.725099) can0 092#6FA36F927374FD1F
(1494906023.727730) can0 167#80800009FFE00000
(1494906023.727743) can0 25C#01F402274418803D
(1494906023.730351) can0 078#050B800000000000
(1494906023.730481) can0 165#18C0000000000000
(1494906023.730493) can0 076#3E7BC18000000000
(1494906023.730725) can0 077#000007FF7FF7F5FD
(1494906023.730850) can0 07D#0000F870001FF7FF
(1494906023.731099) can0 05D#20D4B4DB41000000
(1494906023.731349) can0 200#025280008000047B
(1494906023.731599) can0 213#FFFF00048011FF41
(1494906023.731851) can0 214#8000000000007870
(1494906023.732099) can0 216#0000000082000E32
(1494906023.732349) can0 217#0000000000000000
(1494906023.732599) can0 415#0000ECF10FFE0FFE
(1494906023.732848) can0 202#04F8225064000000
(1494906023.733098) can0 204#D0007D0000F80000
(1494906023.733351) can0 41D#0000E00000000000
(1494906023.733599) can0 4B0#B3000000700000F8
(1494906023.734976) can0 230#0000000000000000
(1494906023.734988) can0 082#7F0814007A800000
(1494906023.735102) can0 085#7D51800057707D56
(1494906023.735114) can0 091#7EF47EFFEA20F000
(1494906023.735225) can0 092#6FA26F917374FE20
(1494906023.735475) can0 242#03E01F20C4000001
(1494906023.736975) can0 047#04DAEEBC10720000
(1494906023.738352) can0 167#80800009FFE00000
(1494906023.738476) can0 25C#01F402274418803D
(1494906023.741100) can0 3CA#FE80080000000000
(1494906023.741227) can0 217#0000000000000000
(1494906023.741239) can0 202#04F72A5064000000
(1494906023.741248) can0 204#D4007D0000F70000
(1494906023.742601) can0 42C#8C42000003D00000
(1494906023.742727) can0 3A8#0100270C00000000
(1494906023.745351) can0 091#7EF47EFFE921F000
(1494906023.745478) can0 085#7D51800056807D56
(1494906023.745490) can0 092#6FA16F907374FF21
(1494906023.745499) can0 3CC#8000000000000000
(1494906023.748103) can0 167#80800009FFE00000
(1494906023.748116) can0 25C#01F402274418803D
(1494906023.750726) can0 165#18C0000000000000
(1494906023.750853) can0 076#3E7BC18000000000
(1494906023.750866) can0 077#000007FF7FF7F1FD
(1494906023.750978) can0 078#010A800000000000
(1494906023.751226) can0 07D#0000F780001FF7FF
(1494906023.751352) can0 200#0252800080000679
(1494906023.751602) can0 213#FFFF00048011FF41
(1494906023.751851) can0 214#8000000000007780
(1494906023.752101) can0 216#0000000082000F2D
(1494906023.752352) can0 217#0000000000000000
(1494906023.752603) can0 202#04F6325064000000
(1494906023.752852) can0 204#D8007D0000F60000
(1494906023.753101) can0 415#0000F0F00FFE0FFE
(1494906023.753352) can0 416#5C00F20001000000
(1494906023.753601) can0 41D#0000E00000000000
(1494906023.753851) can0 4B0#B3000000800000F7
(1494906023.754101) can0 230#0000000000000000
(1494906023.754351) can0 091#7EF47EFFE822F000
(1494906023.754602) can0 082#7F0814007A800000
(1494906023.754852) can0 085#7D51800055907D56
(1494906023.755101) can0 092#6FA06F9073720122
(1494906023.757855) can0 047#04DAEEBC10720000
(1494906023.757867) can0 167#80800009FFE00000
(1494906023.757877) can0 25C#01F402274418803D
(1494906023.761729) can0 217#0000000000000000
(1494906023.761855) can0 202#04F53A5064000000
(1494906023.761868) can0 204#DC007D0000F50000
(1494906023.763352) can0 3A8#0100270C00000000
(1494906023.764856) can0 083#0000000000000000
(1494906023.764868) can0 2A1#FFFFFFFF00000000
(1494906023.764981) can0 085#7D51800054A07D56
(1494906023.764994) can0 091#7EF47EFFE723F000
(1494906023.765004) can0 092#6FA16F91736F0123
(1494906023.765104) can0 33B#0000000000000000
(1494906023.767731) can0 05A#00000009F7600000
(1494906023.767744) can0 167#80800009FFE00000
(1494906023.767978) can0 25C#01F402274418803D
(1494906023.770605) can0 078#000A000000000000
(1494906023.770854) can0 165#18C0000000000000
(1494906023.770867) can0 076#3E7BC18000000000
(1494906023.770876) can0 077#000007FF7FF7F1FC
(1494906023.770885) can0 07D#0000F690001FF7FF
(1494906023.771229) can0 213#FFFF00048011FF41
(1494906023.771355) can0 214#8000000000007690
(1494906023.771604) can0 216#0000000082001041
(1494906023.771854) can0 217#0000000000000000
(1494906023.772105) can0 3CA#FE80080000000000
(1494906023.772354) can0 415#0000F4EF0FFE0FFE
(1494906023.772604) can0 200#0252800080000877
(1494906023.772854) can0 202#04F4425064000000
(1494906023.773103) can0 204#E0007D0000F40000
(1494906023.773357) can0 41D#0000E00000000000
(1494906023.773604) can0 4B0#B3000000900000F6
(1494906023.774980) can0 230#0000000000000000
(1494906023.775229) can0 082#7F0814007A800000
(1494906023.775242) can0 085#7D51800053B07D56
(1494906023.775251) can0 091#7EF47F00E424F000
(1494906023.775260) can0 092#6FA36F92736FFD24
(1494906023.775483) can0 242#03E01F20C4000001
(1494906023.775730) can0 3CC#8000000000000000
(1494906023.777230) can0 047#04DAEEBC10720000
(1494906023.777356) can0 167#80800009FFE00000
(1494906023.778855) can0 25C#01F402274418803D
(1494906023.781483) can0 217#0000000000000000
(1494906023.781495) can0 202#04F34A5064000000
(1494906023.781607) can0 204#E4007D0000F30000
(1494906023.783106) can0 3A8#0100270C00000000
(1494906023.785857) can0 04A#0200000000000000
(1494906023.785869) can0 04B#00C0D8D8D8D8C000
(1494906023.785878) can0 04C#20AFFFC000000000
(1494906023.785886) can0 085#7D51800052C07D56
(1494906023.785894) can0 091#7EF47F01E225F000
(1494906023.785983) can0 092#6FA46F927370FA25
(1494906023.788608) can0 167#80800009FFE00000
(1494906023.788620) can0 25C#01F402274418803D
(1494906023.790107) can0 078#010A800000000000
(1494906023.790232) can0 422#000000593812FF02
(1494906023.790483) can0 076#3E7BC18000000000
(1494906023.790608) can0 077#000007FF7FF7F5FD
(1494906023.790856) can0 07D#0000F5A0001FE7FF
(1494906023.791106) can0 165#18C0000000000000
(1494906023.791365) can0 213#FFFF00048011FF41
(1494906023.791609) can0 200#0252800080000A75
(1494906023.791981) can0 214#80000000000075A0
(1494906023.792107) can0 216#0000000082001146
(1494906023.792357) can0 217#0000000000000000
(1494906023.792606) can0 202#04F2525064000000
(1494906023.792856) can0 415#0000F8EE0FFE0FFE
(1494906023.793106) can0 204#E8007D0000F20000
(1494906023.793356) can0 41D#0000E00000000000
(1494906023.793607) can0 423#9F20000000000000
(1494906023.793856) can0 430#370001E7C0777700
(1494906023.794106) can0 4B0#B3000000A00000F5
(1494906023.794359) can0 230#0000000000000000
(1494906023.794607) can0 082#7F0814007A800000
(1494906023.794857) can0 085#7D51800051D07D56
(1494906023.794983) can0 091#7EF37F01E226F000
(1494906023.795231) can0 092#6FA46F917372F826
(1494906023.795481) can0 3B3#4148001210050032
(1494906023.795731) can0 3C3#40C8000000004100
(1494906023.797107) can0 42C#8C42000003D00000
(1494906023.797360) can0 047#04DAEEBC10720000
(1494906023.797485) can0 167#80800009FFE00000
(1494906023.797980) can0 25C#01F402274418803D
(1494906023.799358) can0 455#0000000000000000
(1494906023.800735) can0 3CA#FE80080000000000
(1494906023.800747) can0 217#0000000000000000
(1494906023.800860) can0 202#04F15A5064000000
(1494906023.800985) can0 204#EC007D0000F10000
(1494906023.803608) can0 3A8#0100270C00000000
(1494906023.804985) can0 091#7EF37F01E127F000
(1494906023.804997) can0 085#7D51800050E07D56
(1494906023.805111) can0 092#6FA36F917372F827
(1494906023.805235) can0 3CC#8000000000000000
(1494906023.807860) can0 167#80800009FFE00000
(1494906023.807984) can0 25C#01F402274418803D
(1494906023.810609) can0 078#510A800000000000
(1494906023.810736) can0 165#18C0000000000000
(1494906023.810860) can0 076#3E7BC18000000000
(1494906023.810873) can0 077#000007FF7FF7F5FD
(1494906023.810882) can0 07D#0000F4B0001FF7FF
(1494906023.811109) can0 200#0252800080000C73
(1494906023.811358) can0 213#FFFF00048011FF41
(1494906023.811609) can0 214#80000000000074B0
(1494906023.811983) can0 216#0000000082001200
(1494906023.812110) can0 217#0000000000000000
(1494906023.812359) can0 415#0000FCED0FFE0FFE
(1494906023.812608) can0 202#04F0625064000000
(1494906023.812859) can0 204#F0007D0000F00000
(1494906023.813109) can0 41D#0000E00000000000
(1494906023.813361) can0 4B0#B3000000B00000F4
(1494906023.814859) can0 230#0000000000000000
(1494906023.814872) can0 242#03E01F20C4000001
(1494906023.814881) can0 082#7F0814007A800000
(1494906023.814889) can0 085#7D5180004FF07D56
(1494906023.814986) can0 091#7EF27F01E128F000
(1494906023.815234) can0 092#6FA36F927370F828
(1494906023.816859) can0 047#04DAEEBC10720000
(1494906023.818237) can0 167#80800009FFE00000
(1494906023.818360) can0 25C#01F402274418803D
(1494906023.820986) can0 05C#00DC00ED20950000
(1494906023.820998) can0 217#0000000000000000
(1494906023.821235) can0 178#013F01E20E4FC64F
(1494906023.822737) can0 202#04EF6A5064000000
(1494906023.822750) can0 204#F4007D0000EF0000
(1494906023.822861) can0 3A8#0100270C00000000
(1494906023.825487) can0 33B#0000000000000000
(1494906023.825500) can0 085#7D5180005E007D56
(1494906023.825614) can0 091#7EF47F00DF29F000
(1494906023.825626) can0 092#6FA26F94736DF929
(1494906023.828239) can0 167#80800009FFE00000
(1494906023.828252) can0 25C#01F402274418803D
(1494906023.829612) can0 078#040B000000000000
(1494906023.830988) can0 165#18C0000000000000
(1494906023.831238) can0 076#3E7BC18000000000
(1494906023.831250) can0 077#000007FF7FF7F5FD
(1494906023.831259) can0 07D#0000F3C0001FE7FF
(1494906023.831268) can0 05D#20D49CDB47000000
(1494906023.831364) can0 213#FFFF00048011FF41
(1494906023.831735) can0 214#80000000000073C0
(1494906023.831863) can0 216#0000000082001300
(1494906023.832111) can0 217#0000000000000000
(1494906023.832362) can0 3CA#FE80080000000000
(1494906023.832612) can0 415#0000C0FC0FFE0FFE
(1494906023.832861) can0 200#0252800080000E71
(1494906023.833237) can0 202#04EE725064000000
(1494906023.833364) can0 204#F8007D0000EE0000
(1494906023.833612) can0 41D#0000E00000000000
(1494906023.833861) can0 4B0#B3000000C00000F3
(1494906023.835239) can0 082#7F0814007A800000
(1494906023.835251) can0 085#7D5180005D107D56
(1494906023.835612) can0 091#7EF47F01DD2AF000
(1494906023.835624) can0 092#6FA26F94736AFB2A
(1494906023.835634) can0 230#0000000000000000
(1494906023.835642) can0 3CC#8000000000000000
(1494906023.837112) can0 047#04DAEEBC10720000
(1494906023.837364) can0 167#80800009FFE00000
(1494906023.838862) can0 25C#01F402274418803D
(1494906023.841615) can0 202#04ED7A5064000000
(1494906023.841627) can0 217#0000000000000000
(1494906023.841637) can0 204#FC007D0000ED0000
(1494906023.841645) can0 42C#8C42000003D00000
(1494906023.842990) can0 3A8#0100270C00000000
(1494906023.845739) can0 091#7EF47F03DA2BF000
(1494906023.845752) can0 092#6FA26F93736BFA2B
(1494906023.845762) can0 085#7D5180005C207D56
(1494906023.848366) can0 167#80800009FFE00000
(1494906023.848379) can0 25C#01F402274418803D
(1494906023.850990) can0 165#18C0000000000000
(1494906023.851240) can0 076#3E7BC18000000000
(1494906023.851253) can0 077#000007FF7FF7F1FE
(1494906023.851262) can0 078#010A800000000000
(1494906023.851270) can0 07D#0000F2D0001FD7FF
(1494906023.851365) can0 200#025280008000007F
(1494906023.851615) can0 213#FFFF00048011FF41
(1494906023.851865) can0 214#80000000000072D0
(1494906023.852114) can0 216#0000000082001454
(1494906023.852364) can0 217#0000000000000000
(1494906023.852614) can0 202#04FC025064000000
(1494906023.852864) can0 204#C0007D0000FC0000
(1494906023.853114) can0 415#0000C4FB0FFE0FFE
(1494906023.853366) can0 416#5D00F10001000000
(1494906023.853614) can0 41D#0000E00000000000
(1494906023.853865) can0 4B0#B3000000D00000F2
(1494906023.854114) can0 091#7EF47F02DA2CF000
(1494906023.854364) can0 230#0000000000000000
(1494906023.854739) can0 082#7F0814007A800000
(1494906023.854866) can0 085#7D5180005B307D56
(1494906023.854991) can0 092#6FA16F92736EF82C
(1494906023.855239) can0 242#03E01F20C4000001
(1494906023.856864) can0 047#04DAEEBC10720000
(1494906023.858241) can0 167#80800009FFE00000
(1494906023.858493) can0 25C#01F402274418803D
(1494906023.861116) can0 3CA#FE80080000000000
(1494906023.861128) can0 217#0000000000000000
(1494906023.861243) can0 202#04FB0A5064000000
(1494906023.861255) can0 204#C4007D0000FB0000
(1494906023.862616) can0 3A8#0100270C00000000
(1494906023.865492) can0 083#0000000000000000
(1494906023.865505) can0 091#7EF47F01DA2DF000
(1494906023.865515) can0 085#7D5180005A407D56
(1494906023.865523) can0 092#6FA06F917370F72D
(1494906023.865531) can0 2A1#FFFFFFFF00000000
(1494906023.865539) can0 3CC#8000000000000000
(1494906023.868365) can0 05A#00000009FD000000
(1494906023.868377) can0 168#0000000000000000
(1494906023.868386) can0 167#80800009FFE00000
(1494906023.868394) can0 3A7#0E400A045F700000
(1494906023.868402) can0 25C#01F402274418803D
(1494906023.869742) can0 078#010A800000000000
(1494906023.871375) can0 165#18C0000000000000
(1494906023.871388) can0 076#3E7BC18000000000
(1494906023.871398) can0 077#000007FF7FF7F1FD
(1494906023.871406) can0 07D#0000F1E0001FE7FF
(1494906023.871413) can0 200#025280008000027D
(1494906023.871421) can0 213#FFFF00048011FF41
(1494906023.871620) can0 214#80000000000071E0
(1494906023.871866) can0 216#0000000082001551
(1494906023.872116) can0 217#0000000000000000
(1494906023.872368) can0 3A6#0E400A045F700000
(1494906023.872617) can0 202#04FA125064000000
(1494906023.872866) can0 204#C8007D0000FA0000
(1494906023.873118) can0 415#0000C8FA0FFE0FFE
(1494906023.873366) can0 41D#0000E00000000000
(1494906023.873616) can0 4B0#B3000000E00000F1
(1494906023.875121) can0 091#7EF47F01D92EF000
(1494906023.875134) can0 230#0000000000000000
(1494906023.875143) can0 082#7F0814007A800000
(1494906023.875150) can0 085#7D51800059507D56
(1494906023.875158) can0 092#6FA06F917371F52E
(1494906023.877869) can0 047#04DAEEBC10720000
(1494906023.877882) can0 167#80800009FFE00000
(1494906023.877891) can0 25C#01F402274418803D
(1494906023.881869) can0 202#04F91A5064000000
(1494906023.881885) can0 217#0000000000000000
(1494906023.881896) can0 204#CC007D0000F90000
(1494906023.883244) can0 3A8#0100270C00000000
(1494906023.884619) can0 33B#0000000000000000
(1494906023.884632) can0 04A#0200000000000000
(1494906023.884746) can0 04B#00C0D8D8D8D8C000
(1494906023.884869) can0 04C#20AFFFC000000000
(1494906023.885118) can0 085#7D51800058607D56
(1494906023.885245) can0 091#7EF47F00D92FF000
(1494906023.885496) can0 092#6FA06F927373F12F
(1494906023.888122) can0 167#80800009FFE00000
(1494906023.888240) can0 25C#01F402274418803D
(1494906023.890992) can0 078#000A000000000000
(1494906023.891005) can0 165#18C0000000000000
(1494906023.891014) can0 076#3E7BC18000000000
(1494906023.891022) can0 077#000007FF7FF7F1FD
(1494906023.891030) can0 07D#0000F0F0001FF7FF
(1494906023.891240) can0 213#FFFF00048011FF41
(1494906023.891489) can0 214#80000000000070F0
(1494906023.891739) can0 216#0000000082001655
(1494906023.891989) can0 217#0000000000000000
(1494906023.892239) can0 3CA#FE80080000000000
(1494906023.892366) can0 415#0000CCF90FFE0FFE
(1494906023.892615) can0 41D#0000E00000000000
(1494906023.892864) can0 422#000000593812FF02
(1494906023.893115) can0 423#9F20000000000000
(1494906023.893366) can0 200#025280008000047B
(1494906023.893614) can0 202#04F8225064000000
(1494906023.893864) can0 204#D0007D0000F80000
(1494906023.894115) can0 430#370001E7C0777700
(1494906023.894363) can0 082#7F0814007A800000
(1494906023.894614) can0 085#7D51800057707D56
(1494906023.894865) can0 091#7EF37EFFDB30F000
(1494906023.895113) can0 092#6FA06F927372F130
(1494906023.895490) can0 230#0000000000000000
(1494906023.895616) can0 242#03E01F20C4000001
(1494906023.895865) can0 3CC#8000000000000000
(1494906023.896114) can0 4B0#B3000000F00000F0
(1494906023.896365) can0 40A#C110418820250000
(1494906023.897752) can0 047#04DAEEBC10720000
(1494906023.897873) can0 167#80800009FFE00000
(1494906023.897886) can0 25C#01F402274418803D
(1494906023.899246) can0 42C#8C42000003D00000
(1494906023.899259) can0 455#0000000000000000
(1494906023.900623) can0 202#04F72A5064000000
(1494906023.900635) can0 217#0000000000000000
(1494906023.900747) can0 204#D4007D0000F70000
(1494906023.903379) can0 3A8#0100270C00000000
(1494906023.904748) can0 085#7D51800056807D56
(1494906023.904760) can0 091#7EF47EFEDA31F000
(1494906023.904872) can0 092#6FA16F937372EE31
(1494906023.908749) can0 167#80800009FFE00000
(1494906023.908996) can0 25C#01F402274418803D
(1494906023.910372) can0 078#510A800000000000
(1494906023.910499) can0 165#18C0000000000000
(1494906023.910511) can0 076#3E7BC18000000000
(1494906023.910624) can0 077#000007FF7FF7F1FD
(1494906023.910872) can0 07D#0000FF00001FF7FF
(1494906023.911122) can0 200#0252800080000679
(1494906023.911371) can0 213#FFFF00048011FF41
(1494906023.911621) can0 214#8000000000007F00
(1494906023.911871) can0 216#0000000082001755
(1494906023.912122) can0 217#0000000000000000
(1494906023.912373) can0 415#0000D0F80FFE0FFE
(1494906023.912622) can0 202#04F6325064000000
(1494906023.912871) can0 204#D8007D0000F60000
(1494906023.913121) can0 265#1000000410000000
(1494906023.913371) can0 41D#0000E00000000000
(1494906023.913621) can0 453#3130444C70647011
(1494906023.913871) can0 4B0#B3000000000000FF
(1494906023.914122) can0 230#0000000000000000
(1494906023.914371) can0 082#7F0814007A800000
(1494906023.914622) can0 085#7D51800055907D56
(1494906023.914872) can0 091#7EF47EFFD832F000
(1494906023.915121) can0 092#6FA16F937373EC32
(1494906023.917872) can0 047#04DAEEBC10720000
(1494906023.918000) can0 167#80800009FFE00000
(1494906023.918013) can0 25C#01F402274418803D
(1494906023.920748) can0 05C#007C00F320950000
(1494906023.920761) can0 217#0000000000000000
(1494906023.920770) can0 3CA#FE80080000000000
(1494906023.922249) can0 178#013F01E20E4FC64F
(1494906023.922262) can0 202#04F53A5064000000
(1494906023.922376) can0 204#DC007D0000F50000
(1494906023.923749) can0 3A8#0100270C00000000
(1494906023.925124) can0 085#7D51800054A07D56
(1494906023.925137) can0 091#7EF47F00D533F000
(1494906023.925250) can0 092#6FA06F937373EC33
(1494906023.925262) can0 3CC#8000000000000000
(1494906023.927877) can0 167#80800009FFE00000
(1494906023.927889) can0 25C#01F402274418803D
(1494906023.930499) can0 078#050B800000000000
(1494906023.930626) can0 165#18C0000000000000
(1494906023.930751) can0 076#3E7BC18000000000
(1494906023.930763) can0 077#000007FF7FF7F1FD
(1494906023.930876) can0 07D#0000FE10001FF7FF
(1494906023.931124) can0 05D#20D484DB4D000000
(1494906023.931374) can0 200#0252800080000877
(1494906023.931625) can0 213#FFFF00048011FF41
(1494906023.931874) can0 214#8000000000007E10
(1494906023.932125) can0 216#0000000082001854
(1494906023.932374) can0 217#0000000000000000
(1494906023.932624) can0 415#0000D4F70FFE0FFE
(1494906023.932874) can0 202#04F4425064000000
(1494906023.933124) can0 204#E0007D0000F40000
(1494906023.933377) can0 41D#0000E00000000000
(1494906023.933623) can0 4B0#B3000000100000FE
(1494906023.935001) can0 230#0000000000000000
(1494906023.935014) can0 082#7F0814007A800000
(1494906023.935126) can0 085#7D51800053B07D56
(1494906023.935139) can0 091#7EF47F01D334F000
(1494906023.935252) can0 092#6FA06F927372ED34
(1494906023.935503) can0 242#03E01F20C4000001
(1494906023.937000) can0 047#04DAEEBC10720000
(1494906023.938378) can0 167#80800009FFE00000
(1494906023.938504) can0 25C#01F402274418803D
(1494906023.941125) can0 202#04F34A5064000000
(1494906023.941253) can0 217#0000000000000000
(1494906023.941265) can0 204#E4007D0000F30000
(1494906023.942627) can0 42C#8C42000003D00000
(1494906023.942640) can0 3A8#0100270C00000000
(1494906023.945252) can0 33B#0000000000000000
(1494906023.945378) can0 091#7EF47F02D135F000
(1494906023.945390) can0 085#7D51800052C07D56
(1494906023.945399) can0 092#6FA06F927372EC35
(1494906023.948003) can0 167#80800009FFE00000
(1494906023.948015) can0 25C#01F402274418803D
(1494906023.950627) can0 165#18C0000000000000
(1494906023.950753) can0 076#3E7BC18000000000
(1494906023.950766) can0 077#000007FF7FF7F1FD
(1494906023.950878) can0 078#000A000000000000
(1494906023.951127) can0 07D#0000FD20001FF7FF
(1494906023.951386) can0 213#FFFF00048011FF41
(1494906023.951630) can0 214#8000000000007D20
(1494906023.952002) can0 216#0000000082001950
(1494906023.952128) can0 217#0000000000000000
(1494906023.952377) can0 3CA#FE80080000000000
(1494906023.952627) can0 200#0252800080000A75
(1494906023.952875) can0 202#04F2525064000000
(1494906023.953126) can0 204#E8007D0000F20000
(1494906023.953378) can0 415#0000D8F60FFE0FFE
(1494906023.953627) can0 416#5E00F00001000000
(1494906023.953876) can0 41D#0000E00000000000
(1494906023.954127) can0 4B0#B3000000200000FD
(1494906023.954379) can0 230#0000000000000000
(1494906023.954627) can0 082#7F0814007A800000
(1494906023.954878) can0 085#7D51800051D07D56
(1494906023.955003) can0 091#7EF47F02D036F000
(1494906023.955252) can0 092#6FA16F927371EB36
(1494906023.955503) can0 3CC#8000000000000000
(1494906023.957002) can0 047#04DAEEBC10720000
(1494906023.958379) can0 167#80800009FFE00000
(1494906023.958504) can0 25C#01F402274418803D
(1494906023.961129) can0 217#0000000000000000
(1494906023.961141) can0 202#04F15A5064000000
(1494906023.961257) can0 204#EC007D0000F10000
(1494906023.962629) can0 3A8#0100270C00000000
(1494906023.965254) can0 083#0000000000000000
(1494906023.965507) can0 091#7EF47F01D037F000
(1494906023.965519) can0 085#7D51800050E07D56
(1494906023.965528) can0 092#6FA16F937370EA37
(1494906023.965536) can0 2A1#FFFFFFFF00000000
(1494906023.968132) can0 05A#00000009F3A00000
(1494906023.968251) can0 167#80800009FFE00000
(1494906023.968264) can0 25C#01F402274418803D
(1494906023.969625) can0 078#010A800000000000
(1494906023.971126) can0 165#18C0000000000000
(1494906023.971138) can0 076#3E7BC18000000000
(1494906023.971148) can0 077#000007FF7FF7F1FD
(1494906023.971252) can0 07D#0000FC30001FF7FF
(1494906023.971264) can0 200#0252800080000C73
(1494906023.971376) can0 213#FFFF00048011FF41
(1494906023.971624) can0 214#8000000000007C30
(1494906023.971874) can0 216#0000000082001A55
(1494906023.972124) can0 217#0000000000000000
(1494906023.972501) can0 415#0000DCF50FFE0FFE
(1494906023.972626) can0 202#04F0625064000000
(1494906023.972874) can0 204#F0007D0000F00000
(1494906023.973125) can0 41D#0000E00000000000
(1494906023.973377) can0 4B0#B3000000300000FC
(1494906023.974750) can0 091#7EF47F00D038F000
(1494906023.975000) can0 230#0000000000000000
(1494906023.975012) can0 082#7F0814007A800000
(1494906023.975021) can0 085#7D5180004FF07D56
(1494906023.975029) can0 092#6FA16F937370E938
(1494906023.975249) can0 242#03E01F20C4000001
(1494906023.976874) can0 047#04DAEEBC10720000
(1494906023.978382) can0 167#80800009FFE00000
(1494906023.978396) can0 25C#01F402274418803D
(1494906023.981132) can0 3CA#FE80080000000000
(1494906023.981144) can0 217#0000000000000000
(1494906023.981154) can0 202#04EF6A5064000000
(1494906023.981162) can0 204#F4007D0000EF0000
(1494906023.983882) can0 3A8#0100270C00000000
(1494906023.984007) can0 04A#0200000000000000
(1494906023.984256) can0 04B#00C0D8D8D8D8C000
(1494906023.984507) can0 04C#20AFFFC000000000
(1494906023.984755) can0 085#7D5180005E007D56
(1494906023.985005) can0 091#7EF47EFFD139F000
(1494906023.985133) can0 092#6FA16F937370E839
(1494906023.985380) can0 3CC#8000000000000000
(1494906023.988008) can0 167#80800009FFE00000
(1494906023.988022) can0 25C#01F402274418803D
(1494906023.990633) can0 078#010A800000000000
(1494906023.990649) can0 076#3E7BC18000000000
(1494906023.990760) can0 077#000007FF7FF7F1FD
(1494906023.990773) can0 07D#0000FB40001FE7FF
(1494906023.991007) can0 165#18C0000000000000
(1494906023.991256) can0 213#FFFF00048011FF41
(1494906023.991506) can0 214#8000000000007B40
(1494906023.991756) can0 216#0000000082001B55
(1494906023.992007) can0 217#0000000000000000
(1494906023.992257) can0 415#0000E0F40FFE0FFE
(1494906023.992508) can0 41D#0000E00000000000
(1494906023.992757) can0 422#000000593812FF02
(1494906023.993006) can0 423#9F20000000000000
(1494906023.993257) can0 200#0252800080000E71
(1494906023.993383) can0 202#04EE725064000000
(1494906023.993632) can0 204#F8007D0000EE0000
(1494906023.993881) can0 430#370001E7C0777700
(1494906023.994132) can0 230#0000000000000000
(1494906023.994382) can0 082#7F0814007A800000
(1494906023.994632) can0 085#7D5180005D107D56
(1494906023.994882) can0 091#7EF47EFFD03AF000
(1494906023.995131) can0 092#6FA16F937372E53A
(1494906023.995382) can0 4B0#B3000000400000FB
(1494906023.996758) can0 42C#8C42000003D00000
(1494906023.996770) can0 455#0000000000000000
(1494906023.997007) can0 047#04DAEEBC10720000
(1494906023.998385) can0 167#80800009FFE00000
(1494906023.998505) can0 25C#01F402274418803D
(1494906024.001254) can0 202#04ED7A5064000000
(1494906024.001266) can0 217#0000000000000000
(1494906024.001276) can0 204#FC007D0000ED0000
(1494906024.002754) can0 3A8#0100270C00000000
(1494906024.005509) can0 33B#0000000000000000
(1494906024.005521) can0 091#7EF87F00C93BF000
(1494906024.005530) can0 085#7D5180005C207D56
(1494906024.005540) can0 092#6FA26F927373E33B
(1494906024.008132) can0 167#80800009FFE00000
(1494906024.008257) can0 25C#01F402274418803D
(1494906024.009630) can0 078#500A000000000000
(1494906024.011130) can0 165#18C0000000000000
(1494906024.011142) can0 076#3E7BC18000000000
(1494906024.011152) can0 077#000007FF7FF7F1FD
(1494906024.011160) can0 07D#0000FA50001FF7FF
(1494906024.011257) can0 213#FFFF00048011FF41
(1494906024.011380) can0 214#8000000000007A50
(1494906024.011629) can0 216#0000000082001C00
(1494906024.011879) can0 217#0000000000000000
(1494906024.012130) can0 3CA#FE80080000000000
(1494906024.012504) can0 415#0000E4F30FFE0FFE
(1494906024.012631) can0 200#025280008000007F
(1494906024.012880) can0 202#04FC025064000000
(1494906024.013129) can0 204#C0007D0000FC0000
(1494906024.013382) can0 41D#0000E00000000000
(1494906024.013629) can0 4B0#B3000000500000FA
(1494906024.015256) can0 230#0000000000000000
(1494906024.015268) can0 082#7F0814007A800000
(1494906024.015277) can0 085#7D5180005B307D56
(1494906024.015286) can0 091#7EF87F01C73CF000
(1494906024.015294) can0 092#6FA26F917373E33C
(1494906024.015508) can0 242#03E01F1FC4000001
(1494906024.015879) can0 3CC#8000000000000000
(1494906024.017382) can0 047#04DAEEBC10720000
(1494906024.017394) can0 167#80800009FFE00000
(1494906024.018886) can0 25C#01F402274418803D
(1494906024.021514) can0 05C#001C00F920950000
(1494906024.021526) can0 217#0000000000000000
(1494906024.021762) can0 178#013F01E20E4FC64F
(1494906024.021886) can0 202#04FB0A5064000000
(1494906024.022135) can0 204#C4007D0000FB0000
(1494906024.023636) can0 3A8#0100270C00000000
(1494906024.025013) can0 091#7EF47F01CA3DF000
(1494906024.025025) can0 085#7D5180005A407D56
(1494906024.025138) can0 092#6FA26F917372E33D
(1494906024.027768) can0 167#80800009FFE00000
(1494906024.027781) can0 25C#01F402274418803D
(1494906024.030387) can0 078#050B800000000000
(1494906024.030514) can0 165#18C0000000000000
(1494906024.030527) can0 076#3E7BC18000000000
(1494906024.030639) can0 077#000007FF7FF7F1FC
(1494906024.030887) can0 07D#0000F960001FF800
(1494906024.031136) can0 05D#20D4ACDB43000000
(1494906024.031394) can0 200#025280008000027D
(1494906024.031641) can0 213#FFFF00048011FF41
(1494906024.031886) can0 214#8000000000007960
(1494906024.032137) can0 169#0079C00000000000
(1494906024.032388) can0 216#0000000082001D15
(1494906024.032636) can0 217#0000000000000000
(1494906024.032887) can0 202#04FA125064000000
(1494906024.033140) can0 415#0000E8F20FFE0FFE
(1494906024.033512) can0 204#C8007D0000FA0000
(1494906024.033638) can0 41D#0000E00000000000
(1494906024.033886) can0 4B0#B3000000600000F9
(1494906024.035264) can0 082#7F0814007A800000
(1494906024.035276) can0 085#7D51800059507D56
(1494906024.035389) can0 091#7EF47F01C93EF000
(1494906024.035514) can0 092#6FA36F927371E13E
(1494906024.035526) can0 230#0000000000000000
(1494906024.037013) can0 047#04DAEEBC10720000
(1494906024.038389) can0 167#80800009FFE00000
(1494906024.038514) can0 25C#01F402274418803D
(1494906024.041138) can0 3CA#FE80080000000000
(1494906024.041388) can0 217#0000000000000000
(1494906024.041401) can0 202#04F91A5064000000
(1494906024.041413) can0 204#CC007D0000F90000
(1494906024.041421) can0 42C#8C42000003D00000
(1494906024.042764) can0 3A8#0100270C00000000
(1494906024.045390) can0 091#7EF47F00C93FF000
(1494906024.045520) can0 085#7D51800058607D56
(1494906024.045532) can0 092#6FA36F927370E13F
(1494906024.045541) can0 3CC#8000000000000000
(1494906024.048141) can0 167#80800009FFE00000
(1494906024.048154) can0 25C#01F402274418803D
(1494906024.050766) can0 165#18C0000000000000
(1494906024.050893) can0 076#3E7BC18000000000
(1494906024.050906) can0 077#000007FF7FF7F5FD
(1494906024.050915) can0 078#010A800000000000
(1494906024.051140) can0 07D#0000F870001FF7FF
(1494906024.051388) can0 200#025280008000047B
(1494906024.051639) can0 213#FFFF00048011FF41
(1494906024.051890) can0 214#8000000000007870
(1494906024.052139) can0 216#0000000082001E55
(1494906024.052388) can0 217#0000000000000000
(1494906024.052639) can0 202#04F8225064000000
(1494906024.052889) can0 204#D0007D0000F80000
(1494906024.053139) can0 415#0000ECF10FFE0FFE
(1494906024.053391) can0 416#5F00EF0001000000
(1494906024.053639) can0 41D#0000E00000000000
(1494906024.053889) can0 4B0#B3000000700000F8
(1494906024.054017) can0 091#7EF47EFECB40F000
(1494906024.054389) can0 230#0000000000000000
(1494906024.054517) can0 082#7F0814007A800000
(1494906024.054764) can0 085#7D51800057707D56
(1494906024.055015) can0 092#6FA36F92736FE140
(1494906024.055264) can0 242#03E01F1FC4000001
(1494906024.056889) can0 047#04DAEEBC10720000
(1494906024.058267) can0 167#80800009FFE00000
(1494906024.058515) can0 25C#01F402274418803D
(1494906024.061141) can0 217#0000000000000000
(1494906024.061154) can0 202#04F72A5064000000
(1494906024.061267) can0 204#D4007D0000F70000
(1494906024.062641) can0 3A8#0100270C00000000
(1494906024.065267) can0 091#7EF47EFECA41F000
(1494906024.065517) can0 081#0000000000000000
(1494906024.065529) can0 083#0000000000000000
(1494906024.065538) can0 085#7D51800056807D56
(1494906024.065546) can0 092#6FA36F927370DF41
(1494906024.065554) can0 2A1#FFFFFFFF00000000
(1494906024.065643) can0 33B#0000000000000000
(1494906024.065890) can0 3E6#0001040880000000
(1494906024.067392) can0 05A#00000009F9400000
(1494906024.067405) can0 167#80800009FFE00000
(1494906024.068893) can0 25C#01F402274418803D
(1494906024.070267) can0 078#000A000000000000
(1494906024.070394) can0 3A7#0E400A045F700000
(1494906024.070518) can0 165#18C0000000000000
(1494906024.070531) can0 076#3E7BC18000000000
(1494906024.070643) can0 077#000007FF7FF7F5FD
(1494906024.070892) can0 07D#0000F780001FE7FF
(1494906024.071141) can0 213#FFFF00048011FF41
(1494906024.071391) can0 214#8000000000007780
(1494906024.071642) can0 216#0000000082001F11
(1494906024.071891) can0 217#0000000000000000
(1494906024.072142) can0 3A6#0E400A045F700000
(1494906024.072392) can0 3CA#FE80080000000000
(1494906024.072642) can0 200#0252800080000679
(1494906024.072892) can0 202#04F6325064000000
(1494906024.073142) can0 204#D8007D0000F60000
(1494906024.073391) can0 415#0000F0F00FFE0FFE
(1494906024.073642) can0 41D#0000E00000000000
(1494906024.073891) can0 4B0#B3000000800000F7
(1494906024.075268) can0 230#0000000000000000
(1494906024.075280) can0 082#7F0814007A800000
(1494906024.075518) can0 085#7D51800055907D56
(1494906024.075530) can0 091#7EF47EFFC842F000
(1494906024.075540) can0 092#6FA16F927371DF42
(1494906024.075548) can0 3CC#8000000000000000
(1494906024.077017) can0 047#04DAEEBC10720000
(1494906024.077520) can0 167#80800009FFE00000
(1494906024.077892) can0 25C#01F402274418803D
(1494906024.081893) can0 202#04F53A5064000000
(1494906024.081906) can0 217#0000000000000000
(1494906024.081915) can0 204#DC007D0000F50000
(1494906024.083269) can0 3A8#0100270C00000000
(1494906024.084894) can0 04A#0200000000000000
(1494906024.084907) can0 5B3#B300FFFFFFFFFFFF
(1494906024.084917) can0 04B#00C0D8D8D8D8C000
(1494906024.084925) can0 04C#20AFFFC000000000
(1494906024.084933) can0 085#7D51800054A07D56
(1494906024.085268) can0 091#7EF47EFFC743F000
(1494906024.085521) can0 092#6FA16F927372DD43
(1494906024.088146) can0 167#80800009FFE00000
(1494906024.088159) can0 25C#01F402274418803D
(1494906024.090891) can0 078#010A800000000000
(1494906024.090903) can0 422#000000593812FF02
(1494906024.090912) can0 076#3E7BC18000000000
(1494906024.091017) can0 077#000007FF7FF7F1FD
(1494906024.091030) can0 07D#0000F690001FF7FF
(1494906024.091142) can0 165#18C0000000000000
(1494906024.091390) can0 213#FFFF00048011FF41
(1494906024.091639) can0 200#0252800080000877
(1494906024.091890) can0 214#8000000000007690
(1494906024.092140) can0 216#0000000082002051
(1494906024.092389) can0 202#04F4425064000000
(1494906024.092639) can0 217#0000000000000000
(1494906024.092890) can0 204#E0007D0000F40000
(1494906024.093140) can0 415#0000F4EF0FFE0FFE
(1494906024.093392) can0 41D#0000E00000000000
(1494906024.093640) can0 423#9F20000000000000
(1494906024.093889) can0 430#370001E7C0777700
(1494906024.094139) can0 230#0000000000000000
(1494906024.094389) can0 082#7F0814007A800000
(1494906024.094640) can0 085#7D51800053B07D56
(1494906024.094889) can0 091#7EF47EFFC644F000
(1494906024.095017) can0 092#6FA26F937372DA44
(1494906024.095265) can0 242#03E01F1FC4000001
(1494906024.095520) can0 4B0#B3000000900000F6
(1494906024.096891) can0 40A#C000000335F6D400
(1494906024.096903) can0 42C#8C42000003D00000
(1494906024.097139) can0 047#04DAEEBC10720000
(1494906024.097391) can0 167#80800009FFE00000
(1494906024.098897) can0 25C#01F402274418803D
(1494906024.098910) can0 455#0000000000000000
(1494906024.101525) can0 3CA#FE80080000000000
(1494906024.101537) can0 217#0000000000000000
(1494906024.101649) can0 202#04F34A5064000000
