(1494906257.013429) can0 076#3E7BC18000000000
(1494906257.013446) can0 077#000007FF7FF7F1FD
(1494906257.013455) can0 07D#0000F870001FF7FF
(1494906257.013463) can0 213#FFFF00048011FF41
(1494906257.013552) can0 214#8000000000007870
(1494906257.013804) can0 216#0000000082000E32
(1494906257.014049) can0 217#0000000000000000
(1494906257.014299) can0 14B#7E507FFD40000000
(1494906257.014549) can0 167#80800009FFE00000
(1494906257.014924) can0 041#0000000000000000
(1494906257.015049) can0 042#0000000000000000
(1494906257.015299) can0 185#0000000000000000
(1494906257.015550) can0 242#03FD1EDBC2000001
(1494906257.015799) can0 07A#BA9B0226A34C0000
(1494906257.016050) can0 25A#003A9C0006EB0000
(1494906257.016299) can0 25C#01F402274418803D
(1494906257.016425) can0 369#0000000000000200
(1494906257.016694) can0 415#0000ECF10FFE0FFE
(1494906257.016924) can0 41D#0000E00000000000
(1494906257.017174) can0 085#7D51800056807D56
(1494906257.017424) can0 4B0#B3000000700000F8
(1494906257.020306) can0 05C#006C00F420950000
(1494906257.020324) can0 156#5900001503000000
(1494906257.020334) can0 166#0000000011F90000
(1494906257.020343) can0 171#0400000000000000
(1494906257.020352) can0 178#013E01E20E4FC64F
(1494906257.020360) can0 179#19DF000000B403AD
(1494906257.020555) can0 17C#0000000000040C1B
(1494906257.020681) can0 202#04F6325064000000
(1494906257.020935) can0 204#D8007D0000F60000
(1494906257.021058) can0 421#0400140000002E00
(1494906257.021303) can0 42D#0002992C45000000
(1494906257.021554) can0 43E#00A5100000000000
(1494906257.024307) can0 217#0000000000000000
(1494906257.024320) can0 047#04DAEEBC10720000
(1494906257.024330) can0 14B#7E507FFD40000000
(1494906257.024554) can0 167#80800009FFE00000
(1494906257.024804) can0 25B#61F409F5E0008000
(1494906257.025054) can0 25C#01F402274418803D
(1494906257.025305) can0 3EB#1F04140803200000
(1494906257.025554) can0 410#0000000000000000
(1494906257.025804) can0 07A#BA9C0226A34C0000
(1494906257.027180) can0 082#7F08140078800000
(1494906257.027193) can0 085#7D51800055907D56
(1494906257.029808) can0 165#18C0000000000000
(1494906257.030056) can0 175#0250000004000000
(1494906257.030069) can0 200#0252800080000778
(1494906257.030078) can0 202#04F53A5064000000
(1494906257.030086) can0 204#DC007D0000F50000
(1494906257.030094) can0 20A#01F402EE17F8A1F2
(1494906257.030429) can0 230#0000000000000000
(1494906257.030555) can0 3A8#0100270C00000000
(1494906257.033306) can0 076#3E7BC18000000000
(1494906257.033319) can0 077#000007FF7FF7F1FD
(1494906257.033328) can0 07D#0000F780001FF7FF
(1494906257.033337) can0 213#FFFF00048011FF41
(1494906257.033681) can0 214#8000000000007780
(1494906257.033806) can0 216#0000000082000F2D
(1494906257.034055) can0 217#0000000000000000
(1494906257.034306) can0 14B#7D607FFD40000000
(1494906257.034555) can0 167#80800009FFE00000
(1494906257.034807) can0 041#0000000000000000
(1494906257.035056) can0 042#0000000000000000
(1494906257.035306) can0 185#0000000000000000
(1494906257.035555) can0 25C#01F402274418803D
(1494906257.035805) can0 312#00001FFE00000000
(1494906257.035934) can0 07A#BA9B0226A34C0000
(1494906257.036181) can0 415#0000F0F00FFE0FFE
(1494906257.036555) can0 41D#0000E00000000000
(1494906257.036683) can0 091#7EF17EFFCB42F000
(1494906257.036935) can0 085#7D51800054A07D56
(1494906257.037181) can0 43D#000000000079022D
(1494906257.037430) can0 4B0#B3000000800000F7
(1494906257.040058) can0 3AA#0022200000000000
(1494906257.040184) can0 3AB#128F0FF040000000
(1494906257.040197) can0 202#04F4425064000000
(1494906257.040207) can0 204#E0007D0000F40000
(1494906257.044058) can0 217#0000000000000000
(1494906257.044184) can0 05D#20D4BCDB3F000000
(1494906257.044197) can0 047#04DAEEBC10720000
(1494906257.044307) can0 14B#7B807FFD40000000
(1494906257.044556) can0 167#80800009FFE00000
(1494906257.044807) can0 25B#61F409F5E0008000
(1494906257.045057) can0 169#0078C00000000000
(1494906257.045306) can0 25C#01F402274418803D
(1494906257.045557) can0 42C#8C62000003D00000
(1494906257.045808) can0 07A#BA9C0226A34C0000
(1494906257.047182) can0 082#7F08140078800000
(1494906257.047195) can0 085#7D51800053B07D56
(1494906257.049810) can0 165#18C0000000000000
(1494906257.049822) can0 171#0400000000000000
(1494906257.049939) can0 175#0250000004000000
(1494906257.050183) can0 200#0252800080000976
(1494906257.050195) can0 202#04F34A5064000000
(1494906257.050205) can0 204#E4007D0000F30000
(1494906257.050308) can0 20A#01F402EE19F6A1F2
(1494906257.050560) can0 230#0000000000000000
(1494906257.050936) can0 3A8#0100270C00000000
(1494906257.051059) can0 092#6FA06F937372DC44
(1494906257.053808) can0 076#3E7BC18000000000
(1494906257.053821) can0 077#000007FF7FF7F1FD
(1494906257.053830) can0 07D#0000F690001FF7FF
(1494906257.053838) can0 213#FFFF00048011FF41
(1494906257.053936) can0 214#8000000000007690
(1494906257.053946) can0 216#0000000082001041
(1494906257.054060) can0 217#0000000000000000
(1494906257.054308) can0 14B#7B807FFD40000000
(1494906257.054558) can0 167#80800009FFE00000
(1494906257.054808) can0 041#0000000000000000
(1494906257.055058) can0 042#0000000000000000
(1494906257.055308) can0 185#0000000000000000
(1494906257.055558) can0 242#03FD1EDBC2000001
(1494906257.055811) can0 07A#BA9B0226A34C0000
(1494906257.055937) can0 25C#01F402274418803D
(1494906257.056184) can0 365#000001FF00008000
(1494906257.056433) can0 415#0000F4EF0FFE0FFE
(1494906257.056683) can0 416#5900F50001000000
(1494906257.056933) can0 41D#0000E00000000000
(1494906257.057182) can0 085#7D51800052C07D56
(1494906257.057433) can0 4B0#B3000000900000F6
(1494906257.060060) can0 202#04F2525064000000
(1494906257.060185) can0 204#E8007D0000F20000
(1494906257.061559) can0 091#7EF07EFFC945F000
(1494906257.064185) can0 217#0000000000000000
(1494906257.064311) can0 047#04DAEEBC10720000
(1494906257.064324) can0 14B#7A907FFD40000000
(1494906257.064560) can0 167#80800009FFE00000
(1494906257.064810) can0 25B#61F409F5E0008000
(1494906257.065059) can0 25C#01F402274418803D
(1494906257.065309) can0 05A#00000009F5800000
(1494906257.066685) can0 07A#BA9B0226A34C0000
(1494906257.066814) can0 082#7F08140078800000
(1494906257.066939) can0 085#7D51800051D07D56
(1494906257.069811) can0 3A8#0100270C00000000
(1494906257.069824) can0 165#18C0000000000000
(1494906257.069833) can0 175#0250000004000000
(1494906257.069840) can0 200#0252800080000B74
(1494906257.069848) can0 202#04F15A5064000000
(1494906257.070060) can0 204#EC007D0000F10000
(1494906257.070185) can0 20A#01F402EE1BF4A1F2
(1494906257.070311) can0 230#0000000000000000
(1494906257.070560) can0 411#0000500000000000
(1494906257.070810) can0 43E#00A5100000000000
(1494906257.073436) can0 076#3E7BC18000000000
(1494906257.073687) can0 077#000007FF7FF7F1FD
(1494906257.073700) can0 07D#0000F5A0001FF7FF
(1494906257.073709) can0 213#FFFF00048011FF41
(1494906257.073722) can0 214#80000000000075A0
(1494906257.073812) can0 216#0000000082001146
(1494906257.074060) can0 217#0000000000000000
(1494906257.074310) can0 14B#7A907FFD40000000
(1494906257.074560) can0 167#80800009FFE00000
(1494906257.074813) can0 041#0000000000000000
(1494906257.075059) can0 042#0000000000000000
(1494906257.075310) can0 185#0000000000000000
(1494906257.075560) can0 25C#01F402274418803D
(1494906257.075813) can0 07A#BA9A0226A34C0000
(1494906257.076061) can0 366#00000000003FF800
(1494906257.076187) can0 415#0000F8EE0FFE0FFE
(1494906257.076436) can0 41D#0000E00000000000
(1494906257.076685) can0 083#0000000000000000
(1494906257.076936) can0 085#7D51800050E07D56
(1494906257.077186) can0 4B0#B3000000A00000F5
(1494906257.079814) can0 171#0400000000000000
(1494906257.079827) can0 202#04F0625064000000
(1494906257.080061) can0 04A#0200000000000000
(1494906257.080073) can0 04B#00C0D8D8D8D8C000
(1494906257.080083) can0 04C#20AFFFC000000000
(1494906257.080091) can0 204#F0007D0000F00000
(1494906257.083938) can0 217#0000000000000000
(1494906257.084064) can0 047#04DAEEBC10720000
(1494906257.084312) can0 14B#78B07FFD40000000
(1494906257.084562) can0 167#80800009FFE00000
(1494906257.084820) can0 25B#61F409F5E0008000
(1494906257.085307) can0 25C#01F402274418803D
(1494906257.085321) can0 091#7EF47EFFC347F000
(1494906257.085562) can0 3E1#8000010701800000
(1494906257.085813) can0 07A#BA9B0226A34C0000
(1494906257.086062) can0 43D#000000000079022C
(1494906257.087563) can0 082#7F08140078800000
(1494906257.087576) can0 085#7D5180004FF07D56
(1494906257.090315) can0 3A8#0100270C00000000
(1494906257.090328) can0 165#18C0000000000000
(1494906257.090337) can0 175#0250000004000000
(1494906257.090345) can0 200#0252800080000D72
(1494906257.090435) can0 202#04EF6A5064000000
(1494906257.090445) can0 204#F4007D0000EF0000
(1494906257.090560) can0 20A#01F402EE1DF2A1F2
(1494906257.090811) can0 230#0000000000000000
(1494906257.091058) can0 332#0000000000000000
(1494906257.091184) can0 37B#1904000000000000
(1494906257.091559) can0 430#030001E777013290
(1494906257.091685) can0 434#227F14000FFF0003
(1494906257.091809) can0 435#2820189E7C000100
(1494906257.093309) can0 076#3E7BC18000000000
(1494906257.093322) can0 077#000007FF7FF7F1FC
(1494906257.093331) can0 07D#0000F4B0001FE7FF
(1494906257.093435) can0 213#FFFF00048011FF41
(1494906257.093559) can0 214#80000000000074B0
(1494906257.093809) can0 216#0000000082001200
(1494906257.094059) can0 217#0000000000000000
(1494906257.094309) can0 14B#76D07FFD40000000
(1494906257.094558) can0 167#80800009FFE00000
(1494906257.094809) can0 041#0000000000000000
(1494906257.095058) can0 042#0000000000000000
(1494906257.095308) can0 185#0000000000000000
(1494906257.095558) can0 242#03FD1EDBC2000001
(1494906257.095685) can0 07A#BA9B0226A34C0000
(1494906257.096058) can0 24A#00960000008C0000
(1494906257.096187) can0 24B#02C00184015002F4
(1494906257.096434) can0 24C#43A0870CCE001300
(1494906257.096684) can0 25C#01F402274418803D
(1494906257.096934) can0 2E4#0000000000000000
(1494906257.097183) can0 367#0000000000000000
(1494906257.097433) can0 40A#C100334641365030
(1494906257.097747) can0 415#0000FCED0FFE0FFE
(1494906257.097939) can0 41D#0000E00000000000
(1494906257.098189) can0 085#7D5180005E007D56
(1494906257.098438) can0 42C#8C62000003D00000
(1494906257.098688) can0 455#0000000000000000
(1494906257.098944) can0 202#04EE725064000000
(1494906257.099189) can0 204#F8007D0000EE0000
(1494906257.099438) can0 4B0#B3000000B00000F4
(1494906257.102189) can0 333#0000000000000000
(1494906257.102563) can0 217#0000000000000000
(1494906257.105191) can0 047#04DAEEBC10720000
(1494906257.105566) can0 14B#76D07FFD40000000
(1494906257.105579) can0 167#80800009FFE00000
(1494906257.105588) can0 25B#61F409F5E0008000
(1494906257.105596) can0 25C#01F402274418803D
(1494906257.105604) can0 368#000001FF00000000
(1494906257.105814) can0 07A#BA9B0226A34C0000
(1494906257.107316) can0 082#7F08140078800000
(1494906257.107328) can0 085#7D5180005D107D56
(1494906257.109944) can0 165#18C0000000000000
(1494906257.109957) can0 171#0400000000000000
(1494906257.110068) can0 175#0250000004000000
(1494906257.110081) can0 200#0252800080000F70
(1494906257.110192) can0 202#04ED7A5064000000
(1494906257.110205) can0 204#FC007D0000ED0000
(1494906257.110316) can0 20A#01F402EE1FF0A1F2
(1494906257.110565) can0 230#0000000000000000
(1494906257.110815) can0 326#01A0022401D000C8
(1494906257.111066) can0 091#7EF47F02BC4AF000
(1494906257.111315) can0 3A8#0100270C00000000
(1494906257.114067) can0 076#3E7BC18000000000
(1494906257.114080) can0 077#000007FF7FF7F1FD
(1494906257.114089) can0 07D#0000F3C0001FE7FF
(1494906257.114097) can0 213#FFFF00048011FF41
(1494906257.114108) can0 214#80000000000073C0
(1494906257.114193) can0 216#0000000082001300
(1494906257.114443) can0 217#0000000000000000
(1494906257.114568) can0 14B#75E07FFD40000000
(1494906257.114818) can0 167#80800009FFE00000
(1494906257.114945) can0 041#0000000000000000
(1494906257.115190) can0 042#0000000000000000
(1494906257.115440) can0 185#0000000000000000
(1494906257.115567) can0 25A#003A9C0006EB0000
(1494906257.115815) can0 07A#BA9B0226A34C0000
(1494906257.116065) can0 25C#01F402274418803D
(1494906257.116316) can0 369#0000000000000200
(1494906257.116442) can0 415#0000C0FC0FFE0FFE
(1494906257.116824) can0 41D#0000E00000000000
(1494906257.116945) can0 085#7D5180005C207D56
(1494906257.117191) can0 4B0#B3000000C00000F3
(1494906257.119820) can0 05C#000C00FA20950000
(1494906257.119832) can0 156#5900001503000000
(1494906257.120191) can0 166#0000000011F90000
(1494906257.120203) can0 178#013E01E20E4FC64F
(1494906257.120212) can0 179#19DF000000B403AD
(1494906257.120220) can0 17C#0000000000040C1B
(1494906257.120317) can0 202#04FC025064000000
(1494906257.120566) can0 204#C0007D0000FC0000
(1494906257.120941) can0 421#0400140000002E00
(1494906257.121067) can0 42D#0002992C45000000
(1494906257.121317) can0 43E#00A5100000000000
(1494906257.123942) can0 217#0000000000000000
(1494906257.124068) can0 047#04DAEEBC10720000
(1494906257.124317) can0 14B#83007FFD40000000
(1494906257.124693) can0 167#80800009FFE00000
(1494906257.124817) can0 25B#61F409F5E0008000
(1494906257.125067) can0 25C#01F402274418803D
(1494906257.125316) can0 410#0000000000000000
(1494906257.126693) can0 07A#BA9B0226A34C0000
(1494906257.126820) can0 082#7F08140078800000
(1494906257.126943) can0 085#7D5180005B307D56
(1494906257.129570) can0 165#18C0000000000000
(1494906257.129583) can0 175#0250000004000000
(1494906257.129696) can0 200#025280008000017E
(1494906257.129708) can0 202#04FB0A5064000000
(1494906257.129819) can0 204#C4007D0000FB0000
(1494906257.130068) can0 20A#01F402EE11FEA1F2
(1494906257.130317) can0 230#0000000000000000
(1494906257.130567) can0 3A8#0100270C00000000
(1494906257.133319) can0 076#3E7BC18000000000
(1494906257.133332) can0 077#000007FF7FF7F5FE
(1494906257.133341) can0 07D#0000F2D0001FF7FF
(1494906257.133446) can0 213#FFFF00048011FF41
(1494906257.133569) can0 214#80000000000072D0
(1494906257.133819) can0 216#0000000082001454
(1494906257.134069) can0 217#0000000000000000
(1494906257.134318) can0 14B#83007FFD40000000
(1494906257.134568) can0 167#80800009FFE00000
(1494906257.134817) can0 041#0000000000000000
(1494906257.135068) can0 042#0000000000000000
(1494906257.135317) can0 084#11000088370B0A00
(1494906257.135567) can0 185#0000000000000000
(1494906257.135695) can0 07A#BA9C0226A34C0000
(1494906257.136067) can0 242#03FD1EDBC2000001
(1494906257.136194) can0 25C#01F402274418803D
(1494906257.136443) can0 312#00001FFE00000000
(1494906257.136693) can0 352#0000000000000000
(1494906257.136943) can0 415#0000C4FB0FFE0FFE
(1494906257.137196) can0 41D#0000E00000000000
(1494906257.137568) can0 085#7D5180005A407D56
(1494906257.137701) can0 091#7EF47F02BA4CF000
(1494906257.137943) can0 43D#000000000079022C
(1494906257.138192) can0 4B0#B3000000D00000F2
(1494906257.139570) can0 171#0400000000000000
(1494906257.139583) can0 202#04FA125064000000
(1494906257.139818) can0 204#C8007D0000FA0000
(1494906257.143694) can0 217#0000000000000000
(1494906257.143821) can0 05D#20D4A4DB45000000
(1494906257.144069) can0 047#04DAEEBC10720000
(1494906257.144319) can0 14B#82107FFD40000000
(1494906257.144570) can0 167#80800009FFE00000
(1494906257.144818) can0 25B#61F409F5E0008000
(1494906257.145069) can0 25C#01F402274418803D
(1494906257.145319) can0 42C#8C62000003D00000
(1494906257.146695) can0 07A#BA9C0226A34C0000
(1494906257.146823) can0 082#7F08140078800000
(1494906257.146947) can0 085#7D51800059507D56
(1494906257.149821) can0 3A8#0100270C00000000
(1494906257.149834) can0 165#18C0000000000000
(1494906257.149843) can0 175#0250000004000000
(1494906257.149851) can0 200#025280008000037C
(1494906257.149859) can0 202#04F91A5064000000
(1494906257.149949) can0 204#CC007D0000F90000
(1494906257.150319) can0 20A#01F402EE13FCA1F2
(1494906257.150569) can0 230#0000000000000000
(1494906257.153323) can0 076#3E7BC18000000000
(1494906257.153336) can0 077#000007FF7FF7F5FD
(1494906257.153346) can0 07D#0000F1E0001FE7FF
(1494906257.153354) can0 213#FFFF00048011FF41
(1494906257.153570) can0 214#80000000000071E0
(1494906257.153820) can0 216#0000000082001551
(1494906257.154071) can0 217#0000000000000000
(1494906257.154320) can0 14B#82107FFD40000000
(1494906257.154570) can0 167#80800009FFE00000
(1494906257.154823) can0 041#0000000000000000
(1494906257.155071) can0 042#0000000000000000
(1494906257.155321) can0 185#0000000000000000
(1494906257.155570) can0 25C#01F402274418803D
(1494906257.155820) can0 07A#BA9C0226A34C0000
(1494906257.156070) can0 365#000001FF00008000
(1494906257.156320) can0 415#0000C8FA0FFE0FFE
(1494906257.156447) can0 416#5A00F40001000000
(1494906257.156696) can0 092#6FA36F90736FD54E
(1494906257.156945) can0 085#7D51800058607D56
(1494906257.157196) can0 41D#0000E00000000000
(1494906257.157445) can0 4B0#B3000000E00000F1
(1494906257.160198) can0 202#04F8225064000000
(1494906257.160211) can0 204#D0007D0000F80000
(1494906257.160446) can0 091#7EF47EFEBC4FF000
(1494906257.163073) can0 217#0000000000000000
(1494906257.164448) can0 047#04DAEEBC10720000
(1494906257.164574) can0 14B#80307FFD40000000
(1494906257.164699) can0 167#80800009FFE00000
(1494906257.164831) can0 25B#61F409F5E0008000
(1494906257.165075) can0 25C#01F402274418803D
(1494906257.165321) can0 05A#00000009FB200000
(1494906257.166699) can0 07A#BA9B0226A34C0000
(1494906257.166825) can0 082#7F08140078800000
(1494906257.166949) can0 085#7D51800057707D56
(1494906257.168448) can0 3A8#0100270C00000000
(1494906257.169824) can0 165#18C0000000000000
(1494906257.169836) can0 171#0400000000000000
(1494906257.169950) can0 175#0250000004000000
(1494906257.169962) can0 200#025280008000057A
(1494906257.170075) can0 202#04F72A5064000000
(1494906257.170087) can0 204#D4007D0000F70000
(1494906257.170322) can0 20A#01F402EE15FAA1F2
(1494906257.170571) can0 230#0000000000000000
(1494906257.170825) can0 411#0000500000000000
(1494906257.171072) can0 43E#00A5100000000000
(1494906257.173952) can0 076#3E7BC18000000000
(1494906257.173965) can0 077#000007FF7FF7F1FC
(1494906257.173974) can0 07D#0000F0F0001FE7FF
(1494906257.173982) can0 213#FFFF00048011FF41
(1494906257.173990) can0 214#80000000000070F0
(1494906257.173998) can0 216#0000000082001655
(1494906257.174198) can0 217#0000000000000000
(1494906257.174448) can0 14B#7E507FFD40000000
(1494906257.174574) can0 167#80800009FFE00000
(1494906257.174824) can0 041#0000000000000000
(1494906257.175073) can0 042#0000000000000000
(1494906257.175448) can0 185#0000000000000000
(1494906257.175575) can0 242#03FD1EDBC2000001
(1494906257.175700) can0 07A#BA9C0226A34C0000
(1494906257.175948) can0 25C#01F402274418803D
(1494906257.176201) can0 366#00000000003FF800
(1494906257.176449) can0 415#0000CCF90FFE0FFE
(1494906257.176823) can0 41D#0000E00000000000
(1494906257.176948) can0 083#0000000000000000
(1494906257.177199) can0 085#7D51800056807D56
(1494906257.177448) can0 4B0#B3000000F00000F0
(1494906257.177704) can0 466#90DC30399E403800
(1494906257.179075) can0 202#04F6325064000000
(1494906257.179200) can0 204#D8007D0000F60000
(1494906257.179325) can0 04A#0200000000000000
(1494906257.179574) can0 04B#00C0D8D8D8D8C000
(1494906257.179824) can0 04C#20AFFFC000000000
(1494906257.183701) can0 217#0000000000000000
(1494906257.185076) can0 047#04DAEEBC10720000
(1494906257.185450) can0 14B#7E507FFD40000000
(1494906257.185462) can0 167#80800009FFE00000
(1494906257.185471) can0 25B#61F409F5E0008000
(1494906257.185479) can0 25C#01F402274418803D
(1494906257.185487) can0 091#7EF47F01B651F000
(1494906257.185576) can0 43D#000000000079022D
(1494906257.185825) can0 07A#BA9B0226A34C0000
(1494906257.187201) can0 082#7F08140078800000
(1494906257.187213) can0 085#7D51800055907D56
(1494906257.189828) can0 3A8#0100270C00000000
(1494906257.189841) can0 165#18C0000000000000
(1494906257.189954) can0 175#0250000004000000
(1494906257.190201) can0 200#0252800080000778
(1494906257.190214) can0 202#04F53A5064000000
(1494906257.190223) can0 204#DC007D0000F50000
(1494906257.190231) can0 20A#01F402EE17F8A1F2
(1494906257.190576) can0 230#0000000000000000
(1494906257.190824) can0 332#0000000000000000
(1494906257.191075) can0 37B#1D04000000000000
(1494906257.191325) can0 430#030001E777013290
(1494906257.191575) can0 434#227D14000FFF0003
(1494906257.191825) can0 435#282010967C000100
(1494906257.193201) can0 076#3E7BC18000000000
(1494906257.193327) can0 077#000007FF7FF7F5FD
(1494906257.193340) can0 07D#0000FF00001FD7FF
(1494906257.193349) can0 213#FFFF00048011FF41
(1494906257.193575) can0 214#8000000000007F00
(1494906257.193826) can0 216#0000000082001755
(1494906257.194076) can0 217#0000000000000000
(1494906257.194325) can0 14B#7D607FFD40000000
(1494906257.194575) can0 167#80800009FFE00000
(1494906257.194827) can0 041#0000000000000000
(1494906257.195076) can0 042#0000000000000000
(1494906257.195325) can0 185#0000000000000000
(1494906257.195575) can0 25C#01F402274418803D
(1494906257.195825) can0 07A#BA9B0226A34C0000
(1494906257.195952) can0 24A#00960000008C0000
(1494906257.196201) can0 24B#02C00184015002F4
(1494906257.196450) can0 24C#43A0870CCE001300
(1494906257.196700) can0 2E4#0000000000000000
(1494906257.196956) can0 367#0000000000000000
(1494906257.197202) can0 3B6#0800010030734849
(1494906257.197451) can0 3B7#0000030060C8017C
(1494906257.197707) can0 3B8#FFFFFFFF00000000
(1494906257.197953) can0 415#0000D0F80FFE0FFE
(1494906257.198201) can0 41D#0000E00000000000
(1494906257.198450) can0 085#7D51800054A07D56
(1494906257.198701) can0 42C#8C62000003D00000
(1494906257.198951) can0 171#0400000000000000
(1494906257.199201) can0 202#04F4425064000000
(1494906257.199452) can0 204#E0007D0000F40000
(1494906257.199701) can0 455#0000000000000000
(1494906257.199829) can0 4B0#B3000000000000FF
(1494906257.201327) can0 333#0000000000000000
(1494906257.203953) can0 217#0000000000000000
(1494906257.204080) can0 047#04DAEEBC10720000
(1494906257.204326) can0 14B#7B807FFD40000000
(1494906257.204577) can0 167#80800009FFE00000
(1494906257.204826) can0 25B#61F409F5E0008000
(1494906257.205078) can0 25C#01F402274418803D
(1494906257.205326) can0 368#000001FF00000000
(1494906257.206702) can0 07A#BA9B0226A34C0000
(1494906257.206829) can0 082#7F08140078800000
(1494906257.206952) can0 085#7D51800053B07D56
(1494906257.209581) can0 165#18C0000000000000
(1494906257.209828) can0 175#0250000004000000
(1494906257.209840) can0 200#0252800080000976
(1494906257.209850) can0 202#04F34A5064000000
(1494906257.209858) can0 204#E4007D0000F30000
(1494906257.210077) can0 20A#01F402EE19F6A1F2
(1494906257.210452) can0 230#0000000000000000
(1494906257.210578) can0 3A8#0100270C00000000
(1494906257.210830) can0 326#01A0022401D000C8
(1494906257.211077) can0 091#7EF47F01B354F000
(1494906257.213705) can0 076#3E7BC18000000000
(1494906257.213719) can0 077#000007FF7FF7F5FE
(1494906257.213956) can0 07D#0000FE10001FE7FF
(1494906257.213969) can0 213#FFFF00048011FF41
(1494906257.213978) can0 214#8000000000007E10
(1494906257.213986) can0 216#0000000082001854
(1494906257.214203) can0 217#0000000000000000
(1494906257.214329) can0 14B#7B807FFD40000000
(1494906257.214578) can0 167#80800009FFE00000
(1494906257.214827) can0 041#0000000000000000
(1494906257.215079) can0 042#0000000000000000
(1494906257.215328) can0 185#0000000000000000
(1494906257.215578) can0 242#03FD1EDBC2000001
(1494906257.215704) can0 07A#BA9C0226A34C0000
(1494906257.216079) can0 25A#003A9B0006EB0000
(1494906257.216204) can0 25C#01F402274418803D
(1494906257.216454) can0 369#0000000000000200
(1494906257.216703) can0 415#0000D4F70FFE0FFE
(1494906257.216953) can0 41D#0000E00000000000
(1494906257.217204) can0 085#7D51800052C07D56
(1494906257.217454) can0 4B0#B3000000100000FE
(1494906257.220082) can0 05C#00AC00F020950000
(1494906257.220095) can0 156#5900001503000000
(1494906257.220208) can0 166#0000000011F90000
(1494906257.220220) can0 178#013E01E20E4FC64F
(1494906257.220230) can0 179#19DF000000B403AD
(1494906257.220332) can0 17C#0000000000040C1B
(1494906257.220455) can0 202#04F2525064000000
(1494906257.220704) can0 204#E8007D0000F20000
(1494906257.220954) can0 421#0400140000002E00
(1494906257.221080) can0 42D#0002992C45000000
(1494906257.221328) can0 43E#00A5100000000000
(1494906257.224081) can0 217#0000000000000000
(1494906257.224093) can0 047#04DAEEBC10720000
(1494906257.224329) can0 14B#7A907FFD40000000
(1494906257.224580) can0 167#80800009FFE00000
(1494906257.224829) can0 25B#61F409F5E0008000
(1494906257.225203) can0 25C#01F402274418803D
(1494906257.225329) can0 410#0000000000000000
(1494906257.226705) can0 07A#BA9B0226A34C0000
(1494906257.226834) can0 082#7F08140078800000
(1494906257.226846) can0 085#7D51800051D07D56
(1494906257.229457) can0 3A8#0100270C00000000
(1494906257.229705) can0 165#18C0000000000000
(1494906257.229718) can0 171#0400000000000000
(1494906257.229727) can0 175#0250000004000000
(1494906257.229735) can0 200#0252800080000B74
(1494906257.229956) can0 202#04F15A5064000000
(1494906257.230205) can0 204#EC007D0000F10000
(1494906257.230455) can0 20A#01F402EE1BF4A1F2
(1494906257.230704) can0 230#0000000000000000
(1494906257.233457) can0 076#3E7BC18000000000
(1494906257.233470) can0 077#000007FF7FF7F5FE
(1494906257.233479) can0 07D#0000FD20001FF7FF
(1494906257.233487) can0 213#FFFF00048011FF41
(1494906257.233582) can0 214#8000000000007D20
(1494906257.233831) can0 216#0000000082001950
(1494906257.234080) can0 217#0000000000000000
(1494906257.234330) can0 14B#7A907FFD40000000
(1494906257.234580) can0 041#0000000000000000
(1494906257.234832) can0 042#0000000000000000
(1494906257.235081) can0 167#80800009FFE00000
(1494906257.235331) can0 185#0000000000000000
(1494906257.235580) can0 25C#01F402274418803D
(1494906257.235829) can0 07A#BA9B0226A34C0000
(1494906257.236081) can0 312#00001FFE00000000
(1494906257.236330) can0 415#0000D8F60FFE0FFE
(1494906257.236581) can0 41D#0000E00000000000
(1494906257.236709) can0 091#7EF47F00B256F000
(1494906257.236956) can0 085#7D51800050E07D56
(1494906257.237206) can0 43D#000000000079022D
(1494906257.237456) can0 4B0#B3000000200000FD
(1494906257.240084) can0 202#04F0625064000000
(1494906257.240333) can0 204#F0007D0000F00000
(1494906257.240346) can0 3AA#0022200000000000
(1494906257.240355) can0 3AB#128F0FF040000000
(1494906257.244208) can0 217#0000000000000000
(1494906257.244335) can0 05D#20D48CDB4B000000
(1494906257.244459) can0 047#04DAEEBC10720000
(1494906257.244471) can0 14B#78B07FFD40000000
(1494906257.244582) can0 167#80800009FFE00000
(1494906257.244840) can0 25B#61F409F5E0008000
(1494906257.245085) can0 25C#01F402274418803D
(1494906257.245331) can0 42C#8C62000003D00000
(1494906257.246833) can0 07A#BA9C0226A34C0000
(1494906257.246846) can0 082#7F08140078800000
(1494906257.246855) can0 085#7D5180004FF07D56
(1494906257.248333) can0 3A8#0100270C00000000
(1494906257.249709) can0 165#18C0000000000000
(1494906257.249721) can0 175#0250000004000000
(1494906257.250083) can0 200#0252800080000D72
(1494906257.250096) can0 202#04EF6A5064000000
(1494906257.250105) can0 204#F4007D0000EF0000
(1494906257.250113) can0 20A#01F402EE1DF2A1F2
(1494906257.250332) can0 230#0000000000000000
(1494906257.254209) can0 076#3E7BC18000000000
(1494906257.254459) can0 077#000007FF7FF7F1FD
(1494906257.254471) can0 07D#0000FC30001FF7FF
(1494906257.254481) can0 213#FFFF00048011FF41
(1494906257.254489) can0 214#8000000000007C30
(1494906257.254496) can0 216#0000000082001A55
(1494906257.254584) can0 217#0000000000000000
(1494906257.254835) can0 14B#76D07FFD40000000
(1494906257.255083) can0 041#0000000000000000
(1494906257.255208) can0 042#0000000000000000
(1494906257.255458) can0 167#80800009FFE00000
(1494906257.255708) can0 185#0000000000000000
(1494906257.255834) can0 242#03FD1EDBC2000001
(1494906257.256085) can0 25C#01F402274418803D
(1494906257.256210) can0 07A#BA9B0226A34C0000
(1494906257.256459) can0 365#000001FF00008000
(1494906257.256708) can0 3B5#00FC00F800FC00F9
(1494906257.256835) can0 415#0000DCF50FFE0FFE
(1494906257.257083) can0 416#5B00F30001000000
(1494906257.257334) can0 085#7D5180005E007D56
(1494906257.257459) can0 41D#0000E00000000000
(1494906257.257711) can0 4B0#B3000000300000FC
(1494906257.259086) can0 171#0400000000000000
(1494906257.259099) can0 202#04EE725064000000
(1494906257.259333) can0 204#F8007D0000EE0000
(1494906257.261962) can0 091#7EF47F01AE59F000
(1494906257.261975) can0 092#6FA26F927373C559
(1494906257.263336) can0 217#0000000000000000
(1494906257.264711) can0 047#04DAEEBC10720000
(1494906257.264837) can0 14B#76D07FFD40000000
(1494906257.264961) can0 167#80800009FFE00000
(1494906257.264974) can0 25B#61F409F5E0008000
(1494906257.265088) can0 25C#01F402274418803D
(1494906257.265334) can0 05A#00000009F1C00000
(1494906257.266711) can0 07A#BA9A0226A34C0000
(1494906257.266838) can0 082#7F08140078800000
(1494906257.266964) can0 085#7D5180005D107D56
(1494906257.269588) can0 165#18C0000000000000
(1494906257.269601) can0 175#0250000004000000
(1494906257.269713) can0 200#0252800080000F70
(1494906257.269725) can0 202#04ED7A5064000000
(1494906257.269837) can0 204#FC007D0000ED0000
(1494906257.270085) can0 20A#01F402EE1FF0A1F2
(1494906257.270335) can0 230#0000000000000000
(1494906257.270585) can0 3A8#0100270C00000000
(1494906257.270835) can0 411#0000500000000000
(1494906257.271084) can0 43E#00A5100000000000
(1494906257.273712) can0 076#3E7BC18000000000
(1494906257.273963) can0 077#000007FF7FF7F1FD
(1494906257.273976) can0 07D#0000FB40001FF7FF
(1494906257.273985) can0 213#FFFF00048011FF41
(1494906257.273993) can0 214#8000000000007B40
(1494906257.274001) can0 216#0000000082001B55
(1494906257.274087) can0 217#0000000000000000
(1494906257.274337) can0 14B#75E07FFD40000000
(1494906257.274585) can0 167#80800009FFE00000
(1494906257.274838) can0 041#0000000000000000
(1494906257.275085) can0 042#0000000000000000
(1494906257.275335) can0 185#0000000000000000
(1494906257.275585) can0 25C#01F402274418803D
(1494906257.275713) can0 07A#BA9B0226A34C0000
(1494906257.276086) can0 366#00000000003FF800
(1494906257.276212) can0 415#0000E0F40FFE0FFE
(1494906257.276461) can0 41D#0000E00000000000
(1494906257.276710) can0 083#0000000000000000
(1494906257.276964) can0 085#7D5180005C207D56
(1494906257.277211) can0 4B0#B3000000400000FB
(1494906257.279841) can0 202#04FC025064000000
(1494906257.279854) can0 204#C0007D0000FC0000
(1494906257.279968) can0 04A#0200000000000000
(1494906257.279980) can0 04B#00C0D8D8D8D8C000
(1494906257.280087) can0 04C#20AFFFC000000000
(1494906257.283963) can0 217#0000000000000000
(1494906257.284089) can0 047#04DAEEBC10720000
(1494906257.284337) can0 14B#83007FFD40000000
(1494906257.284587) can0 167#80800009FFE00000
(1494906257.284837) can0 25B#61F409F5E0008000
(1494906257.285212) can0 25C#01F402274418803D
(1494906257.285337) can0 091#7EF47F04A95BF000
(1494906257.285587) can0 352#0000000000000000
(1494906257.285838) can0 07A#BA9C0226A34C0000
(1494906257.286086) can0 43D#000000000079022D
(1494906257.287463) can0 082#7F08140078800000
(1494906257.287588) can0 085#7D5180005B307D56
(1494906257.290215) can0 165#18C0000000000000
(1494906257.290228) can0 171#0400000000000000
(1494906257.290458) can0 175#0250000004000000
(1494906257.290470) can0 200#025280008000017E
(1494906257.290480) can0 202#04FB0A5064000000
(1494906257.290587) can0 204#C4007D0000FB0000
(1494906257.290709) can0 20A#01F402EE11FEA1F2
(1494906257.290837) can0 230#0000000000000000
(1494906257.291084) can0 332#0000000000000000
(1494906257.291209) can0 3A8#0100270C00000000
(1494906257.291458) can0 37B#1C04000000000000
(1494906257.291710) can0 430#030001E777013290
(1494906257.291835) can0 434#227D14000FFF0003
(1494906257.292083) can0 435#2820189E7C000100
(1494906257.293584) can0 076#3E7BC18000000000
(1494906257.293597) can0 077#000008007FF7F1FD
(1494906257.293606) can0 07D#0000FA50002007FF
(1494906257.293712) can0 213#FFFF00048011FF41
(1494906257.293724) can0 214#8000000000007A50
(1494906257.293835) can0 216#0000000082001C00
(1494906257.294084) can0 217#0000000000000000
(1494906257.294333) can0 14B#83007FFD40000000
(1494906257.294583) can0 041#0000000000000000
(1494906257.294833) can0 042#0000000000000000
(1494906257.295084) can0 167#80800009FFE00000
(1494906257.295333) can0 185#0000000000000000
(1494906257.295583) can0 242#03FD1EDBC2000001
(1494906257.295710) can0 07A#BA9B0226A34C0000
(1494906257.296084) can0 24A#00960000008C0000
(1494906257.296210) can0 24B#02C00184015002F4
(1494906257.296459) can0 24C#43A0870CCE001300
(1494906257.296708) can0 25C#01F402274418803D
(1494906257.296959) can0 2E4#0000000000000000
(1494906257.297208) can0 367#0000000000000000
(1494906257.297584) can0 3B3#4588C00C10040032
(1494906257.297726) can0 40A#C1014C5534485233
(1494906257.297964) can0 415#0000E4F30FFE0FFE
(1494906257.298214) can0 41D#0000E00000000000
(1494906257.298463) can0 085#7D5180005A407D56
(1494906257.298590) can0 42C#8C62000003D00000
(1494906257.298968) can0 202#04FA125064000000
(1494906257.299090) can0 204#C8007D0000FA0000
(1494906257.299339) can0 455#0000000000000000
(1494906257.299589) can0 4B0#B3000000500000FA
(1494906257.302338) can0 333#0000000000000000
(1494906257.302588) can0 217#0000000000000000
(1494906257.305464) can0 047#04DAEEBC10720000
(1494906257.305477) can0 14B#82107FFD40000000
(1494906257.305486) can0 167#80800009FFE00000
(1494906257.305495) can0 25B#61F409F5E0008000
(1494906257.305503) can0 25C#01F402274418803D
(1494906257.305511) can0 331#C0003FF6044A1002
(1494906257.305716) can0 368#000001FF00000000
(1494906257.305840) can0 07A#BA9C0226A34C0000
(1494906257.307215) can0 082#7F08140078800000
(1494906257.307228) can0 085#7D51800059507D56
(1494906257.309843) can0 3A8#0100270C00000000
(1494906257.309856) can0 165#18C0000000000000
(1494906257.310092) can0 175#0250000004000000
(1494906257.310104) can0 200#025280008000037C
(1494906257.310113) can0 202#04F91A5064000000
(1494906257.310121) can0 204#CC007D0000F90000
(1494906257.310217) can0 20A#01F402EE13FCA1F2
(1494906257.310465) can0 230#0000000000000000
(1494906257.311969) can0 091#7EF47F04A65EF000
(1494906257.311982) can0 326#01A0022401D000C8
(1494906257.313467) can0 076#3E7BC18000000000
(1494906257.313479) can0 077#000008007FF7F1FE
(1494906257.313489) can0 07D#0000F960001FF7FF
(1494906257.313497) can0 213#FFFF00048011FF41
(1494906257.313593) can0 214#8000000000007960
(1494906257.313840) can0 216#0000000082001D15
(1494906257.314091) can0 217#0000000000000000
(1494906257.314340) can0 14B#82107FFD40000000
(1494906257.314590) can0 041#0000000000000000
(1494906257.314844) can0 042#0000000000000000
(1494906257.315091) can0 167#80800009FFE00000
(1494906257.315341) can0 185#0000000000000000
(1494906257.315467) can0 25A#003A9C0006EB0000
(1494906257.315718) can0 25C#01F402274418803D
(1494906257.315966) can0 07A#BA9C0226A34C0000
(1494906257.316341) can0 369#0000000000000200
(1494906257.316467) can0 415#0000E8F20FFE0FFE
(1494906257.316717) can0 41D#0000E00000000000
(1494906257.316966) can0 085#7D51800058607D56
(1494906257.317215) can0 4B0#B3000000600000F9
(1494906257.319843) can0 05C#004C00F620950000
(1494906257.320092) can0 156#5900001503000000
(1494906257.320104) can0 166#0000000011F90000
(1494906257.320114) can0 171#0400000000000000
(1494906257.320122) can0 178#013E01E20E50C24F
(1494906257.320130) can0 179#19DF000000B403AD
(1494906257.320342) can0 17C#0000000000040C1B
(1494906257.320592) can0 202#04F8225064000000
(1494906257.320841) can0 204#D0007D0000F80000
(1494906257.321091) can0 421#0400140000002E00
(1494906257.321342) can0 42D#0002992C45000000
(1494906257.321590) can0 43E#00A5100000000000
(1494906257.324218) can0 217#0000000000000000
(1494906257.324469) can0 047#04DAEEBC10720000
(1494906257.324481) can0 14B#80307FFD40000000
(1494906257.324594) can0 167#80800009FFE00000
(1494906257.324851) can0 25B#61F409F5E0008000
(1494906257.325094) can0 25C#01F402274418803D
(1494906257.325342) can0 410#0000000000000000
(1494906257.326845) can0 07A#BA9B0226A34C0000
(1494906257.326857) can0 082#7F08140078800000
(1494906257.326866) can0 085#7D51800057707D56
(1494906257.328345) can0 3A8#0100270C00000000
(1494906257.329719) can0 165#18C0000000000000
(1494906257.329731) can0 175#0250000004000000
(1494906257.329968) can0 200#025280008000057A
(1494906257.329981) can0 202#04F72A5064000000
(1494906257.329990) can0 204#D4007D0000F70000
(1494906257.329998) can0 20A#01F402EE15FAA1F2
(1494906257.330342) can0 230#0000000000000000
(1494906257.334470) can0 076#3E7BC18000000000
(1494906257.334482) can0 077#000007FF7FF7F1FE
(1494906257.334492) can0 07D#0000F870001FF7FF
(1494906257.334500) can0 213#FFFF00048011FF41
(1494906257.334507) can0 214#8000000000007870
(1494906257.334515) can0 216#0000000082001E55
(1494906257.334718) can0 217#0000000000000000
(1494906257.334845) can0 14B#7E507FFD40000000
(1494906257.335093) can0 041#0000000000000000
(1494906257.335218) can0 042#0000000000000000
(1494906257.335469) can0 167#80800009FFE00000
(1494906257.335718) can0 185#0000000000000000
(1494906257.335968) can0 242#03FD1EDBC2000001
(1494906257.336095) can0 07A#BA9C0226A34C0000
(1494906257.336219) can0 25C#01F402274418803D
(1494906257.336469) can0 312#00001FFE00000000
(1494906257.336719) can0 415#0000ECF10FFE0FFE
(1494906257.336845) can0 41D#0000E00000000000
(1494906257.337095) can0 091#7EF37F01A860F000
(1494906257.337343) can0 085#7D51800056807D56
(1494906257.337469) can0 43D#000000000079022C
(1494906257.337725) can0 4B0#B3000000700000F8
(1494906257.339095) can0 202#04F6325064000000
(1494906257.339108) can0 204#D8007D0000F60000
(1494906257.344472) can0 217#0000000000000000
(1494906257.344485) can0 05D#20D4B4DB41000000
(1494906257.344494) can0 047#04DAEEBC10720000
(1494906257.344502) can0 14B#7E507FFD40000000
(1494906257.344595) can0 167#80800009FFE00000
(1494906257.344845) can0 25B#61F409F5E0008000
(1494906257.345096) can0 25C#01F402274418803D
(1494906257.345344) can0 42C#8C62000003D00000
(1494906257.346720) can0 07A#BA9B0226A34C0000
(1494906257.346848) can0 082#7F08140078800000
(1494906257.346861) can0 085#7D51800055907D56
(1494906257.349472) can0 165#18C0000000000000
(1494906257.349721) can0 171#0400000000000000
(1494906257.349734) can0 175#0250000004000000
(1494906257.349743) can0 200#0252800080000778
(1494906257.349847) can0 202#04F53A5064000000
(1494906257.350096) can0 204#DC007D0000F50000
(1494906257.350471) can0 20A#01F402EE17F8A1F2
(1494906257.350596) can0 230#0000000000000000
(1494906257.350844) can0 3A8#0100270C00000000
(1494906257.353597) can0 076#3E7BC18000000000
(1494906257.353610) can0 077#000007FF7FF7F1FD
(1494906257.353619) can0 07D#0000F780001FF7FF
(1494906257.353724) can0 213#FFFF00048011FF41
(1494906257.353736) can0 214#8000000000007780
(1494906257.353745) can0 216#0000000082001F11
(1494906257.353971) can0 217#0000000000000000
(1494906257.354221) can0 14B#7D607FFD40000000
(1494906257.354470) can0 167#80800009FFE00000
(1494906257.354848) can0 041#0000000000000000
(1494906257.354976) can0 042#0000000000000000
(1494906257.355221) can0 185#0000000000000000
(1494906257.355473) can0 25C#01F402274418803D
(1494906257.355720) can0 365#000001FF00008000
(1494906257.355970) can0 07A#BA9C0226A34C0000
(1494906257.356221) can0 415#0000F0F00FFE0FFE
(1494906257.356470) can0 416#5C00F20001000000
(1494906257.356721) can0 41D#0000E00000000000
(1494906257.356976) can0 085#7D51800054A07D56
(1494906257.357220) can0 4B0#B3000000800000F7
(1494906257.359851) can0 202#04F4425064000000
(1494906257.359977) can0 204#E0007D0000F40000
(1494906257.361347) can0 091#7EF47F01A463F000
(1494906257.363973) can0 217#0000000000000000
(1494906257.364099) can0 047#04DAEEBC10720000
(1494906257.364347) can0 14B#7B807FFD40000000
(1494906257.364597) can0 167#80800009FFE00000
(1494906257.364848) can0 25B#61F409F5E0008000
(1494906257.365097) can0 25C#01F402274418803D
(1494906257.365347) can0 05A#00000009F7600000
(1494906257.365597) can0 092#6FA06F907374BE63
(1494906257.365846) can0 07A#BA9C0226A34C0000
(1494906257.367224) can0 082#7F08140078800000
(1494906257.367349) can0 085#7D51800053B07D56
(1494906257.369978) can0 165#18C0000000000000
(1494906257.369991) can0 175#0250000004000000
(1494906257.370100) can0 200#0252800080000976
(1494906257.370113) can0 202#04F34A5064000000
(1494906257.370122) can0 204#E4007D0000F30000
(1494906257.370226) can0 20A#01F402EE19F6A1F2
(1494906257.370349) can0 230#0000000000000000
(1494906257.370598) can0 3A8#0100270C00000000
(1494906257.370849) can0 411#0000500000000000
(1494906257.371097) can0 43E#00A5100000000000
(1494906257.373976) can0 076#3E7BC18000000000
(1494906257.373989) can0 077#000007FF7FF7F1FC
(1494906257.373998) can0 07D#0000F690001FF7FF
(1494906257.374007) can0 213#FFFF00048011FF41
(1494906257.374015) can0 214#8000000000007690
(1494906257.374022) can0 216#0000000082002051
(1494906257.374224) can0 217#0000000000000000
(1494906257.374349) can0 14B#7B807FFD40000000
(1494906257.374597) can0 167#80800009FFE00000
(1494906257.374724) can0 041#0000000000000000
(1494906257.375097) can0 042#0000000000000000
(1494906257.375225) can0 185#0000000000000000
(1494906257.375598) can0 242#03FD1EDBC2000001
(1494906257.375724) can0 25C#01F402274418803D
(1494906257.375977) can0 07A#BA9B0227A34C0000
(1494906257.376223) can0 366#00000000003FF800
(1494906257.376473) can0 415#0000F4EF0FFE0FFE
(1494906257.376723) can0 41D#0000E00000000000
(1494906257.376974) can0 083#0000000000000000
(1494906257.377223) can0 085#7D51800052C07D56
(1494906257.377473) can0 4B0#B3000000900000F6
(1494906257.380102) can0 171#0400000000000000
(1494906257.380115) can0 04A#0200000000000000
(1494906257.380226) can0 04B#00C0D8D8D8D8C000
(1494906257.380351) can0 202#04F2525064000000
(1494906257.380364) can0 04C#20AFFFC000000000
(1494906257.380373) can0 204#E8007D0000F20000
(1494906257.384225) can0 217#0000000000000000
(1494906257.384353) can0 047#04DAEEBC10720000
(1494906257.384365) can0 14B#7A907FFD40000000
(1494906257.384601) can0 167#80800009FFE00000
(1494906257.384849) can0 25B#61F409F5E0008000
(1494906257.385099) can0 25C#01F402274418803D
(1494906257.385349) can0 091#7EF47F01A265F000
(1494906257.385599) can0 43D#000000000079022D
(1494906257.385849) can0 07A#BA9C0226A34C0000
(1494906257.387351) can0 082#7F08140078800000
(1494906257.387364) can0 085#7D51800051D07D56
(1494906257.390103) can0 3A8#0100270C00000000
(1494906257.390116) can0 165#18C0000000000000
(1494906257.390126) can0 175#0250000004000000
(1494906257.390228) can0 200#0252800080000B74
(1494906257.390241) can0 202#04F15A5064000000
(1494906257.390250) can0 204#EC007D0000F10000
(1494906257.390352) can0 20A#01F402EE1BF4A1F2
(1494906257.390601) can0 230#0000000000000000
(1494906257.390850) can0 332#0000000000000000
(1494906257.391226) can0 37B#1A04000000000000
(1494906257.391352) can0 430#030001E777013290
(1494906257.391600) can0 434#227F14000FFF0003
(1494906257.391852) can0 435#282010967C000100
(1494906257.393227) can0 076#3E7BC18000000000
(1494906257.393240) can0 077#000007FF7FF7F1FD
(1494906257.393352) can0 07D#0000F5A0001FF7FF
(1494906257.393365) can0 213#FFFF00048011FF41
(1494906257.393477) can0 214#80000000000075A0
(1494906257.393726) can0 216#0000000082002115
(1494906257.394100) can0 217#0000000000000000
(1494906257.394227) can0 14B#7A907FFD40000000
(1494906257.394601) can0 167#80800009FFE00000
(1494906257.394728) can0 185#0000000000000000
(1494906257.394979) can0 25C#01F402274418803D
(1494906257.395226) can0 041#0000000000000000
(1494906257.395476) can0 042#0000000000000000
(1494906257.395726) can0 367#0000000000000000
(1494906257.395976) can0 07A#BA9C0226A34C0000
(1494906257.396225) can0 24A#00960000008C0000
(1494906257.396476) can0 24B#02C00184015002F4
(1494906257.396726) can0 24C#43A0870CCE001300
(1494906257.396976) can0 2E4#0000000000000000
(1494906257.397226) can0 415#0000F8EE0FFE0FFE
(1494906257.397478) can0 41D#0000E00000000000
(1494906257.397733) can0 085#7D51800050E07D56
(1494906257.397979) can0 42C#8C62000003D00000
(1494906257.398226) can0 455#0000000000000000
(1494906257.398475) can0 4B0#B3000000A00000F5
(1494906257.399852) can0 202#04F0625064000000
(1494906257.399978) can0 204#F0007D0000F00000
(1494906257.401353) can0 333#0000000000000000
(1494906257.403978) can0 217#0000000000000000
(1494906257.404104) can0 047#04DAEEBC10720000
(1494906257.404352) can0 14B#78B07FFD40000000
(1494906257.404726) can0 167#80800009FFE00000
(1494906257.404861) can0 25B#61F409F5E0008000
(1494906257.405105) can0 25C#01F402274418803D
(1494906257.405351) can0 368#000001FF00000000
(1494906257.406729) can0 07A#BA9C0226A34C0000
(1494906257.406855) can0 082#7F08140078800000
(1494906257.406978) can0 085#7D5180004FF07D56
(1494906257.408478) can0 3A8#0100270C00000000
(1494906257.409854) can0 165#18C0000000000000
(1494906257.409867) can0 171#0400000000000000
(1494906257.409980) can0 175#0250000004000000
(1494906257.409992) can0 200#0252800080000D72
(1494906257.410105) can0 202#04EF6A5064000000
(1494906257.410117) can0 204#F4007D0000EF0000
(1494906257.410229) can0 20A#01F402EE1DF2A1F2
(1494906257.410602) can0 230#0000000000000000
(1494906257.411979) can0 091#7EF47F029E68F000
(1494906257.412105) can0 326#01A0022401D000C8
(1494906257.413730) can0 076#3E7BC18000000000
(1494906257.413743) can0 077#000007FF7FF7F1FD
(1494906257.413752) can0 07D#0000F4B0001FE7FF
(1494906257.413760) can0 213#FFFF00048011FF41
(1494906257.413769) can0 214#80000000000074B0
(1494906257.413776) can0 216#0000000082002215
(1494906257.414103) can0 217#0000000000000000
(1494906257.414230) can0 14B#76D07FFD40000000
(1494906257.414478) can0 167#80800009FFE00000
(1494906257.414728) can0 041#0000000000000000
(1494906257.414979) can0 042#0000000000000000
(1494906257.415352) can0 185#0000000000000000
(1494906257.415480) can0 242#03FD1EDBC2000001
(1494906257.415728) can0 25A#003A9C0006EB0000
(1494906257.415978) can0 07A#BA9B0226A34C0000
(1494906257.416228) can0 25C#01F402274418803D
(1494906257.416479) can0 369#0000000000000200
(1494906257.416728) can0 415#0000FCED0FFE0FFE
(1494906257.416979) can0 41D#0000E00000000000
(1494906257.417230) can0 085#7D5180005E007D56
(1494906257.417478) can0 4B0#B3000000B00000F4
(1494906257.420107) can0 05C#00EC00EC20950000
(1494906257.420120) can0 156#5900001503000000
(1494906257.420231) can0 166#0000000011F90000
(1494906257.420481) can0 178#013E01E20E4FC64F
(1494906257.420493) can0 179#19DF000000B403AD
(1494906257.420502) can0 17C#0000000000040C1B
(1494906257.420510) can0 202#04EE725064000000
(1494906257.420729) can0 204#F8007D0000EE0000
(1494906257.421109) can0 421#0400140000002E00
(1494906257.421121) can0 42D#0002992C45000000
(1494906257.421354) can0 43E#00A5100000000000
(1494906257.421603) can0 595#9500FFFFFFFFFFFF
(1494906257.424231) can0 217#0000000000000000
(1494906257.424357) can0 047#04DAEEBC10720000
(1494906257.424482) can0 14B#76D07FFD40000000
(1494906257.424605) can0 167#80800009FFE00000
(1494906257.424854) can0 25B#61F409F5E0008000
(1494906257.425104) can0 25C#01F402274418803D
(1494906257.425354) can0 410#0000000000000000
(1494906257.426730) can0 07A#BA9C0226A34C0000
(1494906257.426983) can0 082#7F08140078800000
(1494906257.426996) can0 085#7D5180005D107D56
(1494906257.429610) can0 165#18C0000000000000
(1494906257.429622) can0 175#0250000004000000
(1494906257.429733) can0 200#0252800080000F70
(1494906257.429746) can0 202#04ED7A5064000000
(1494906257.429858) can0 204#FC007D0000ED0000
(1494906257.430105) can0 20A#01F402EE1FF0A1F2
(1494906257.430355) can0 230#0000000000000000
(1494906257.430604) can0 3A8#0100270C00000000
(1494906257.433233) can0 076#3E7BC18000000000
(1494906257.433245) can0 077#000007FF7FF7F1FD
(1494906257.433358) can0 07D#0000F3C0001FF7FF
(1494906257.433370) can0 213#FFFF00048011FF41
(1494906257.433605) can0 214#80000000000073C0
(1494906257.433855) can0 216#0000000082002340
(1494906257.434105) can0 217#0000000000000000
(1494906257.434355) can0 14B#75E07FFD40000000
(1494906257.434605) can0 041#0000000000000000
(1494906257.434859) can0 042#0000000000000000
(1494906257.435105) can0 167#80800009FFE00000
(1494906257.435356) can0 185#0000000000000000
(1494906257.435482) can0 25C#01F402274418803D
(1494906257.435732) can0 07A#BA9C0226A34C0000
(1494906257.435982) can0 312#00001FFE00000000
(1494906257.436231) can0 352#0000000000000000
(1494906257.436481) can0 415#0000C0FC0FFE0FFE
(1494906257.436731) can0 41D#0000E00000000000
(1494906257.436986) can0 085#7D5180005C207D56
(1494906257.437356) can0 091#7EF37F029D6AF000
(1494906257.437482) can0 43D#000000000079022D
(1494906257.437737) can0 4B0#B3000000C00000F3
(1494906257.439233) can0 3AA#0022200000000000
(1494906257.439245) can0 171#0400000000000000
(1494906257.439255) can0 202#04FC025064000000
(1494906257.439482) can0 204#C0007D0000FC0000
(1494906257.439608) can0 3AB#128F0FF040000000
(1494906257.443485) can0 217#0000000000000000
(1494906257.443732) can0 05D#20D49CDB47000000
(1494906257.445110) can0 047#04DAEEBC10720000
(1494906257.445234) can0 14B#83007FFD40000000
(1494906257.445482) can0 167#80800009FFE00000
(1494906257.445494) can0 25B#61F409F5E0008000
(1494906257.445503) can0 25C#01F402274418803D
(1494906257.445511) can0 3B6#0800020000000000
(1494906257.445519) can0 3B7#0000000060C801CE
(1494906257.445858) can0 07A#BA9B0226A34C0000
(1494906257.446108) can0 42C#8C62000003D00000
(1494906257.446234) can0 475#0000000000004900
(1494906257.447608) can0 082#7F08140078800000
(1494906257.447621) can0 085#7D5180005B307D56
(1494906257.450236) can0 165#18C0000000000000
(1494906257.450250) can0 175#0250000004000000
(1494906257.450484) can0 200#025280008000017E
(1494906257.450497) can0 202#04FB0A5064000000
(1494906257.450506) can0 204#C4007D0000FB0000
(1494906257.450515) can0 20A#01F402EE11FEA1F2
(1494906257.450610) can0 230#0000000000000000
(1494906257.450860) can0 3A8#0100270C00000000
(1494906257.453735) can0 076#3E7BC18000000000
(1494906257.453748) can0 077#000007FF7FF7F1FD
(1494906257.453758) can0 07D#0000F2D0001FF7FF
(1494906257.453766) can0 213#FFFF00048011FF41
(1494906257.453774) can0 214#80000000000072D0
(1494906257.453781) can0 216#0000000082000000
(1494906257.454109) can0 217#0000000000000000
(1494906257.454358) can0 14B#83007FFD40000000
(1494906257.454607) can0 041#0000000000000000
(1494906257.454858) can0 042#0000000000000000
(1494906257.455108) can0 167#80800009FFE00000
(1494906257.455483) can0 185#0000000000000000
(1494906257.455609) can0 242#03FD1EDBC2000001
(1494906257.455734) can0 07A#BA9A0226A34C0000
(1494906257.455987) can0 25C#01F402274418803D
(1494906257.456233) can0 365#000001FF00008000
(1494906257.456483) can0 415#0000C4FB0FFE0FFE
(1494906257.456859) can0 416#5D00F10001000000
(1494906257.456985) can0 41D#0000E00000000000
(1494906257.457234) can0 085#7D5180005A407D56
(1494906257.457484) can0 476#00000FC20A6E07E3
(1494906257.457740) can0 4B0#B3000000D00000F2
(1494906257.459110) can0 202#04FA125064000000
(1494906257.459234) can0 204#C8007D0000FA0000
(1494906257.461862) can0 091#7EF37F04986DF000
(1494906257.463236) can0 217#0000000000000000
(1494906257.464611) can0 047#04DAEEBC10720000
(1494906257.464737) can0 14B#82107FFD40000000
(1494906257.464749) can0 167#80800009FFE00000
(1494906257.464861) can0 25B#61F409F5E0008000
(1494906257.465109) can0 25C#01F402274418803D
(1494906257.465360) can0 05A#00000009FD000000
(1494906257.465609) can0 477#0000000000000353
(1494906257.465736) can0 07A#BA9B0226A34C0000
(1494906257.467112) can0 082#7F08140078800000
(1494906257.467236) can0 085#7D51800059507D56
(1494906257.469990) can0 3A8#0100270C00000000
(1494906257.470003) can0 165#18C0000000000000
(1494906257.470012) can0 171#0400000000000000
(1494906257.470020) can0 175#0250000004000000
(1494906257.470027) can0 200#025280008000037C
(1494906257.470115) can0 202#04F91A5064000000
(1494906257.470237) can0 204#CC007D0000F90000
(1494906257.470485) can0 20A#01F402EE13FCA1F2
(1494906257.470736) can0 230#0000000000000000
(1494906257.470988) can0 411#0000500000000000
(1494906257.471235) can0 092#6FA46F917373AF6E
(1494906257.471484) can0 43E#00A5100000000000
(1494906257.474237) can0 076#3E7BC18000000000
(1494906257.474250) can0 077#000008007FF7F1FD
(1494906257.474259) can0 07D#0000F1E0001FF7FF
(1494906257.474267) can0 213#FFFF00048011FF41
(1494906257.474275) can0 214#80000000000071E0
(1494906257.474364) can0 216#0000000082000100
(1494906257.474487) can0 217#0000000000000000
(1494906257.474737) can0 14B#82107FFD40000000
(1494906257.474990) can0 167#80800009FFE00000
(1494906257.475112) can0 041#0000000000000000
(1494906257.475486) can0 042#0000000000000000
(1494906257.475612) can0 185#0000000000000000
(1494906257.475738) can0 25C#01F402274418803D
(1494906257.475987) can0 07A#BA9B0226A34C0000
(1494906257.476236) can0 366#00000000003FF800
(1494906257.476362) can0 415#0000C8FA0FFE0FFE
(1494906257.476737) can0 41D#0000E00000000000
(1494906257.476862) can0 083#0000000000000000
(1494906257.476987) can0 085#7D51800058607D56
(1494906257.477235) can0 440#0000000000000000
(1494906257.477486) can0 4B0#B3000000E00000F1
(1494906257.480114) can0 336#03FE000000000400
(1494906257.480363) can0 202#04F8225064000000
(1494906257.480376) can0 04A#0200000000000000
(1494906257.480385) can0 04B#00C0D8D8D8D8C000
(1494906257.480393) can0 04C#20AFFFC000000000
(1494906257.480401) can0 204#D0007D0000F80000
(1494906257.482991) can0 3E0#0000000080000000
(1494906257.483237) can0 217#0000000000000000
(1494906257.484615) can0 047#04DAEEBC10720000
(1494906257.484740) can0 14B#80307FFD40000000
(1494906257.484752) can0 167#80800009FFE00000
(1494906257.484872) can0 25B#61F409F5E0008000
(1494906257.485116) can0 25C#01F402274418803D
(1494906257.485362) can0 471#FFE0007F9FE7F9FE
(1494906257.485612) can0 43D#000000000079022C
(1494906257.485738) can0 07A#BA9B0226A34C0000
(1494906257.485990) can0 091#7EF47F01986FF000
(1494906257.487364) can0 082#7F08140078800000
(1494906257.487376) can0 085#7D51800057707D56
(1494906257.488860) can0 3A8#0100270C00000000
(1494906257.488873) can0 165#18C0000000000000
(1494906257.489107) can0 175#0250000004000000
(1494906257.489358) can0 200#025280008000057A
(1494906257.489608) can0 202#04F72A5064000000
(1494906257.489858) can0 204#D4007D0000F70000
(1494906257.490108) can0 20A#01F402EE15FAA1F2
(1494906257.490358) can0 230#0000000000000000
(1494906257.490608) can0 332#0000000000000000
(1494906257.491985) can0 37B#1A04000000000000
(1494906257.492110) can0 430#030001E777013290
(1494906257.492236) can0 434#227F14000FFF0003
(1494906257.492248) can0 435#7C70189E7C000100
(1494906257.492608) can0 076#3E7BC18000000000
(1494906257.492858) can0 077#000007FF7FF7F5FD
(1494906257.493108) can0 07D#0000F0F0001FF7FF
(1494906257.493359) can0 3DA#0100000000000000
(1494906257.493608) can0 213#FFFF00048011FF41
(1494906257.493736) can0 214#80000000000070F0
(1494906257.493985) can0 216#00000000820002FA
(1494906257.494234) can0 14B#7E507FFD40000000
(1494906257.494483) can0 167#80800009FFE00000
(1494906257.494736) can0 041#0000000000000000
(1494906257.495109) can0 042#0000000000000000
(1494906257.495234) can0 185#0000000000000000
(1494906257.495483) can0 217#0000000000000000
(1494906257.495734) can0 07A#BA9B0226A34C0000
(1494906257.495984) can0 242#03FD1EDBC2000001
(1494906257.496233) can0 24A#00960000008C0000
(1494906257.496484) can0 24B#02C00184015002F4
(1494906257.496734) can0 24C#43A0870CCE001300
(1494906257.496984) can0 25C#01F402274418803D
(1494906257.497233) can0 2E4#0000000000000000
(1494906257.497484) can0 367#0000000000000000
(1494906257.497611) can0 40A#C1023130353736FF
(1494906257.497865) can0 415#0000CCF90FFE0FFE
(1494906257.498115) can0 41D#0000E00000000000
(1494906257.498363) can0 085#7D51800056807D56
(1494906257.498614) can0 42C#8C62000003D00000
(1494906257.498866) can0 171#0400000000000000
(1494906257.499114) can0 202#04F6325064000000
(1494906257.499364) can0 204#D8007D0000F60000
(1494906257.499614) can0 455#0000000000000000
(1494906257.499863) can0 474#00000003660000AE
(1494906257.500114) can0 4B0#B3000000F00000F0
(1494906257.502740) can0 333#0000000000000000
(1494906257.502866) can0 217#0000000000000000
(1494906257.504365) can0 047#04DAEEBC10720000
(1494906257.504378) can0 14B#7E507FFD40000000
(1494906257.504617) can0 167#80800009FFE00000
(1494906257.504865) can0 25B#61F409F5E0008000
(1494906257.505115) can0 25C#01F402274418803D
(1494906257.505489) can0 368#000001FF00000000
(1494906257.505864) can0 07A#BA9B0226A34C0000
(1494906257.507240) can0 082#7F08140078800000
(1494906257.507253) can0 085#7D51800055907D56
(1494906257.509868) can0 165#18C0000000000000
(1494906257.509881) can0 175#0250000004000000
(1494906257.510241) can0 200#0252800080000778
(1494906257.510253) can0 202#04F53A5064000000
(1494906257.510263) can0 204#DC007D0000F50000
(1494906257.510271) can0 20A#01F402EE17F8A1F2
(1494906257.510278) can0 230#0000000000000000
(1494906257.510491) can0 3A8#0100270C00000000
(1494906257.511990) can0 091#7EF47EFF9872F000
(1494906257.513491) can0 076#3E7BC18000000000
(1494906257.513504) can0 077#000007FF7FF7F1FC
(1494906257.513514) can0 07D#0000FF00001FF7FF
(1494906257.513522) can0 213#FFFF00048011FF41
(1494906257.513529) can0 214#8000000000007F00
(1494906257.513867) can0 216#00000000820003B3
(1494906257.513992) can0 217#0000000000000000
(1494906257.514240) can0 14B#7D607FFD40000000
(1494906257.514491) can0 167#80800009FFE00000
(1494906257.514741) can0 041#0000000000000000
(1494906257.514995) can0 042#0000000000000000
(1494906257.515240) can0 185#0000000000000000
(1494906257.515491) can0 25A#003A9C0006EB0000
(1494906257.515741) can0 07A#BA9C0226A34C0000
(1494906257.515992) can0 25C#01F402274418803D
(1494906257.516240) can0 326#01A0022401D000C8
(1494906257.516490) can0 369#0000000000000200
(1494906257.516741) can0 415#0000D0F80FFE0FFE
(1494906257.516995) can0 41D#0000E00000000000
(1494906257.517241) can0 085#7D51800054A07D56
(1494906257.517491) can0 4B0#B3000000000000FF
(1494906257.520119) can0 05C#008C00F220950000
(1494906257.520132) can0 156#5900001503000000
(1494906257.520368) can0 166#0000000011F90000
(1494906257.520381) can0 178#013E01E20E4FC64F
(1494906257.520390) can0 179#19DF000000B403AD
(1494906257.520398) can0 17C#0000000000040C1B
(1494906257.520494) can0 202#04F4425064000000
(1494906257.520741) can0 204#E0007D0000F40000
(1494906257.520992) can0 421#0400140000002E00
(1494906257.521118) can0 42D#0002992C45000000
(1494906257.521366) can0 43E#00A5100000000000
(1494906257.522743) can0 35E#00C0001498600000
(1494906257.522871) can0 217#0000000000000000
(1494906257.524368) can0 047#04DAEEBC10720000
(1494906257.524381) can0 14B#7B807FFD40000000
(1494906257.524616) can0 167#80800009FFE00000
(1494906257.524867) can0 25B#61F409F5E0008000
(1494906257.525117) can0 25C#01F402274418803D
(1494906257.525367) can0 410#0000000000000000
(1494906257.526869) can0 07A#BA9C0226A34C0000
(1494906257.526881) can0 082#7F08140078800000
(1494906257.526891) can0 085#7D51800053B07D56
(1494906257.529496) can0 3A8#0100270C00000000
(1494906257.529508) can0 165#18C0000000000000
(1494906257.529619) can0 171#0400000000000000
(1494906257.529745) can0 175#0250000004000000
(1494906257.529758) can0 200#0252800080000976
(1494906257.529992) can0 202#04F34A5064000000
(1494906257.530243) can0 204#E4007D0000F30000
(1494906257.530495) can0 20A#01F402EE19F6A1F2
(1494906257.530743) can0 230#0000000000000000
(1494906257.533618) can0 076#3E7BC18000000000
(1494906257.533632) can0 077#000007FF7FF7F1FD
(1494906257.533641) can0 07D#0000FE10002007FF
(1494906257.533649) can0 213#FFFF00048011FF41
(1494906257.533657) can0 214#8000000000007E10
(1494906257.533745) can0 216#0000000082000448
(1494906257.534118) can0 217#0000000000000000
(1494906257.534245) can0 14B#7B807FFD40000000
(1494906257.534618) can0 041#0000000000000000
(1494906257.534745) can0 042#0000000000000000
(1494906257.534994) can0 167#80800009FFE00000
(1494906257.535244) can0 185#0000000000000000
(1494906257.535494) can0 242#03FD1EDBC2000001
(1494906257.535744) can0 25C#01F402274418803D
(1494906257.535997) can0 07A#BA9B0226A34C0000
(1494906257.536243) can0 312#00001FFE00000000
(1494906257.536493) can0 415#0000D4F70FFE0FFE
(1494906257.536744) can0 41D#0000E00000000000
(1494906257.536994) can0 085#7D51800052C07D56
(1494906257.537243) can0 091#7EF47EFF9674F000
(1494906257.537493) can0 43D#000000000079022D
(1494906257.537750) can0 472#0000000000000000
(1494906257.537993) can0 4B0#B3000000100000FE
(1494906257.539495) can0 202#04F2525064000000
(1494906257.539507) can0 204#E8007D0000F20000
(1494906257.543371) can0 217#0000000000000000
(1494906257.544746) can0 05D#20D484DB4D000000
(1494906257.544759) can0 047#04DAEEBC10720000
(1494906257.544872) can0 14B#7A907FFD40000000
(1494906257.544996) can0 167#80800009FFE00000
(1494906257.545009) can0 25B#61F409F5E0008000
(1494906257.545121) can0 25C#01F402274418803D
(1494906257.545370) can0 42C#8C62000003D00000
(1494906257.545620) can0 473#0000000000000000
(1494906257.545869) can0 07A#BA9C0226A34C0000
(1494906257.547372) can0 082#7F08140078800000
(1494906257.547385) can0 085#7D51800051D07D56
(1494906257.550123) can0 3A8#0100270C00000000
(1494906257.550136) can0 165#18C0000000000000
(1494906257.550145) can0 175#0250000004000000
(1494906257.550153) can0 200#0252800080000B74
(1494906257.550248) can0 202#04F15A5064000000
(1494906257.550258) can0 204#EC007D0000F10000
(1494906257.550372) can0 20A#01F402EE1BF4A1F2
(1494906257.550620) can0 230#0000000000000000
(1494906257.553246) can0 076#3E7BC18000000000
(1494906257.553259) can0 077#000007FE7FF7F1FE
(1494906257.553373) can0 07D#0000FD20001FF7FF
(1494906257.553385) can0 213#FFFF00048011FF41
(1494906257.553621) can0 214#8000000000007D20
(1494906257.553871) can0 216#0000000082000547
(1494906257.554120) can0 217#0000000000000000
(1494906257.554370) can0 14B#7A907FFD40000000
(1494906257.554620) can0 041#0000000000000000
(1494906257.554874) can0 042#0000000000000000
(1494906257.555121) can0 167#80800009FFE00000
(1494906257.555371) can0 185#0000000000000000
(1494906257.555621) can0 25C#01F402274418803D
(1494906257.555747) can0 07A#BA9C0226A34C0000
(1494906257.555997) can0 365#000001FF00008000
(1494906257.556246) can0 415#0000D8F60FFE0FFE
(1494906257.556496) can0 416#5E00F00001000000
(1494906257.556747) can0 41D#0000E00000000000
(1494906257.556998) can0 085#7D51800050E07D56
(1494906257.557370) can0 4B0#B3000000200000FD
(1494906257.560000) can0 171#0400000000000000
(1494906257.560013) can0 202#04F0625064000000
(1494906257.560123) can0 204#F0007D0000F00000
(1494906257.561497) can0 091#7EF47EFE9477F000
(1494906257.564123) can0 217#0000000000000000
(1494906257.564374) can0 047#04DAEEBC10720000
(1494906257.564387) can0 14B#78B07FFD40000000
(1494906257.564622) can0 167#80800009FFE00000
(1494906257.564881) can0 25B#61F409F5E0008000
(1494906257.565126) can0 25C#01F402274418803D
(1494906257.565371) can0 05A#00000009F3A00000
(1494906257.566875) can0 07A#BA9C0226A34C0000
(1494906257.566887) can0 082#7F08140078800000
(1494906257.566897) can0 085#7D5180004FF07D56
(1494906257.568250) can0 3A8#0100270C00000000
(1494906257.569624) can0 165#18C0000000000000
(1494906257.569636) can0 175#0250000004000000
(1494906257.569751) can0 200#0252800080000D72
(1494906257.569764) can0 202#04EF6A5064000000
(1494906257.569773) can0 204#F4007D0000EF0000
(1494906257.569998) can0 20A#01F402EE1DF2A1F2
(1494906257.570248) can0 230#0000000000000000
(1494906257.570498) can0 411#0000500000000000
(1494906257.570749) can0 43E#00A5100000000000
(1494906257.573500) can0 076#3E7BC18000000000
(1494906257.573514) can0 077#000007FF7FF7F1FE
(1494906257.573523) can0 07D#0000FC30001FE7FF
(1494906257.573532) can0 213#FFFF00048011FF41
(1494906257.573539) can0 214#8000000000007C30
(1494906257.573875) can0 216#0000000082000639
(1494906257.574123) can0 217#0000000000000000
(1494906257.574373) can0 14B#76D07FFD40000000
(1494906257.574623) can0 041#0000000000000000
(1494906257.574874) can0 042#0000000000000000
(1494906257.575123) can0 167#80800009FFE00000
(1494906257.575373) can0 185#0000000000000000
(1494906257.575499) can0 242#03FD1EDBC2000001
(1494906257.575748) can0 07A#BA9B0226A34C0000
(1494906257.575999) can0 25C#01F402274418803D
(1494906257.576251) can0 366#00000000003FF800
(1494906257.576499) can0 415#0000DCF50FFE0FFE
(1494906257.576748) can0 41D#0000E00000000000
(1494906257.576999) can0 083#0000000000000000
(1494906257.577249) can0 085#7D5180005E007D56
(1494906257.577498) can0 092#6FA36F927371A778
(1494906257.577755) can0 4B0#B3000000300000FC
(1494906257.579249) can0 202#04EE725064000000
(1494906257.579262) can0 204#F8007D0000EE0000
(1494906257.579498) can0 04A#0200000000000000
(1494906257.579749) can0 04B#00C0D8D8D8D8C000
(1494906257.580000) can0 04C#20AFFFC000000000
(1494906257.583878) can0 217#0000000000000000
(1494906257.584125) can0 047#04DAEEBC10720000
(1494906257.584375) can0 14B#76D07FFD40000000
(1494906257.584625) can0 167#80800009FFE00000
(1494906257.584875) can0 25B#61F409F5E0008000
(1494906257.585125) can0 25C#01F402274418803D
(1494906257.585252) can0 091#7EF47F028D79F000
(1494906257.585625) can0 352#0000000000000000
(1494906257.585750) can0 07A#BA9C0226A34C0000
(1494906257.586000) can0 43D#000000000079022C
(1494906257.587376) can0 082#7F08140078800000
(1494906257.587389) can0 085#7D5180005D107D56
(1494906257.590003) can0 165#18C0000000000000
(1494906257.590251) can0 171#0400000000000000
(1494906257.590263) can0 175#0250000004000000
(1494906257.590272) can0 200#0252800080000F70
(1494906257.590280) can0 202#04ED7A5064000000
(1494906257.590288) can0 204#FC007D0000ED0000
(1494906257.590378) can0 20A#01F402EE1FF0A1F2
(1494906257.590626) can0 230#0000000000000000
(1494906257.590876) can0 332#0000000000000000
(1494906257.591001) can0 3A8#0100270C00000000
(1494906257.591250) can0 37B#1904000000000000
(1494906257.591500) can0 430#070001E777013690
(1494906257.591751) can0 434#227F14000FFF0007
(1494906257.592001) can0 435#282010D67C000100
(1494906257.593502) can0 076#3E7BC18000000000
(1494906257.593515) can0 077#000007FF7FF7F1FD
(1494906257.593524) can0 07D#0000FB40001FF7FF
(1494906257.593532) can0 213#FFFF00048011FF41
(1494906257.593541) can0 214#8000000000007B40
(1494906257.593751) can0 216#0000000082000743
(1494906257.594004) can0 217#0000000000000000
(1494906257.594251) can0 14B#75E07FFD40000000
(1494906257.594501) can0 167#80800009FFE00000
(1494906257.594751) can0 041#0000000000000000
(1494906257.595127) can0 042#0000000000000000
(1494906257.595252) can0 185#0000000000000000
(1494906257.595501) can0 25C#01F402274418803D
(1494906257.595752) can0 07A#BA9B0226A34C0000
(1494906257.596001) can0 24A#00960000008C0000
(1494906257.596251) can0 24B#02C00184015002F4
(1494906257.596501) can0 24C#43A0870CCE001300
(1494906257.596750) can0 2E4#0000000000000000
(1494906257.597005) can0 367#0000000000000000
(1494906257.597251) can0 415#0000E0F40FFE0FFE
(1494906257.597501) can0 41D#0000E00000000000
(1494906257.597753) can0 085#7D5180005C207D56
(1494906257.598003) can0 42C#8C62000003D00000
(1494906257.598251) can0 455#0000000000000000
(1494906257.598500) can0 4B0#B3000000400000FB
(1494906257.599879) can0 202#04FC025064000000
(1494906257.599891) can0 204#C0007D0000FC0000
(1494906257.601252) can0 333#0000000000000000
(1494906257.604003) can0 217#0000000000000000
(1494906257.604129) can0 047#04DAEEBC10720000
(1494906257.604378) can0 14B#83007FFD40000000
(1494906257.604627) can0 167#80800009FFE00000
(1494906257.604876) can0 25B#61F409F5E0008000
(1494906257.605127) can0 25C#01F402274418803D
(1494906257.605377) can0 368#000001FF00000000
(1494906257.606754) can0 07A#BA9C0226A34C0000
(1494906257.606880) can0 082#7F08140078800000
(1494906257.606892) can0 085#7D5180005B307D56
(1494906257.609505) can0 456#8000000000000000
(1494906257.609518) can0 165#18C0000000000000
(1494906257.609753) can0 175#0250000004000000
(1494906257.609765) can0 200#025280008000017E
(1494906257.609775) can0 202#04FB0A5064000000
(1494906257.609783) can0 204#C4007D0000FB0000
(1494906257.610003) can0 20A#01F402EE11FEA1F2
(1494906257.610253) can0 230#0000000000000000
(1494906257.610504) can0 3A8#0100270C00000000
(1494906257.610753) can0 482#1E1E3E3E3E1E3E1E
(1494906257.611006) can0 484#0000000000000000
(1494906257.611253) can0 483#0000003E1E1F0F1F
(1494906257.611502) can0 091#7EF47F03897CF000
(1494906257.611878) can0 446#0000000000000000
(1494906257.612005) can0 485#FBEFE0FF0FFFBFFE
(1494906257.612253) can0 486#0E0000003E1E1E3E
(1494906257.612503) can0 488#0000000000000000
(1494906257.612754) can0 076#3E7BC18000000000
(1494906257.613007) can0 077#000008007FF7F5FD
(1494906257.613379) can0 07D#0000FA50001FF7FF
(1494906257.613504) can0 213#FFFF00048011FF41
(1494906257.613754) can0 214#8000000000007A50
(1494906257.614005) can0 216#000000008200082D
(1494906257.614254) can0 14B#83007FFD40000000
(1494906257.614503) can0 167#80800009FFE00000
(1494906257.614754) can0 041#0000000000000000
(1494906257.615003) can0 042#0000000000000000
(1494906257.615255) can0 185#0000000000000000
(1494906257.615503) can0 217#0000000000000000
(1494906257.615754) can0 242#03FD1EDBC2000001
(1494906257.616007) can0 07A#BA9C0226A34C0000
(1494906257.616254) can0 25A#003A9C0006EB0000
(1494906257.616380) can0 25C#01F402274418803D
(1494906257.616629) can0 326#01A0022401D000C8
(1494906257.616879) can0 369#0000000000000200
(1494906257.617129) can0 085#7D5180005A407D56
(1494906257.617378) can0 415#0000E4F30FFE0FFE
(1494906257.617663) can0 41D#0000E00000000000
(1494906257.617880) can0 4B0#B3000000500000FA
(1494906257.619257) can0 05C#002C00F820950000
(1494906257.619270) can0 156#5900001503000000
(1494906257.619382) can0 166#0000000011F90000
(1494906257.619629) can0 171#0400000000000000
(1494906257.619880) can0 178#013E01E20E4FC64F
(1494906257.620129) can0 179#19DF000000B403AD
(1494906257.620379) can0 17C#0000000000040C1B
(1494906257.620630) can0 202#04FA125064000000
(1494906257.620879) can0 204#C8007D0000FA0000
(1494906257.621129) can0 421#0400140000002E00
(1494906257.621379) can0 42D#0002992C45000000
(1494906257.621505) can0 43E#00A5100000000000
(1494906257.624131) can0 217#0000000000000000
(1494906257.624257) can0 047#04DAEEBC10720000
(1494906257.624381) can0 14B#82107FFD40000000
(1494906257.624629) can0 167#80800009FFE00000
(1494906257.624879) can0 25B#61F409F5E0008000
(1494906257.625130) can0 25C#01F402274418803D
(1494906257.625379) can0 410#0000000000000000
(1494906257.626758) can0 07A#BA9B0226A34C0000
(1494906257.626884) can0 082#7F08140078800000
(1494906257.627008) can0 085#7D51800059507D56
(1494906257.629759) can0 3A8#0100270C00000000
(1494906257.629773) can0 165#18C0000000000000
(1494906257.629781) can0 175#0250000004000000
(1494906257.629789) can0 200#025280008000037C
(1494906257.629797) can0 202#04F91A5064000000
(1494906257.629884) can0 204#CC007D0000F90000
(1494906257.630131) can0 20A#01F402EE13FCA1F2
(1494906257.630380) can0 230#0000000000000000
(1494906257.634381) can0 076#3E7BC18000000000
(1494906257.634394) can0 077#000007FF7FF7F1FE
(1494906257.634403) can0 07D#0000F960001FF7FF
(1494906257.634509) can0 213#FFFF00048011FF41
(1494906257.634521) can0 214#8000000000007960
(1494906257.634530) can0 216#0000000082000931
(1494906257.634633) can0 217#0000000000000000
(1494906257.634884) can0 14B#82107FFD40000000
(1494906257.635132) can0 167#80800009FFE00000
(1494906257.635381) can0 041#0000000000000000
(1494906257.635507) can0 042#0000000000000000
(1494906257.635757) can0 185#0000000000000000
(1494906257.635882) can0 25C#01F402274418803D
(1494906257.636131) can0 07A#BA9C0226A34C0000
(1494906257.636381) can0 312#00001FFE00000000
(1494906257.636508) can0 415#0000E8F20FFE0FFE
(1494906257.636756) can0 41D#0000E00000000000
(1494906257.637007) can0 091#7EEF7F008F7EF000
(1494906257.637133) can0 085#7D51800058607D56
(1494906257.637381) can0 43D#000000000079022C
(1494906257.637509) can0 4B0#B3000000600000F9
(1494906257.640382) can0 202#04F8225064000000
(1494906257.640395) can0 204#D0007D0000F80000
(1494906257.640405) can0 3AA#0022200000000000
(1494906257.640413) can0 3AB#128F0FF040000000
(1494906257.644258) can0 217#0000000000000000
(1494906257.644385) can0 05D#20D4ACDB43000000
(1494906257.644509) can0 047#04DAEEBC10720000
(1494906257.644522) can0 14B#80307FFD40000000
(1494906257.644633) can0 167#80800009FFE00000
(1494906257.644890) can0 25B#61F409F5E0008000
(1494906257.645135) can0 25C#01F402274418803D
(1494906257.645381) can0 42C#8C62000003D00000
(1494906257.646759) can0 07A#BA9B0226A34C0000
(1494906257.646886) can0 082#7F08140078800000
(1494906257.646898) can0 085#7D51800057707D56
(1494906257.648384) can0 3A8#0100270C00000000
(1494906257.649759) can0 165#18C0000000000000
(1494906257.650009) can0 171#0400000000000000
(1494906257.650021) can0 175#0250000004000000
(1494906257.650030) can0 200#025280008000057A
(1494906257.650038) can0 202#04F72A5064000000
(1494906257.650046) can0 204#D4007D0000F70000
(1494906257.650258) can0 20A#01F402EE15FAA1F2
(1494906257.650632) can0 230#0000000000000000
(1494906257.653384) can0 076#3E7BC18000000000
(1494906257.653397) can0 077#000007FF7FF7F1FE
(1494906257.653407) can0 07D#0000F870001FF7FF
(1494906257.653414) can0 213#FFFF00048011FF41
(1494906257.653510) can0 214#8000000000007870
(1494906257.653885) can0 216#0000000082000A34
(1494906257.654134) can0 217#0000000000000000
(1494906257.654259) can0 14B#7E507FFD40000000
(1494906257.654508) can0 167#80800009FFE00000
(1494906257.654759) can0 041#0000000000000000
(1494906257.655009) can0 042#0000000000000000
(1494906257.655258) can0 185#0000000000000000
(1494906257.655509) can0 242#03FD1EDBC2000001
(1494906257.655759) can0 07A#BA9C0226A34C0000
(1494906257.656009) can0 25C#01F402274418803D
(1494906257.656259) can0 365#000001FF00008000
(1494906257.656508) can0 415#0000ECF10FFE0FFE
(1494906257.656760) can0 416#5F00EF0001000000
(1494906257.657009) can0 41D#0000E00000000000
(1494906257.657258) can0 085#7D51800056807D56
(1494906257.657508) can0 4B0#B3000000700000F8
(1494906257.660136) can0 202#04F6325064000000
(1494906257.660149) can0 204#D8007D0000F60000
(1494906257.661636) can0 091#7EF37F038581F000
(1494906257.664261) can0 217#0000000000000000
(1494906257.664387) can0 047#04DAEEBC10720000
(1494906257.664400) can0 14B#7E507FFD40000000
(1494906257.664635) can0 167#80800009FFE00000
(1494906257.665010) can0 25B#61F409F5E0008000
(1494906257.665135) can0 05A#00000009F9400000
(1494906257.665384) can0 25C#01F402274418803D
(1494906257.666763) can0 07A#BA9C0226A34C0000
(1494906257.666890) can0 082#7F08140078800000
(1494906257.666903) can0 085#7D51800055907D56
(1494906257.669761) can0 165#18C0000000000000
(1494906257.669773) can0 175#0250000004000000
(1494906257.669783) can0 200#0252800080000778
(1494906257.669791) can0 202#04F53A5064000000
(1494906257.669798) can0 204#DC007D0000F50000
(1494906257.670013) can0 20A#01F402EE17F8A1F2
(1494906257.670386) can0 230#0000000000000000
(1494906257.670512) can0 3A8#0100270C00000000
(1494906257.670761) can0 411#0000500000000000
(1494906257.671010) can0 43E#00A5100000000000
(1494906257.673638) can0 076#3E7BC18000000000
(1494906257.673651) can0 077#000007FF7FF7F1FD
(1494906257.673887) can0 07D#0000F780001FF7FF
(1494906257.673900) can0 213#FFFF00048011FF41
(1494906257.673909) can0 214#8000000000007780
(1494906257.673916) can0 216#0000000082000B43
(1494906257.674136) can0 217#0000000000000000
(1494906257.674262) can0 14B#7D607FFD40000000
(1494906257.674511) can0 167#80800009FFE00000
(1494906257.674761) can0 041#0000000000000000
(1494906257.675014) can0 042#0000000000000000
(1494906257.675261) can0 185#0000000000000000
(1494906257.675511) can0 25C#01F402274418803D
(1494906257.675762) can0 366#00000000003FF800
(1494906257.676012) can0 07A#BA9B0226A34C0000
(1494906257.676262) can0 415#0000F0F00FFE0FFE
(1494906257.676511) can0 41D#0000E00000000000
(1494906257.676762) can0 083#0000000000000000
(1494906257.677015) can0 085#7D51800054A07D56
(1494906257.677261) can0 4B0#B3000000800000F7
(1494906257.680140) can0 171#0400000000000000
(1494906257.680153) can0 04A#0200000000000000
(1494906257.680162) can0 04B#00C0D8D8D8D8C000
(1494906257.680170) can0 04C#20AFFFC000000000
(1494906257.680178) can0 202#04F4425064000000
(1494906257.680262) can0 204#E0007D0000F40000
(1494906257.682890) can0 092#6FA26F9373749983
(1494906257.683018) can0 217#0000000000000000
(1494906257.684388) can0 047#04DAEEBC10720000
(1494906257.684514) can0 14B#7B807FFD40000000
(1494906257.684638) can0 167#80800009FFE00000
(1494906257.684887) can0 25B#61F409F5E0008000
(1494906257.685137) can0 25C#01F402274418803D
(1494906257.685264) can0 091#7EF47EFE8883F000
(1494906257.685513) can0 43D#000000000079022C
(1494906257.685763) can0 581#8100FFFFFFFFFFFF
(1494906257.686015) can0 07A#BA9C0226A34C0000
(1494906257.687514) can0 082#7F08140078800000
(1494906257.687527) can0 085#7D51800053B07D56
(1494906257.690142) can0 165#18C0000000000000
(1494906257.690154) can0 175#0250000004000000
(1494906257.690260) can0 200#0252800080000976
(1494906257.690273) can0 202#04F34A5064000000
(1494906257.690385) can0 204#E4007D0000F30000
(1494906257.690397) can0 20A#01F402EE19F6A1F2
(1494906257.690510) can0 230#0000000000000000
(1494906257.690759) can0 332#0000000000000000
(1494906257.691012) can0 3A8#0100270C00000000
(1494906257.691135) can0 37B#1A04000000000000
(1494906257.691384) can0 430#030001E777013290
(1494906257.691633) can0 434#227F14000FFF0003
(1494906257.691882) can0 435#2820189E7C080100
(1494906257.693385) can0 076#3E7BC18000000000
(1494906257.693398) can0 077#000007FF7FF7F1FD
(1494906257.693407) can0 07D#0000F690001FF7FF
(1494906257.693512) can0 213#FFFF00048011FF41
(1494906257.693524) can0 214#8000000000007690
(1494906257.693760) can0 216#0000000082000C36
(1494906257.694011) can0 217#0000000000000000
(1494906257.694258) can0 14B#7B807FFD40000000
(1494906257.694509) can0 167#80800009FFE00000
(1494906257.694760) can0 041#0000000000000000
(1494906257.695009) can0 042#0000000000000000
(1494906257.695258) can0 185#0000000000000000
(1494906257.695509) can0 242#03FD1EDBC2000001
(1494906257.695759) can0 25C#01F402274418803D
(1494906257.696012) can0 07A#BA9B0226A34C0000
(1494906257.696259) can0 24A#00960000008C0000
(1494906257.696508) can0 24B#02C00184015002F4
(1494906257.696635) can0 24C#43A0870CCE001300
(1494906257.697009) can0 2E4#0000000000000000
(1494906257.697135) can0 367#0000000000000000
(1494906257.697508) can0 38D#2000000060000000
(1494906257.697692) can0 3B6#0800030000000000
(1494906257.697890) can0 3B7#0000010060C80084
(1494906257.698139) can0 3B8#FFFFFFFF00000000
(1494906257.698389) can0 3E2#0000000080000000
(1494906257.698639) can0 3E3#0001041580010000
(1494906257.699017) can0 202#04F2525064000000
(1494906257.699141) can0 204#E8007D0000F20000
(1494906257.699388) can0 3EA#0000000000006000
(1494906257.699638) can0 3EB#1F04140803200000
(1494906257.699889) can0 40A#C104010107CC70C1
(1494906257.700140) can0 415#0000F4EF0FFE0FFE
(1494906257.700514) can0 41D#0000E00000000000
(1494906257.700640) can0 085#7D51800052C07D56
(1494906257.700889) can0 42C#8C62000003D00000
(1494906257.701139) can0 43C#2F815A3837DDB014
(1494906257.701389) can0 447#2200004B00000000
(1494906257.701640) can0 455#0000000000000000
(1494906257.701891) can0 4B0#B3000000900000F6
(1494906257.702018) can0 333#0000000000000000
(1494906257.703390) can0 217#0000000000000000
(1494906257.704766) can0 047#04DAEEBC10720000
(1494906257.704892) can0 14B#7A907FFD40000000
(1494906257.704905) can0 167#80800009FFE00000
(1494906257.705017) can0 25B#61F409F5E0008000
(1494906257.705029) can0 25C#01F402274418803D
(1494906257.705388) can0 368#000001FF00000000
(1494906257.706765) can0 07A#BA9B0226A34C0000
(1494906257.706894) can0 082#7F08140078800000
(1494906257.706907) can0 085#7D51800051D07D56
(1494906257.709768) can0 3A8#0100270C00000000
(1494906257.709781) can0 165#18C0000000000000
(1494906257.709790) can0 171#0400000000000000
(1494906257.709798) can0 175#0250000004000000
(1494906257.709806) can0 200#0252800080000B74
(1494906257.709814) can0 202#04F15A5064000000
(1494906257.710140) can0 204#EC007D0000F10000
(1494906257.710390) can0 20A#01F402EE1BF4A1F2
(1494906257.710640) can0 230#0000000000000000
(1494906257.712020) can0 091#7EEE7F008886F000
(1494906257.713393) can0 076#3E7BC18000000000
(1494906257.713642) can0 077#000007FF7FF7F1FE
(1494906257.713654) can0 07D#0000F5A0001FF7FF
(1494906257.713664) can0 213#FFFF00048011FF41
(1494906257.713672) can0 214#80000000000075A0
(1494906257.713767) can0 216#0000000082000D30
(1494906257.714016) can0 217#0000000000000000
(1494906257.714391) can0 14B#7A907FFD40000000
(1494906257.714516) can0 167#80800009FFE00000
(1494906257.714766) can0 041#0000000000000000
(1494906257.715020) can0 042#0000000000000000
(1494906257.715267) can0 185#0000000000000000
(1494906257.715518) can0 25A#003A9C0006EB0000
(1494906257.715767) can0 07A#BA9B0226A34C0000
(1494906257.716017) can0 25C#01F402274418803D
(1494906257.716266) can0 326#01A0022401D000C8
(1494906257.716516) can0 369#0000000000000200
(1494906257.716766) can0 415#0000F8EE0FFE0FFE
(1494906257.717017) can0 41D#0000E00000000000
(1494906257.717266) can0 085#7D51800050E07D56
(1494906257.717393) can0 4B0#B3000000A00000F5
(1494906257.720020) can0 05C#00CC00EE20950000
(1494906257.720032) can0 156#5900001503000000
(1494906257.720144) can0 166#0000000011F90000
(1494906257.720157) can0 178#013E01E20E4FC64F
(1494906257.720270) can0 179#19DF000000B403AD
(1494906257.720283) can0 17C#0000000000040C1B
(1494906257.720393) can0 202#04F0625064000000
(1494906257.720642) can0 204#F0007D0000F00000
(1494906257.720892) can0 421#0400140000002E00
(1494906257.721019) can0 42D#0002992C45000000
(1494906257.721268) can0 43E#00A5100000000000
(1494906257.723893) can0 217#0000000000000000
(1494906257.724143) can0 047#04DAEEBC10720000
(1494906257.724393) can0 14B#78B07FFD40000000
(1494906257.724642) can0 167#80800009FFE00000
(1494906257.724900) can0 25B#61F409F5E0008000
(1494906257.725145) can0 25C#01F402274418803D
(1494906257.725391) can0 410#0000000000000000
(1494906257.726769) can0 07A#BA9C0226A34C0000
(1494906257.726895) can0 082#7F08140078800000
(1494906257.726908) can0 085#7D5180004FF07D56
(1494906257.728517) can0 3A8#0100270C00000000
(1494906257.728892) can0 165#18C0000000000000
(1494906257.729142) can0 175#0250000004000000
(1494906257.729269) can0 200#0252800080000D72
(1494906257.729519) can0 202#04EF6A5064000000
(1494906257.729768) can0 204#F4007D0000EF0000
(1494906257.730143) can0 20A#01F402EE1DF2A1F2
(1494906257.730270) can0 230#0000000000000000
(1494906257.734271) can0 076#3E7BC18000000000
(1494906257.734284) can0 077#000007FF7FF7F1FE
(1494906257.734294) can0 07D#0000F4B0001FE7FF
(1494906257.734305) can0 213#FFFF00048011FF41
(1494906257.734397) can0 214#80000000000074B0
(1494906257.734407) can0 216#0000000082000E32
(1494906257.734520) can0 217#0000000000000000
(1494906257.734769) can0 14B#76D07FFD40000000
(1494906257.735019) can0 167#80800009FFE00000
(1494906257.735145) can0 041#0000000000000000
(1494906257.735394) can0 042#0000000000000000
(1494906257.735643) can0 185#0000000000000000
(1494906257.735770) can0 242#03FD1EDBC2000001
(1494906257.736019) can0 07A#BA9C0226A34C0000
(1494906257.736270) can0 25C#01F402274418803D
(1494906257.736394) can0 312#00001FFE00000000
(1494906257.736644) can0 352#0000000000000000
(1494906257.736895) can0 415#0000FCED0FFE0FFE
(1494906257.737021) can0 41D#0000E00000000000
(1494906257.737269) can0 085#7D5180005E007D56
(1494906257.737518) can0 091#7EF47F008088F000
(1494906257.737769) can0 43D#000000000079022D
(1494906257.737896) can0 4B0#B3000000B00000F4
(1494906257.739272) can0 171#0400000000000000
(1494906257.739285) can0 202#04EE725064000000
(1494906257.739395) can0 204#F8007D0000EE0000
(1494906257.743271) can0 217#0000000000000000
(1494906257.744646) can0 05D#20D494DB49000000
(1494906257.744896) can0 047#04DAEEBC10720000
(1494906257.744909) can0 14B#76D07FFD40000000
(1494906257.744918) can0 167#80800009FFE00000
(1494906257.744926) can0 25B#61F409F5E0008000
(1494906257.745021) can0 25C#01F402274418803D
(1494906257.745270) can0 3B4#401111FF23230000
(1494906257.745521) can0 42C#8C62000003D00000
(1494906257.745770) can0 07A#BA9C0226A34C0000
(1494906257.747145) can0 082#7F08140078800000
(1494906257.747159) can0 085#7D5180005D107D56
(1494906257.749773) can0 165#18C0000000000000
(1494906257.750023) can0 175#0250000004000000
(1494906257.750036) can0 200#0252800080000F70
(1494906257.750045) can0 202#04ED7A5064000000
(1494906257.750053) can0 204#FC007D0000ED0000
(1494906257.750061) can0 20A#01F402EE1FF0A1F2
(1494906257.750271) can0 230#0000000000000000
(1494906257.750645) can0 3A8#0100270C00000000
(1494906257.753396) can0 076#3E7BC18000000000
(1494906257.753409) can0 077#000007FF7FF7F1FC
(1494906257.753418) can0 07D#0000F3C0001FE7FF
(1494906257.753426) can0 213#FFFF00048011FF41
(1494906257.753522) can0 214#80000000000073C0
(1494906257.753896) can0 216#0000000082000F2D
(1494906257.754022) can0 217#0000000000000000
(1494906257.754273) can0 14B#75E07FFD40000000
(1494906257.754521) can0 167#80800009FFE00000
(1494906257.754771) can0 041#0000000000000000
(1494906257.755025) can0 042#0000000000000000
(1494906257.755271) can0 185#0000000000000000
(1494906257.755521) can0 25C#01F402274418803D
(1494906257.755772) can0 07A#BA9C0226A34C0000
(1494906257.756021) can0 365#000001FF00008000
(1494906257.756271) can0 3B5#00FC00F800FC00F9
(1494906257.756522) can0 415#0000C0FC0FFE0FFE
(1494906257.756772) can0 416#5000FE0001000000
(1494906257.757027) can0 085#7D5180005C207D56
(1494906257.757271) can0 41D#0000E00000000000
(1494906257.757520) can0 4B0#B3000000C00000F3
(1494906257.760149) can0 202#04FC025064000000
(1494906257.760162) can0 204#C0007D0000FC0000
(1494906257.761648) can0 091#7EF47EFF7F8BF000
(1494906257.764273) can0 217#0000000000000000
(1494906257.764400) can0 047#04DAEEBC10720000
(1494906257.764412) can0 14B#83007FFD40000000
(1494906257.764524) can0 167#80800009FFE00000
(1494906257.764897) can0 25B#61F409F5E0008000
(1494906257.765024) can0 25C#01F402274418803D
(1494906257.765273) can0 05A#00000009EFE00000
(1494906257.766649) can0 07A#BA9C0226A34C0000
(1494906257.766774) can0 082#7F08140078800000
(1494906257.766897) can0 085#7D5180005B307D56
(1494906257.769774) can0 165#18C0000000000000
(1494906257.769786) can0 171#0400000000000000
(1494906257.769795) can0 175#0250000004000000
(1494906257.769803) can0 200#025280008000017E
(1494906257.769811) can0 202#04FB0A5064000000
(1494906257.770023) can0 204#C4007D0000FB0000
(1494906257.770399) can0 20A#01F402EE11FEA1F2
(1494906257.770525) can0 230#0000000000000000
(1494906257.770773) can0 3A8#0100270C00000000
(1494906257.771027) can0 411#0000500000000000
(1494906257.771273) can0 43E#00A5100000000000
(1494906257.773901) can0 076#3E7BC18000000000
(1494906257.774150) can0 077#000007FF7FF7F1FD
(1494906257.774162) can0 07D#0000F2D0001FF7FF
(1494906257.774172) can0 213#FFFF00048011FF41
(1494906257.774180) can0 214#80000000000072D0
(1494906257.774188) can0 216#0000000082001041
(1494906257.774275) can0 217#0000000000000000
(1494906257.774525) can0 14B#83007FFD40000000
(1494906257.774774) can0 167#80800009FFE00000
(1494906257.774900) can0 041#0000000000000000
(1494906257.775149) can0 042#0000000000000000
(1494906257.775398) can0 185#0000000000000000
(1494906257.775525) can0 242#03FD1EDBC2000001
(1494906257.775775) can0 07A#BA9C0226A34C0000
(1494906257.776027) can0 25C#01F402274418803D
(1494906257.776274) can0 366#00000000003FF800
(1494906257.776524) can0 3C7#0000080400000000
(1494906257.776775) can0 415#0000C4FB0FFE0FFE
(1494906257.777024) can0 41D#0000E00000000000
(1494906257.777274) can0 083#0000000000000000
(1494906257.777524) can0 085#7D5180005A407D56
(1494906257.777774) can0 4B0#B3000000D00000F2
(1494906257.779152) can0 202#04FA125064000000
(1494906257.779165) can0 204#C8007D0000FA0000
(1494906257.779523) can0 04A#0200000000000000
(1494906257.779651) can0 04B#00C0D8D8D8D8C000
(1494906257.779899) can0 04C#20AFFFC000000000
(1494906257.783776) can0 217#0000000000000000
(1494906257.784150) can0 047#04DAEEBC10720000
(1494906257.784400) can0 14B#82107FFD40000000
(1494906257.784649) can0 167#80800009FFE00000
(1494906257.784900) can0 25B#61F409F5E0008000
(1494906257.785026) can0 25C#01F402274418803D
(1494906257.785276) can0 091#7EF47F017A8DF000
(1494906257.785525) can0 092#6FA26F9473738F8D
(1494906257.785775) can0 43D#000000000079022C
(1494906257.786149) can0 07A#BA9C0226A34C0000
(1494906257.787527) can0 082#7F08140078800000
(1494906257.787539) can0 085#7D51800059507D56
(1494906257.790279) can0 3A8#0100270C00000000
(1494906257.790292) can0 165#18C0000000000000
(1494906257.790301) can0 175#0250000004000000
(1494906257.790404) can0 200#025280008000037C
(1494906257.790416) can0 202#04F91A5064000000
(1494906257.790425) can0 204#CC007D0000F90000
(1494906257.790528) can0 20A#01F402EE13FCA1F2
(1494906257.790776) can0 230#0000000000000000
(1494906257.791026) can0 332#0000000000000000
(1494906257.791276) can0 37B#1B04000000000000
(1494906257.791402) can0 430#030001E777013290
(1494906257.791651) can0 434#227F14000FFF0003
(1494906257.791903) can0 435#282010967C000100
(1494906257.793279) can0 076#3E7BC18000000000
(1494906257.793291) can0 077#000007FF7FF7F1FD
(1494906257.793404) can0 07D#0000F1E0001FF7FF
(1494906257.793417) can0 213#FFFF00048011FF41
(1494906257.793527) can0 214#80000000000071E0
(1494906257.793776) can0 216#0000000082001146
(1494906257.794026) can0 217#0000000000000000
(1494906257.794275) can0 14B#82107FFD40000000
(1494906257.794526) can0 167#80800009FFE00000
(1494906257.794775) can0 041#0000000000000000
(1494906257.795029) can0 042#0000000000000000
(1494906257.795275) can0 185#0000000000000000
(1494906257.795527) can0 25C#01F402274418803D
(1494906257.795777) can0 367#0000000000000000
(1494906257.796027) can0 07A#BA9B0226A34C0000
(1494906257.796276) can0 24A#00960000008C0000
(1494906257.796527) can0 24B#02C00184015002F4
(1494906257.796777) can0 24C#43A0870CCE001300
(1494906257.797027) can0 2E4#0000000000000000
(1494906257.797152) can0 3B3#4588C00C10040032
(1494906257.797403) can0 3C3#5CC8000000000100
(1494906257.797658) can0 415#0000C8FA0FFE0FFE
(1494906257.797903) can0 41D#0000E00000000000
(1494906257.798152) can0 085#7D51800058607D56
(1494906257.798401) can0 42C#8C62000003D00000
(1494906257.798777) can0 455#0000000000000000
(1494906257.798904) can0 171#0400000000000000
(1494906257.799151) can0 202#04F8225064000000
(1494906257.799402) can0 204#D0007D0000F80000
(1494906257.799652) can0 4B0#B3000000E00000F1
(1494906257.802279) can0 333#0000000000000000
(1494906257.802651) can0 217#0000000000000000
(1494906257.805279) can0 047#04DAEEBC10720000
(1494906257.805529) can0 14B#80307FFD40000000
(1494906257.805541) can0 167#80800009FFE00000
(1494906257.805550) can0 25B#61F409F5E0008000
(1494906257.805558) can0 25C#01F402274418803D
(1494906257.805654) can0 368#000001FF00000000
(1494906257.805778) can0 07A#BA9C0226A34C0000
(1494906257.807154) can0 082#7F08140078800000
(1494906257.807167) can0 085#7D51800057707D56
(1494906257.808531) can0 465#7E563D0A1C92058C
(1494906257.808656) can0 3A8#0100270C00000000
(1494906257.808904) can0 165#18C0000000000000
(1494906257.809029) can0 175#0250000004000000
(1494906257.809278) can0 200#025280008000057A
(1494906257.809528) can0 202#04F72A5064000000
(1494906257.809778) can0 204#D4007D0000F70000
(1494906257.810028) can0 20A#01F402EE15FAA1F2
(1494906257.810277) can0 230#0000000000000000
(1494906257.811654) can0 091#7EF47F017790F000
(1494906257.814405) can0 076#3E7BC18000000000
(1494906257.814418) can0 077#000007FF7FF7F5FD
(1494906257.814427) can0 07D#0000F0F0001FF7FF
(1494906257.814435) can0 213#FFFF00048011FF41
(1494906257.814532) can0 326#01A0022401D000C8
(1494906257.814541) can0 214#80000000000070F0
(1494906257.814656) can0 216#0000000082001200
(1494906257.814905) can0 14B#7E507FFD40000000
(1494906257.815157) can0 167#80800009FFE00000
(1494906257.815280) can0 185#0000000000000000
(1494906257.815530) can0 217#0000000000000000
(1494906257.815779) can0 041#0000000000000000
(1494906257.815906) can0 042#0000000000000000
(1494906257.816154) can0 07A#BA9A0226A34C0000
(1494906257.816404) can0 242#03FD1EDBC2000001
(1494906257.816654) can0 25A#003A9C0006EB0000
(1494906257.816781) can0 25C#01F402274418803D
(1494906257.817029) can0 369#0000000000000200
(1494906257.817156) can0 415#0000CCF90FFE0FFE
(1494906257.817404) can0 41D#0000E00000000000
(1494906257.817660) can0 085#7D51800056807D56
(1494906257.817906) can0 4B0#B3000000F00000F0
(1494906257.818030) can0 467#6A84A03CCC001830
(1494906257.819406) can0 05C#006C00F420950000
(1494906257.819419) can0 156#5900001503000000
(1494906257.819532) can0 166#0000000011F90000
(1494906257.819544) can0 178#013E01E20E4FC64F
(1494906257.819905) can0 179#19DF000000B403AD
(1494906257.820030) can0 17C#0000000000040C1C
(1494906257.820280) can0 202#04F6325064000000
(1494906257.820530) can0 204#D8007D0000F60000
(1494906257.820779) can0 421#0400140000002E00
(1494906257.821033) can0 42D#0002992C45000000
(1494906257.821280) can0 43E#00A5100000000000
(1494906257.823907) can0 217#0000000000000000
(1494906257.824155) can0 047#04DAEEBC10720000
(1494906257.824406) can0 14B#7E507FFD40000000
(1494906257.824654) can0 167#80800009FFE00000
(1494906257.824781) can0 25B#61F409F5E0008000
(1494906257.825031) can0 25C#01F402274418803D
(1494906257.825283) can0 410#0000000000000000
(1494906257.826656) can0 07A#BA9C0226A34C0000
(1494906257.826782) can0 082#7F08140078800000
(1494906257.826907) can0 085#7D51800055907D56
(1494906257.829534) can0 165#18C0000000000000
(1494906257.829781) can0 171#0400000000000000
(1494906257.829794) can0 175#0250000004000000
(1494906257.829803) can0 200#0252800080000778
(1494906257.829811) can0 202#04F53A5064000000
(1494906257.830033) can0 204#DC007D0000F50000
(1494906257.830280) can0 20A#01F402EE17F8A1F2
(1494906257.830531) can0 230#0000000000000000
(1494906257.830780) can0 3A8#0100270C00000000
(1494906257.833532) can0 076#3E7BC18000000000
(1494906257.833545) can0 077#000007FF7FF7F1FC
(1494906257.833554) can0 07D#0000FF00001FF7FF
(1494906257.833562) can0 213#FFFF00048011FF41
(1494906257.833658) can0 214#8000000000007F00
(1494906257.833783) can0 216#0000000082001300
(1494906257.834032) can0 217#0000000000000000
(1494906257.834281) can0 14B#7D607FFD40000000
(1494906257.834531) can0 041#0000000000000000
(1494906257.834909) can0 042#0000000000000000
(1494906257.835035) can0 167#80800009FFE00000
(1494906257.835281) can0 185#0000000000000000
(1494906257.835531) can0 25C#01F402274418803D
(1494906257.835781) can0 312#00001FFE00000000
(1494906257.836031) can0 07A#BA9C0226A34C0000
(1494906257.836407) can0 415#0000D0F80FFE0FFE
(1494906257.836533) can0 41D#0000E00000000000
(1494906257.836782) can0 091#7EF47F017592F000
(1494906257.837035) can0 085#7D51800054A07D56
(1494906257.837281) can0 43D#000000000079022C
(1494906257.837531) can0 4B0#B3000000000000FF
(1494906257.840406) can0 3AA#0022200000000000
(1494906257.840419) can0 202#04F4425064000000
(1494906257.840428) can0 204#E0007D0000F40000
(1494906257.840436) can0 3AB#128F0FF040000000
(1494906257.844284) can0 217#0000000000000000
(1494906257.844411) can0 05D#20D4BCDB3F000000
(1494906257.844536) can0 047#04DAEEBC10720000
(1494906257.844548) can0 14B#7B807FFD40000000
(1494906257.844659) can0 167#80800009FFE00000
(1494906257.844908) can0 25B#61F409F5E0008000
(1494906257.845034) can0 25C#01F402274418803D
(1494906257.845283) can0 42C#8C62000003D00000
(1494906257.846785) can0 07A#BA9C0226A34C0000
(1494906257.846798) can0 082#7F08140078800000
(1494906257.846909) can0 085#7D51800053B07D56
(1494906257.849537) can0 165#18C0000000000000
(1494906257.849549) can0 175#0250000004000000
(1494906257.849659) can0 200#0252800080000976
(1494906257.849786) can0 202#04F34A5064000000
(1494906257.849798) can0 204#E4007D0000F30000
(1494906257.850033) can0 20A#01F402EE19F6A1F2
(1494906257.850283) can0 230#0000000000000000
(1494906257.850533) can0 3A8#0100270C00000000
(1494906257.853163) can0 076#3E7BC18000000000
(1494906257.853409) can0 077#000007FF7FF7F1FD
(1494906257.853422) can0 07D#0000FE10001FF7FF
(1494906257.853431) can0 213#FFFF00048011FF41
(1494906257.853535) can0 214#8000000000007E10
(1494906257.853784) can0 216#0000000082001454
(1494906257.854159) can0 217#0000000000000000
(1494906257.854285) can0 14B#7B807FFD40000000
(1494906257.854534) can0 167#80800009FFE00000
(1494906257.854783) can0 041#0000000000000000
(1494906257.855034) can0 042#0000000000000000
(1494906257.855284) can0 185#0000000000000000
(1494906257.855660) can0 242#03FD1EDBC2000001
(1494906257.855785) can0 07A#BA9D0226A34C0000
(1494906257.856037) can0 25C#01F402274418803D
(1494906257.856284) can0 365#000001FF00008000
(1494906257.856534) can0 415#0000D4F70FFE0FFE
(1494906257.856784) can0 416#5100FD0001000000
(1494906257.857034) can0 41D#0000E00000000000
(1494906257.857284) can0 085#7D51800052C07D56
(1494906257.857533) can0 4B0#B3000000100000FE
(1494906257.860163) can0 171#0400000000000000
(1494906257.860176) can0 202#04F2525064000000
(1494906257.860285) can0 204#E8007D0000F20000
(1494906257.861785) can0 091#7EF47F017295F000
(1494906257.863161) can0 217#0000000000000000
(1494906257.864536) can0 047#04DAEEBC10720000
(1494906257.864661) can0 14B#7A907FFD40000000
(1494906257.864674) can0 167#80800009FFE00000
(1494906257.864787) can0 25B#61F409F5E0008000
(1494906257.865035) can0 25C#01F402274418803D
(1494906257.865285) can0 05A#00000009F5800000
(1494906257.865535) can0 168#0000000000000000
(1494906257.865788) can0 07A#BA9C0226A34C0000
(1494906257.867162) can0 082#7F08140078800000
(1494906257.867175) can0 085#7D51800051D07D56
(1494906257.870039) can0 3A8#0100270C00000000
(1494906257.870052) can0 165#18C0000000000000
(1494906257.870061) can0 175#0250000004000000
(1494906257.870069) can0 200#0252800080000B74
(1494906257.870077) can0 202#04F15A5064000000
(1494906257.870085) can0 204#EC007D0000F10000
(1494906257.870287) can0 20A#01F402EE1BF4A1F2
(1494906257.870536) can0 230#0000000000000000
(1494906257.870663) can0 411#0000500000000000
(1494906257.870910) can0 43E#00A5100000000000
(1494906257.873537) can0 076#3E7BC18000000000
(1494906257.873787) can0 077#000007FF7FF7F1FD
(1494906257.873800) can0 07D#0000FD20001FF7FF
(1494906257.873809) can0 213#FFFF00048011FF41
(1494906257.873817) can0 214#8000000000007D20
(1494906257.873825) can0 216#0000000082001551
(1494906257.874037) can0 217#0000000000000000
(1494906257.874412) can0 14B#7A907FFD40000000
(1494906257.874537) can0 167#80800009FFE00000
(1494906257.874787) can0 041#0000000000000000
(1494906257.875040) can0 042#0000000000000000
(1494906257.875286) can0 185#0000000000000000
(1494906257.875537) can0 25C#01F402274418803D
(1494906257.875912) can0 07A#BA9C0226A34C0000
(1494906257.876037) can0 366#00000000003FF800
(1494906257.876287) can0 415#0000D8F60FFE0FFE
(1494906257.876536) can0 41D#0000E00000000000
(1494906257.876787) can0 083#0000000000000000
(1494906257.877037) can0 085#7D51800050E07D56
(1494906257.877286) can0 4B0#B3000000200000FD
(1494906257.879915) can0 202#04F0625064000000
(1494906257.879929) can0 204#F0007D0000F00000
(1494906257.880042) can0 04A#0200000000000000
(1494906257.880054) can0 04B#00C0D8D8D8D8C000
(1494906257.880063) can0 04C#20AFFFC000000000
(1494906257.884038) can0 217#0000000000000000
(1494906257.884163) can0 047#04DAEEBC10720000
(1494906257.884412) can0 14B#78B07FFD40000000
(1494906257.884662) can0 167#80800009FFE00000
(1494906257.884789) can0 25B#61F409F5E0008000
(1494906257.885044) can0 25C#01F402274418803D
(1494906257.885288) can0 091#7EF47F007197F000
(1494906257.885539) can0 352#0000000000000000
(1494906257.885787) can0 07A#BA9B0226A34C0000
(1494906257.886040) can0 43D#000000000079022D
(1494906257.887414) can0 082#7F08140078800000
(1494906257.887427) can0 085#7D5180004FF07D56
(1494906257.889035) can0 3A8#0100270C00000000
(1494906257.889049) can0 5B2#B200FFFFFFFFFFFF
(1494906257.889058) can0 165#18C0000000000000
(1494906257.889067) can0 171#0400000000000000
(1494906257.889284) can0 175#0250000004000000
(1494906257.889534) can0 200#0252800080000D72
(1494906257.889784) can0 202#04EF6A5064000000
(1494906257.890033) can0 204#F4007D0000EF0000
(1494906257.890283) can0 20A#01F402EE1DF2A1F2
(1494906257.890534) can0 230#0000000000000000
(1494906257.890783) can0 332#0000000000000000
(1494906257.892408) can0 092#6FA46F91736D8B98
(1494906257.892421) can0 37B#1B04000000000000
(1494906257.892430) can0 430#030001E777013290
(1494906257.892438) can0 434#227D14000FFF0003
(1494906257.892446) can0 435#2820189E7C000100
(1494906257.892536) can0 076#3E7BC18000000000
(1494906257.892911) can0 077#000007FF7FF7F5FC
(1494906257.893035) can0 07D#0000FC30001FE7FF
(1494906257.893284) can0 213#FFFF00048011FF41
(1494906257.893534) can0 214#8000000000007C30
(1494906257.893784) can0 216#0000000082001655
(1494906257.894036) can0 217#0000000000000000
