(1495807265.937597) can0 167#727FFF100019F800
(1495807265.944306) can0 3A4#0000000000000000
(1495807265.945315) can0 3A6#0E400A045F700000
(1495807265.946340) can0 3AC#FFFFFFFFFFFFFFFF
(1495807265.947344) can0 167#727FFF100019F800
(1495807265.948348) can0 42F#7D04002E66040178
(1495807265.949358) can0 33B#0000000000000000
(1495807265.951862) can0 216#0000000082000000
(1495807265.952865) can0 415#0000D8F60FFE0FFE
(1495807265.955911) can0 083#0000000000017EF4
(1495807265.956922) can0 3BC#0C00089601A82700
(1495807265.957933) can0 167#727FFF100019F800
(1495807265.958962) can0 3BE#00204CEE4000D300
(1495807265.959966) can0 42A#D85371E000000000
(1495807265.960973) can0 42C#05515400877EA400
(1495807265.961993) can0 42E#8F0000E1740FBBB1
(1495807265.966539) can0 167#727FFF100019F800
(1495807265.971853) can0 216#0000000082000000
(1495807265.972860) can0 415#0000DCF50FFE0FFE
(1495807265.973868) can0 3A5#0000000000000000
(1495807265.974878) can0 3AD#FFFFFFFFFFFFFFFF
(1495807265.976661) can0 333#0000000000000000
(1495807265.977671) can0 167#727FFF100019F800
(1495807265.979517) can0 42F#7D04002E66040177
(1495807265.986473) can0 167#727FFF100019F800
(1495807265.987539) can0 332#0000000000000000
(1495807265.988548) can0 33A#0000000000000000
(1495807265.991862) can0 216#0000000082000000
(1495807265.992871) can0 415#0000E0F40FFE0FFE
(1495807265.993887) can0 326#81A021DF81A000C8
(1495807265.994899) can0 3A4#0000000000000000
(1495807265.995915) can0 3AC#FFFFFFFFFFFFFFFF
(1495807265.997595) can0 167#727FFF100019F800
(1495807266.005754) can0 083#0000000000017EF4
(1495807266.006759) can0 167#727FFF100019F800
(1495807266.007775) can0 3BC#0C00089601A82700
(1495807266.008787) can0 33B#0000000000000000
(1495807266.009801) can0 42A#D85371E000000000
(1495807266.010813) can0 42C#055154008746A400
(1495807266.011841) can0 42E#8B0000E17503BB80
(1495807266.012847) can0 216#0000000082000000
(1495807266.013847) can0 415#0000E4F30FFE0FFE
(1495807266.014858) can0 346#000000030300C000
(1495807266.015869) can0 348#0000000000000000
(1495807266.016880) can0 42F#7D04002E66050177
(1495807266.017894) can0 505#0B12000000000000
(1495807266.018902) can0 167#727FFF100019F800
(1495807266.019916) can0 178#000002000E8FCE91
(1495807266.020925) can0 40A#C000000D1192D200
(1495807266.023888) can0 3A5#0000000000000000
(1495807266.024900) can0 3AD#FFFFFFFFFFFFFFFF
(1495807266.026541) can0 167#727FFF100019F800
(1495807266.031877) can0 216#0000000082000000
(1495807266.032881) can0 415#0000E8F20FFE0FFE
(1495807266.037598) can0 167#727FFF100019F800
(1495807266.039286) can0 42F#7D04002E66050177
(1495807266.044349) can0 3A4#0000000000000000
(1495807266.045357) can0 3AC#FFFFFFFFFFFFFFFF
(1495807266.046362) can0 167#727FFF100019F800
(1495807266.051879) can0 216#0000000082000000
(1495807266.052889) can0 415#0000ECF10FFE0FFE
(1495807266.055979) can0 083#0000000000017EF4
(1495807266.056980) can0 3BC#0C00089601A82700
(1495807266.057999) can0 167#727FFF100019F700
(1495807266.059008) can0 3BE#00204CEE4000D300
(1495807266.060018) can0 3C4#7794E841000093DE
(1495807266.061030) can0 3D5#0400000000000000
(1495807266.062044) can0 42A#D85370E000000000
(1495807266.063051) can0 42C#05515400877EA400
(1495807266.064069) can0 42E#8F0000E17C0FBBB1
(1495807266.066306) can0 167#727FFF100019F700
(1495807266.067752) can0 42F#7D04002E66030177
(1495807266.068762) can0 33B#0000000000000000
(1495807266.071870) can0 216#0000000082000000
(1495807266.072873) can0 415#0000F0F00FFE0FFE
(1495807266.073999) can0 3A5#0000000000000000
(1495807266.075007) can0 3AD#FFFFFFFFFFFFFFFF
(1495807266.076598) can0 333#0000000000000000
(1495807266.077605) can0 167#727FFF100019F700
(1495807266.086352) can0 167#727FFF100019F700
(1495807266.087505) can0 332#0000000000000000
(1495807266.088526) can0 33A#0000000000000000
(1495807266.091856) can0 216#0000000082000000
(1495807266.092863) can0 415#0000F4EF0FFE0FFE
(1495807266.093882) can0 326#81A021DF81A000C8
(1495807266.094886) can0 3A4#0000000000000000
(1495807266.095904) can0 3AC#FFFFFFFFFFFFFFFF
(1495807266.097602) can0 167#727FFF100019F700
(1495807266.099517) can0 42F#7D04002E66030177
(1495807266.105626) can0 083#0000000000017EF5
(1495807266.106633) can0 167#727FFF100019F500
(1495807266.107648) can0 3BC#0C00089601A92700
(1495807266.108657) can0 42A#D85370E000000000
(1495807266.109670) can0 42C#055154008746A400
(1495807266.110685) can0 42E#8B0000E17C03BB80
(1495807266.111868) can0 216#0000000082000000
(1495807266.112878) can0 415#0000F8EE0FFE0FFE
(1495807266.113901) can0 346#000000030300C000
(1495807266.114904) can0 348#0000000000000000
(1495807266.117850) can0 167#727FFF100019F500
(1495807266.118863) can0 178#000002010E8FCE91
(1495807266.120320) can0 3B6#08000B0000000000
(1495807266.121354) can0 3B7#0000010060A6144E
(1495807266.122348) can0 50B#1E12000000000000
(1495807266.123916) can0 3A5#0000000000000000
(1495807266.124924) can0 3A7#0E400A045F700000
(1495807266.125937) can0 3AD#FFFFFFFFFFFFFFFF
(1495807266.126968) can0 167#727FFF100019F500
(1495807266.127973) can0 42F#7D04002E66000178
(1495807266.128976) can0 33B#0000000000000000
(1495807266.131872) can0 216#0000000082000000
(1495807266.132885) can0 415#0000FCED0FFE0FFE
(1495807266.137605) can0 167#727FFF100019F500
(1495807266.144367) can0 3A4#0000000000000000
(1495807266.145380) can0 3A6#0E400A045F700000
(1495807266.146385) can0 3AC#FFFFFFFFFFFFFFFF
(1495807266.147402) can0 167#727FFF100019F500
(1495807266.151882) can0 216#0000000082000000
(1495807266.152895) can0 415#0000C0FC0FFE0FFE
(1495807266.155890) can0 083#0000000000017EF4
(1495807266.156906) can0 2FD#D400E3C108520000
(1495807266.157920) can0 167#727FFF100019F500
(1495807266.158935) can0 3BC#0C00089601A82700
(1495807266.159942) can0 3BE#00204CEE4000D300
(1495807266.160968) can0 42A#D85372E000000000
(1495807266.161976) can0 42C#05515400877EA400
(1495807266.162984) can0 42E#8F0000E17B0FBBB1
(1495807266.164012) can0 42F#7D04002E66000178
(1495807266.166384) can0 167#727FFF100019F500
(1495807266.171858) can0 216#0000000082000000
(1495807266.172867) can0 415#0000C4FB0FFE0FFE
(1495807266.173973) can0 3A5#0000000000000000
(1495807266.174978) can0 3AD#FFFFFFFFFFFFFFFF
(1495807266.176560) can0 333#0000000000000000
(1495807266.177571) can0 167#727FFF100019F500
(1495807266.186346) can0 167#727FFF100019F500
(1495807266.187347) can0 42F#7D04002E66000178
(1495807266.188353) can0 332#0000000000000000
(1495807266.189364) can0 33B#0000000000000000
(1495807266.190376) can0 33A#0000000000000000
(1495807266.191877) can0 216#0000000082000000
(1495807266.192887) can0 415#0000C8FA0FFE0FFE
(1495807266.193976) can0 326#81A021DF81A000C8
(1495807266.194977) can0 3A4#0000000000000000
(1495807266.195987) can0 3AC#FFFFFFFFFFFFFFFF
(1495807266.197617) can0 167#727FFF100019F500
(1495807266.205529) can0 083#0000000000017EF4
(1495807266.206536) can0 3BC#0C00089601A82700
(1495807266.207552) can0 167#727FFF100019F500
(1495807266.208558) can0 42A#D85372E000000000
(1495807266.209568) can0 42C#055154008746A400
(1495807266.210593) can0 42E#8B0000E17A03BB80
(1495807266.211873) can0 216#0000000082000000
(1495807266.212886) can0 415#0000CCF90FFE0FFE
(1495807266.213904) can0 346#000000030300C000
(1495807266.214916) can0 348#0000000000000000
(1495807266.215935) can0 51E#3B02000000000000
(1495807266.217849) can0 167#727FFF100019F500
(1495807266.218856) can0 178#000001FF0E8FCE91
(1495807266.220781) can0 3B3#4048061210050022
(1495807266.221795) can0 40A#C100334641365030
(1495807266.222923) can0 42F#7D04002E66000178
(1495807266.223969) can0 3A5#0000000000000000
(1495807266.224973) can0 3AD#FFFFFFFFFFFFFFFF
(1495807266.226371) can0 167#727FFF100019F600
(1495807266.231923) can0 216#0000000082000000
(1495807266.232929) can0 415#0000D0F80FFE0FFE
(1495807266.237625) can0 167#727FFF100019F600
(1495807266.241476) can0 304#0800000000000000
(1495807266.244399) can0 3A4#0000000000000000
(1495807266.245412) can0 3AC#FFFFFFFFFFFFFFFF
(1495807266.246418) can0 167#727FFF100019F600
(1495807266.247428) can0 42F#7D04002E66010178
(1495807266.248468) can0 33B#0000000000000000
(1495807266.251880) can0 216#0000000082000000
(1495807266.252891) can0 415#0000D4F70FFE0FFE
(1495807266.255854) can0 083#0000000000017EF4
(1495807266.256852) can0 3BC#0C00089601A82700
(1495807266.257862) can0 167#727FFF100019F600
(1495807266.258872) can0 3BE#00204CEE4000D300
(1495807266.259880) can0 3C4#7794E801000093DE
(1495807266.260893) can0 42A#D85371E000000000
(1495807266.261906) can0 42C#05515400877EA400
(1495807266.262913) can0 42E#8F0000E1770FBBB1
(1495807266.266346) can0 167#727FFF100019F600
(1495807266.271879) can0 216#0000000082000000
(1495807266.272885) can0 415#0000D8F60FFE0FFE
(1495807266.273971) can0 3A5#0000000000000000
(1495807266.274972) can0 3AD#FFFFFFFFFFFFFFFF
(1495807266.276490) can0 333#0000000000000000
(1495807266.277499) can0 167#727FFF100019F600
(1495807266.279296) can0 42F#7D04002E66020178
(1495807266.286372) can0 167#727FFF100019F600
(1495807266.287434) can0 332#0000000000000000
(1495807266.288473) can0 33A#0000000000000000
(1495807266.291868) can0 216#0000000082000000
(1495807266.292883) can0 415#0000DCF50FFE0FFE
(1495807266.294471) can0 3A4#0000000000000000
(1495807266.295473) can0 326#81A021DF81A000C8
(1495807266.296478) can0 3AC#FFFFFFFFFFFFFFFF
(1495807266.297599) can0 167#727FFF100019F700
(1495807266.305485) can0 083#0000000000017EF4
(1495807266.306487) can0 3BC#0C00089601A82700
(1495807266.307497) can0 167#727FFF100019F700
(1495807266.308511) can0 42A#D85371E000000000
(1495807266.309519) can0 33B#0000000000000000
(1495807266.310530) can0 42C#055154008746A400
(1495807266.311543) can0 42E#8B0000E17703BB80
(1495807266.312554) can0 216#0000000082000000
(1495807266.313566) can0 415#0000E0F40FFE0FFE
(1495807266.314593) can0 346#000000030300C000
(1495807266.315598) can0 348#0000000000000000
(1495807266.316602) can0 42F#7D04002E66030178
(1495807266.317621) can0 53B#5D12000000000000
(1495807266.318630) can0 167#727FFF100019F700
(1495807266.319649) can0 178#000001FF0E8ECE91
(1495807266.323982) can0 3A5#0000000000000000
(1495807266.324987) can0 3A7#0E400A045F700000
(1495807266.326000) can0 3AD#FFFFFFFFFFFFFFFF
(1495807266.327007) can0 167#727FFF100019F700
(1495807266.328147) can0 466#70041C31B2403800
(1495807266.331874) can0 216#0000000082000000
(1495807266.332880) can0 415#0000E4F30FFE0FFE
(1495807266.337607) can0 167#727FFF100019F700
(1495807266.339534) can0 42F#7D04002E66030178
(1495807266.341502) can0 3E1#8000010701800000
(1495807266.344433) can0 3A4#0000000000000000
(1495807266.345445) can0 3A6#0E400A045F700000
(1495807266.346474) can0 167#727FFF100019F700
(1495807266.347473) can0 3AC#FFFFFFFFFFFFFFFF
(1495807266.351866) can0 216#0000000082000000
(1495807266.352877) can0 415#0000E8F20FFE0FFE
(1495807266.355782) can0 083#0000000000017EF5
(1495807266.356794) can0 3BC#0C00089601A92700
(1495807266.357804) can0 167#727FFF100019F700
(1495807266.358814) can0 3BE#00204CEE4000D300
(1495807266.359843) can0 42A#D85371E000000000
(1495807266.360848) can0 42C#05515400877EA400
(1495807266.361854) can0 42E#8F0000E1770FBBB1
(1495807266.366359) can0 167#727FFF100019F700
(1495807266.367611) can0 3B6#08000000307FE171
(1495807266.368627) can0 33B#0000000000000000
(1495807266.369637) can0 3B7#0000020060A67BEB
(1495807266.370645) can0 42F#7D04002E66030178
(1495807266.371890) can0 216#0000000082000000
(1495807266.372898) can0 415#0000ECF10FFE0FFE
(1495807266.373991) can0 3A5#0000000000000000
(1495807266.374998) can0 3AD#FFFFFFFFFFFFFFFF
(1495807266.376474) can0 333#0000000000000000
(1495807266.377475) can0 167#727FFF100019F700
(1495807266.378482) can0 33C#0000000000000000
(1495807266.386354) can0 167#727FFF100019F700
(1495807266.387469) can0 332#0000000000000000
(1495807266.388473) can0 33A#0000000000000000
(1495807266.390367) can0 35D#0000000000000000
(1495807266.391871) can0 216#0000000082000000
(1495807266.392883) can0 415#0000F0F00FFE0FFE
(1495807266.394565) can0 3A4#0000000000000000
(1495807266.395594) can0 326#81A021DF81A000C8
(1495807266.396598) can0 3AC#FFFFFFFFFFFFFFFF
(1495807266.397618) can0 465#63EE415234F08FCC
(1495807266.398621) can0 167#727FFF100019F700
(1495807266.399640) can0 467#AA80003593001830
(1495807266.400660) can0 42F#7D04002E66030178
(1495807266.405355) can0 083#0000000000017EF5
(1495807266.406353) can0 3BC#0C00089601A92700
(1495807266.407363) can0 167#727FFF100019F700
(1495807266.408372) can0 42A#D85371E000000000
(1495807266.409387) can0 42C#055154008746A400
(1495807266.410395) can0 42E#8B0000E17703BB80
(1495807266.411853) can0 216#0000000082000000
(1495807266.412865) can0 415#0000F4EF0FFE0FFE
(1495807266.413877) can0 346#000000030300C000
(1495807266.414886) can0 348#0000000000000000
(1495807266.415897) can0 55D#0402000000000000
(1495807266.417853) can0 167#727FFF100019F700
(1495807266.418861) can0 178#000002000E8FCE91
(1495807266.420248) can0 40A#C1014B3931485232
(1495807266.424016) can0 3A5#0000000000000000
(1495807266.425025) can0 3AD#FFFFFFFFFFFFFFFF
(1495807266.426344) can0 167#727FFF100019F700
(1495807266.427348) can0 42F#7D04002E66030178
(1495807266.428485) can0 33B#0000000000000000
(1495807266.431888) can0 216#0000000082000000
(1495807266.432909) can0 415#0000F8EE0FFE0FFE
(1495807266.437599) can0 167#727FFF100019F700
(1495807266.444474) can0 3A4#0000000000000000
(1495807266.445485) can0 3AC#FFFFFFFFFFFFFFFF
(1495807266.446496) can0 167#727FFF100019F700
(1495807266.451872) can0 216#0000000082000000
(1495807266.452882) can0 415#0000FCED0FFE0FFE
(1495807266.455762) can0 083#0000000000017EF4
(1495807266.456777) can0 3BC#0C00089601A92700
(1495807266.457787) can0 167#727FFF100019F700
(1495807266.458799) can0 3BE#00204CEE4000D300
(1495807266.459817) can0 3C4#7794E801000093DE
(1495807266.460843) can0 42A#D85370E000000000
(1495807266.461852) can0 42C#05515400877EA400
(1495807266.462852) can0 42E#8F0000E1790FBBB1
(1495807266.463868) can0 42F#7D04002E66030178
(1495807266.466351) can0 167#727FFF100019F600
(1495807266.471860) can0 216#0000000082000000
(1495807266.472866) can0 415#0000C0FC0FFE0FFE
(1495807266.474021) can0 3A5#0000000000000000
(1495807266.475029) can0 3AD#FFFFFFFFFFFFFFFF
(1495807266.476432) can0 333#0000000000000000
(1495807266.477444) can0 167#727FFF100019F600
(1495807266.486377) can0 167#727FFF100019F600
(1495807266.487379) can0 332#0000000000000000
(1495807266.488395) can0 33B#0000000000000000
(1495807266.489407) can0 33A#0000000000000000
(1495807266.490419) can0 42F#7D04002E66020178
(1495807266.491432) can0 3DE#0000000080000000
(1495807266.492468) can0 216#0000000082000000
(1495807266.493477) can0 415#0000C4FB0FFE0FFE
(1495807266.494486) can0 3A4#0000000000000000
(1495807266.495500) can0 326#81A021DF81A000C8
(1495807266.496509) can0 3AC#FFFFFFFFFFFFFFFF
(1495807266.497643) can0 167#727FFF100019F600
(1495807266.505265) can0 083#0000000000017EF4
(1495807266.506272) can0 3BC#0C00089601A92700
(1495807266.507283) can0 167#727FFF100019F600
(1495807266.508301) can0 3EB#5704140210100000
(1495807266.509314) can0 42A#D85370E000000000
(1495807266.510343) can0 42C#055154008746A400
(1495807266.511348) can0 42E#8B0000E17803BB80
(1495807266.512348) can0 216#0000000082000000
(1495807266.513360) can0 415#0000C8FA0FFE0FFE
(1495807266.514374) can0 504#0512000000000000
(1495807266.516735) can0 346#000000030300C000
(1495807266.517746) can0 348#0000000000000000
(1495807266.518756) can0 167#727FFF100019F600
(1495807266.519774) can0 178#000002000E8FCE91
(1495807266.520790) can0 3E0#0000000080000000
(1495807266.522473) can0 42F#7D04002E66020178
(1495807266.524034) can0 3A5#0000000000000000
(1495807266.525047) can0 3A7#0E400A045F700000
(1495807266.526059) can0 3AD#FFFFFFFFFFFFFFFF
(1495807266.527070) can0 167#727FFF100019F600
(1495807266.531897) can0 216#0000000082000000
(1495807266.532910) can0 415#0000CCF90FFE0FFE
(1495807266.537786) can0 167#727FFF100019F700
(1495807266.544519) can0 3A4#0000000000000000
(1495807266.545522) can0 3A6#0E400A045F700000
(1495807266.546535) can0 167#727FFF100019F700
(1495807266.547545) can0 3AC#FFFFFFFFFFFFFFFF
(1495807266.548564) can0 33B#0000000000000000
(1495807266.549571) can0 3E7#0000000000000000
(1495807266.550599) can0 42F#7D04002E66030178
(1495807266.551909) can0 216#0000000082000000
(1495807266.552919) can0 415#0000D0F80FFE0FFE
(1495807266.555626) can0 083#0000000000017EF4
(1495807266.556631) can0 3BC#0C00089601A92700
(1495807266.557649) can0 3BE#00204CEE4000D300
(1495807266.558664) can0 167#727FFF100019F700
(1495807266.559675) can0 42A#D85371E000000000
(1495807266.560691) can0 42C#05515400877EA400
(1495807266.561726) can0 42E#8F0000E1750FBBB1
(1495807266.566371) can0 167#727FFF100019F700
(1495807266.571884) can0 216#0000000082000000
(1495807266.572893) can0 415#0000D4F70FFE0FFE
(1495807266.574047) can0 3A5#0000000000000000
(1495807266.575063) can0 3AD#FFFFFFFFFFFFFFFF
(1495807266.576372) can0 333#0000000000000000
(1495807266.577384) can0 167#727FFF100019F700
(1495807266.579320) can0 42F#7D04002E66030178
(1495807266.586350) can0 167#727FFF100019F800
(1495807266.587361) can0 332#0000000000000000
(1495807266.588371) can0 33A#0000000000000000
(1495807266.591885) can0 216#0000000082000000
(1495807266.592888) can0 415#0000D8F60FFE0FFE
(1495807266.594511) can0 3A4#0000000000000000
(1495807266.595520) can0 3AC#FFFFFFFFFFFFFFFF
(1495807266.596529) can0 326#81A021DF81A000C8
(1495807266.597627) can0 167#727FFF100019F800
(1495807266.605225) can0 083#0000000000017EF4
(1495807266.606223) can0 3BC#0C00089601A92700
(1495807266.607238) can0 167#727FFF100019F800
(1495807266.608250) can0 42A#D85371E000000000
(1495807266.609262) can0 33B#0000000000000000
(1495807266.610271) can0 42C#055154008746A400
(1495807266.611282) can0 42E#8B0000E17603BB80
(1495807266.612297) can0 42F#7D04002E66040178
(1495807266.613309) can0 216#0000000082000000
(1495807266.614343) can0 346#000000030300C000
(1495807266.615348) can0 348#0000000000000000
(1495807266.616348) can0 415#0000DCF50FFE0FFE
(1495807266.617363) can0 505#0B12000000000000
(1495807266.618379) can0 167#727FFF100019F800
(1495807266.619389) can0 178#000002000E8FCE91
(1495807266.620551) can0 3B6#08000100307FE16D
(1495807266.621564) can0 3B7#0000030060A65F8C
(1495807266.622593) can0 3EB#5704140210100000
(1495807266.623599) can0 40A#C1023130373639FF
(1495807266.624603) can0 3A5#0000000000000000
(1495807266.625619) can0 3AD#FFFFFFFFFFFFFFFF
(1495807266.626627) can0 447#2100000002000000
(1495807266.627638) can0 167#727FFF100019F800
(1495807266.631881) can0 216#0000000082000000
(1495807266.632888) can0 415#0000E0F40FFE0FFE
(1495807266.635898) can0 3E2#0000000080000000
(1495807266.637855) can0 167#727FFF100019F800
(1495807266.639281) can0 42F#7D04002E66040178
(1495807266.644529) can0 3A4#0000000000000000
(1495807266.645542) can0 3AC#FFFFFFFFFFFFFFFF
(1495807266.646554) can0 167#727FFF100019F800
(1495807266.651875) can0 216#0000000082000000
(1495807266.652882) can0 415#0000E4F30FFE0FFE
(1495807266.655473) can0 083#0000000000017EF4
(1495807266.656478) can0 3BC#0C00089601A92700
(1495807266.657491) can0 167#727FFF100019F800
(1495807266.658502) can0 3BE#00204CEE4000D301
(1495807266.659510) can0 3C4#7794E801000093DE
(1495807266.660527) can0 42A#D85370E000000000
(1495807266.661542) can0 42C#05515400877FA500
(1495807266.662552) can0 42E#8F0000E1770FBBB1
(1495807266.666353) can0 167#727FFF100019F800
(1495807266.667545) can0 3B4#401111FF25250000
(1495807266.668555) can0 33B#0000000000000000
(1495807266.669567) can0 42F#7D04002E66040178
(1495807266.671892) can0 216#0000000082000000
(1495807266.672901) can0 415#0000E8F20FFE0FFE
(1495807266.674101) can0 3A5#0000000000000000
(1495807266.675098) can0 3AD#FFFFFFFFFFFFFFFF
(1495807266.676289) can0 333#0000000000000000
(1495807266.677380) can0 167#727FFF100019F800
(1495807266.686399) can0 167#727FFF100019F800
(1495807266.687404) can0 332#0000000000000000
(1495807266.688416) can0 33A#0000000000000000
(1495807266.689427) can0 33F#0100000000000000
(1495807266.691888) can0 216#0000000082000000
(1495807266.692899) can0 415#0000ECF10FFE0FFE
(1495807266.694544) can0 3A4#0000000000000000
(1495807266.695553) can0 3AC#FFFFFFFFFFFFFFFF
(1495807266.696566) can0 124#0202000000000000
(1495807266.697602) can0 22C#000A000000000000
(1495807266.698599) can0 167#727FFF100019F800
(1495807266.699611) can0 326#81A021DF81A000C8
(1495807266.700623) can0 355#60003D8000800000
(1495807266.701636) can0 356#003C4C4F4C4F0000
(1495807266.702642) can0 35E#00C000DAAC006000
(1495807266.703653) can0 3E7#0000000000000000
(1495807266.704670) can0 41A#8A00000000000000
(1495807266.705679) can0 42F#7D04002E66040178
(1495807266.706691) can0 083#0000000000017EF4
(1495807266.707718) can0 167#727FFF100019F800
(1495807266.708730) can0 3BC#0C00089601AA2700
(1495807266.709731) can0 42A#D85370E000000000
(1495807266.710741) can0 42C#055154008746A400
(1495807266.711752) can0 42E#8B0000E17603BB80
(1495807266.712761) can0 216#0000000082000000
(1495807266.713775) can0 415#0000F0F00FFE0FFE
(1495807266.714784) can0 346#000000030300C000
(1495807266.715796) can0 348#0000000000000000
(1495807266.717844) can0 167#727FFF100019F700
(1495807266.718848) can0 178#000001FF0E8ECE91
(1495807266.720069) can0 3B3#4048061210050022
(1495807266.721098) can0 3C3#40C8000000004100
(1495807266.722098) can0 50B#1E12000000000000
(1495807266.724112) can0 3A5#0000000000000000
(1495807266.725130) can0 3A7#0E400A045F700000
(1495807266.726136) can0 3AD#FFFFFFFFFFFFFFFF
(1495807266.727149) can0 167#727FFF100019F700
(1495807266.728160) can0 42F#7D04002E66040178
(1495807266.729178) can0 33B#0000000000000000
(1495807266.731899) can0 216#0000000082000000
(1495807266.732910) can0 415#0000F4EF0FFE0FFE
(1495807266.734741) can0 1E6#800CE80700000000
(1495807266.737683) can0 167#727FFF100019F800
(1495807266.744566) can0 3A4#0000000000000000
(1495807266.745599) can0 3A6#0E400A045F700000
(1495807266.746598) can0 167#727FFF100019F800
(1495807266.747611) can0 3AC#FFFFFFFFFFFFFFFF
(1495807266.751881) can0 216#0000000082000000
(1495807266.752888) can0 415#0000F8EE0FFE0FFE
(1495807266.755375) can0 083#0000000000017EF4
(1495807266.756384) can0 3BC#0C00089601A92700
(1495807266.757399) can0 3BE#00204CEE4000D300
(1495807266.758410) can0 167#727FFF100019F800
(1495807266.759420) can0 42A#D85370E000000000
(1495807266.760431) can0 42C#05515400877EA400
(1495807266.761444) can0 42E#8F0000E1750FBBB1
(1495807266.762474) can0 42F#7D04002E66040177
(1495807266.766381) can0 167#727FFF100019F800
(1495807266.771868) can0 216#0000000082000000
(1495807266.772884) can0 415#0000FCED0FFE0FFE
(1495807266.774113) can0 3A5#0000000000000000
(1495807266.775119) can0 3AD#FFFFFFFFFFFFFFFF
(1495807266.776285) can0 333#0000000000000000
(1495807266.777394) can0 167#727FFF100019F800
(1495807266.786352) can0 167#727FFF100019F800
(1495807266.787356) can0 332#0000000000000000
(1495807266.788366) can0 42F#7D04002E66050177
(1495807266.789383) can0 33A#0000000000000000
(1495807266.790390) can0 33B#0000000000000000
(1495807266.791879) can0 216#0000000082000000
(1495807266.792888) can0 415#0000C0FC0FFE0FFE
(1495807266.794596) can0 3A4#0000000000000000
(1495807266.795599) can0 3AC#FFFFFFFFFFFFFFFF
(1495807266.796771) can0 326#81A021DF81A000C8
(1495807266.797783) can0 167#727FFF100019F800
(1495807266.805007) can0 083#0000000000017EF4
(1495807266.806021) can0 3BC#0C00089601AA2700
(1495807266.807028) can0 167#727FFF100019F800
(1495807266.808039) can0 331#C0061B1E0CD49414
(1495807266.809059) can0 42A#D85370E000000000
(1495807266.810094) can0 42C#055154008746A400
(1495807266.811098) can0 42E#8B0000E17403BB80
(1495807266.812098) can0 216#0000000082000000
(1495807266.813106) can0 346#000000030300C000
(1495807266.814115) can0 348#0000000000000000
(1495807266.815126) can0 415#0000C4FB0FFE0FFE
(1495807266.816136) can0 51E#3B02000000000000
(1495807266.817872) can0 167#727FFF100019F800
(1495807266.818880) can0 178#000002000E8ECE91
(1495807266.820543) can0 40A#C104014107F670C1
(1495807266.822477) can0 42F#7D04002E66050177
(1495807266.824124) can0 3A5#0000000000000000
(1495807266.825137) can0 3AD#FFFFFFFFFFFFFFFF
(1495807266.826528) can0 167#727FFF100019F800
(1495807266.831924) can0 216#0000000082000000
(1495807266.832933) can0 415#0000C8FA0FFE0FFE
(1495807266.836893) can0 167#727FFF100019F800
(1495807266.844611) can0 3A4#0000000000000000
(1495807266.845621) can0 3AC#FFFFFFFFFFFFFFFF
(1495807266.846630) can0 167#727FFF100019F800
(1495807266.847649) can0 42F#7D04002E66050177
(1495807266.848661) can0 33B#0000000000000000
(1495807266.851897) can0 216#0000000082000000
(1495807266.852901) can0 415#0000CCF90FFE0FFE
(1495807266.855346) can0 083#0000000000017EF4
(1495807266.856348) can0 3BC#0C00089601A92700
(1495807266.857371) can0 167#727FFF100019F700
(1495807266.858379) can0 3BE#00204CEE4000D300
(1495807266.859389) can0 3C4#7794E831000093DE
(1495807266.860400) can0 42A#D8536FE000000000
(1495807266.861421) can0 34E#0000000000000000
(1495807266.862431) can0 358#0000000000000000
(1495807266.863441) can0 42C#05515400877EA400
(1495807266.864468) can0 42E#8F0000E1780FBBB1
(1495807266.866352) can0 167#727FFF100019F800
(1495807266.867360) can0 331#C0061B1E0CD49414
(1495807266.868373) can0 3B6#0800020000000000
(1495807266.869390) can0 3B7#0000000060A67C5C
(1495807266.871881) can0 216#0000000082000000
(1495807266.874026) can0 415#0000D0F80FFE0FFE
(1495807266.875040) can0 3A5#0000000000000000
(1495807266.876054) can0 3AD#FFFFFFFFFFFFFFFF
(1495807266.877093) can0 167#727FFF100019F800
(1495807266.878093) can0 084#1100009201070900
(1495807266.879099) can0 333#0000000000000000
(1495807266.880110) can0 42F#7D04002E66040177
(1495807266.886385) can0 167#727FFF100019F800
(1495807266.887399) can0 332#0000000000000000
(1495807266.888413) can0 33A#0000000000000000
(1495807266.892367) can0 216#0000000082000000
(1495807266.893372) can0 415#0000D4F70FFE0FFE
(1495807266.894633) can0 3A4#0000000000000000
(1495807266.895650) can0 3AC#FFFFFFFFFFFFFFFF
(1495807266.897115) can0 167#727FFF100019F700
(1495807266.898128) can0 2A0#FFFFFFFF00001E00
(1495807266.899143) can0 326#81A021DF81A000C8
(1495807266.904968) can0 083#0000000000017EF5
(1495807266.905978) can0 3BC#0C00089601A82700
(1495807266.906986) can0 167#727FFF100019F700
(1495807266.907994) can0 42A#D8536FE000000000
(1495807266.909012) can0 33B#0000000000000000
(1495807266.910028) can0 42C#055154008746A400
(1495807266.911036) can0 42E#8B0000E17803BB80
(1495807266.912046) can0 42F#7D04002E66030177
(1495807266.913057) can0 216#0000000082000000
(1495807266.914067) can0 346#000000030300C000
(1495807266.915094) can0 348#0000000000000000
(1495807266.916098) can0 415#0000D8F60FFE0FFE
(1495807266.917099) can0 53B#5D12000000000000
(1495807266.918116) can0 167#727FFF100019F700
(1495807266.919130) can0 178#000002000E8ECE91
(1495807266.924153) can0 3A5#0000000000000000
(1495807266.925160) can0 3A7#0E400A045F700000
(1495807266.926169) can0 3AD#FFFFFFFFFFFFFFFF
(1495807266.927178) can0 167#727FFF100019F700
(1495807266.932380) can0 216#0000000082000000
(1495807266.934254) can0 415#0000DCF50FFE0FFE
(1495807266.937553) can0 167#727FFF100019F700
(1495807266.939244) can0 42F#7D04002E66030177
(1495807266.944630) can0 3A4#0000000000000000
(1495807266.945641) can0 3A6#0E400A045F700000
(1495807266.946653) can0 167#727FFF100019F700
(1495807266.947666) can0 3AC#FFFFFFFFFFFFFFFF
(1495807266.952368) can0 216#0000000082000000
(1495807266.953380) can0 415#0000E0F40FFE0FFE
(1495807266.955145) can0 083#0000000000017EF4
(1495807266.956160) can0 3BC#0C00089601A82700
(1495807266.957172) can0 3BE#00204CEE4000D300
(1495807266.958180) can0 167#727FFF100019F700
(1495807266.959189) can0 42A#D85371E000000000
(1495807266.960226) can0 42C#05515400877EA400
(1495807266.961233) can0 42E#8F0000E1780FBBB1
(1495807266.966378) can0 167#727FFF100019F700
(1495807266.967848) can0 42F#7D04002E66030177
(1495807266.968848) can0 33B#0000000000000000
(1495807266.972642) can0 216#0000000082000000
(1495807266.973660) can0 415#0000E4F30FFE0FFE
(1495807266.974669) can0 3A5#0000000000000000
(1495807266.975686) can0 3AD#FFFFFFFFFFFFFFFF
(1495807266.976719) can0 333#0000000000000000
(1495807266.977719) can0 167#727FFF100019F700
(1495807266.986352) can0 167#727FFF100019F700
(1495807266.987353) can0 332#0000000000000000
(1495807266.988363) can0 33A#0000000000000000
(1495807266.992382) can0 216#0000000082000000
(1495807266.993529) can0 415#0000E8F20FFE0FFE
(1495807266.994637) can0 3A4#0000000000000000
(1495807266.995652) can0 3AC#FFFFFFFFFFFFFFFF
(1495807266.997617) can0 167#727FFF100019F700
(1495807266.998624) can0 326#81A021DF81A000C8
(1495807266.999636) can0 42F#7D04002E66020177
(1495807267.004799) can0 083#0000000000017EF5
(1495807267.005819) can0 3BC#0C00089601A72700
(1495807267.006843) can0 167#727FFF100019F700
(1495807267.007848) can0 42A#D85371E000000000
(1495807267.008849) can0 42C#055154008746A400
(1495807267.009856) can0 42E#8B0000E17803BB80
(1495807267.012374) can0 216#0000000082000000
(1495807267.013393) can0 346#000000030300C000
(1495807267.014402) can0 348#0000000000000000
(1495807267.015411) can0 415#0000ECF10FFE0FFE
(1495807267.017861) can0 167#727FFF100019F700
(1495807267.018875) can0 178#000001FE0E8ECE90
(1495807267.019884) can0 55D#0402000000000000
(1495807267.020895) can0 40A#C110409060250000
(1495807267.024184) can0 3A5#0000000000000000
(1495807267.025225) can0 3AD#FFFFFFFFFFFFFFFF
(1495807267.026419) can0 167#727FFF100019F700
(1495807267.027428) can0 42F#7D04002E66030177
(1495807267.028723) can0 33B#0000000000000000
(1495807267.032239) can0 216#0000000082000000
(1495807267.033883) can0 415#0000F0F00FFE0FFE
(1495807267.036875) can0 167#727FFF100019F700
(1495807267.044658) can0 3A4#0000000000000000
(1495807267.045670) can0 3AC#FFFFFFFFFFFFFFFF
(1495807267.046679) can0 167#727FFF100019F700
(1495807267.052262) can0 216#0000000082000000
(1495807267.053273) can0 415#0000F4EF0FFE0FFE
(1495807267.055102) can0 083#0000000000017EF4
(1495807267.056114) can0 3BC#0C00089601A72700
(1495807267.057134) can0 3BE#00204CEE4000D300
(1495807267.058141) can0 167#727FFF100019F700
(1495807267.059154) can0 3C4#7794E841000093DE
(1495807267.060163) can0 3D5#0400000000000000
(1495807267.061175) can0 42A#D85372E000000000
(1495807267.062187) can0 42C#05515400877EA400
(1495807267.063220) can0 42E#8F0000E1740FBBB1
(1495807267.064222) can0 42F#7D04002E66030177
(1495807267.066352) can0 167#727FFF100019F800
(1495807267.072107) can0 216#0000000082000000
(1495807267.073116) can0 415#0000F8EE0FFE0FFE
(1495807267.074222) can0 3A5#0000000000000000
(1495807267.075230) can0 3AD#FFFFFFFFFFFFFFFF
(1495807267.076241) can0 333#0000000000000000
(1495807267.077403) can0 167#727FFF100019F800
(1495807267.086414) can0 167#727FFF100019F800
(1495807267.087415) can0 332#0000000000000000
(1495807267.088427) can0 42F#7D04002E66040177
(1495807267.089437) can0 33A#0000000000000000
(1495807267.090470) can0 33B#0000000000000000
(1495807267.091908) can0 216#0000000082000000
(1495807267.092918) can0 415#0000FCED0FFE0FFE
(1495807267.094689) can0 3A4#0000000000000000
(1495807267.095692) can0 3AC#FFFFFFFFFFFFFFFF
(1495807267.097640) can0 167#727FFF100019F800
(1495807267.098650) can0 326#81A021DF81A000C8
(1495807267.104722) can0 083#0000000000017EF4
(1495807267.105726) can0 3BC#0C00089601A82700
(1495807267.106736) can0 167#727FFF100019F800
(1495807267.107753) can0 42A#D85372E000000000
(1495807267.108765) can0 42C#055154008746A400
(1495807267.109776) can0 42E#8B0000E17303BB80
(1495807267.111903) can0 216#0000000082000000
(1495807267.112915) can0 415#0000C0FC0FFE0FFE
(1495807267.113928) can0 346#000000030300C000
(1495807267.114941) can0 348#0000000000000000
(1495807267.117329) can0 504#0512000000000000
(1495807267.118344) can0 167#727FFF100019F800
(1495807267.119348) can0 178#000001FE0E8ECE90
(1495807267.120352) can0 3B6#0800030000000000
(1495807267.121371) can0 3B7#0000010060A6144E
(1495807267.122748) can0 42F#7D04002E66050177
(1495807267.124228) can0 3A5#0000000000000000
(1495807267.125247) can0 3A7#0E400A045F700000
(1495807267.126255) can0 3AD#FFFFFFFFFFFFFFFF
(1495807267.127263) can0 167#727FFF100019F800
(1495807267.131935) can0 216#0000000082000000
(1495807267.132968) can0 415#0000C4FB0FFE0FFE
(1495807267.136971) can0 167#727FFF100019F900
(1495807267.144737) can0 3A4#0000000000000000
(1495807267.145727) can0 3A6#0E400A045F700000
(1495807267.146729) can0 167#727FFF100019F900
(1495807267.147742) can0 3AC#FFFFFFFFFFFFFFFF
(1495807267.148761) can0 33B#0000000000000000
(1495807267.149771) can0 42F#7D04002E66060177
(1495807267.151939) can0 216#0000000082000000
(1495807267.152948) can0 415#0000C8FA0FFE0FFE
(1495807267.154975) can0 083#0000000000017EF7
(1495807267.155979) can0 2FD#D400E3C108520000
(1495807267.156994) can0 3BC#0C00089601A82700
(1495807267.158004) can0 167#727FFF100019F900
(1495807267.159018) can0 3BE#00204CEE4000D300
(1495807267.160029) can0 42A#D85370E000000000
(1495807267.161040) can0 42C#05515400877EA400
(1495807267.162054) can0 42E#8F0000E1750FBBB1
(1495807267.166391) can0 167#727FFF100019F900
(1495807267.171919) can0 216#0000000082000000
(1495807267.172931) can0 415#0000CCF90FFE0FFE
(1495807267.174369) can0 3A5#0000000000000000
(1495807267.175373) can0 3AD#FFFFFFFFFFFFFFFF
(1495807267.176384) can0 333#0000000000000000
(1495807267.177410) can0 167#727FFF100019F900
(1495807267.179571) can0 42F#7D04002E66060177
(1495807267.186371) can0 167#727FFF100019F800
(1495807267.187375) can0 332#0000000000000000
(1495807267.188388) can0 33A#0000000000000000
(1495807267.191922) can0 216#0000000082000000
(1495807267.192934) can0 415#0000D0F80FFE0FFE
(1495807267.194808) can0 3A4#0000000000000000
(1495807267.195812) can0 3AC#FFFFFFFFFFFFFFFF
(1495807267.197637) can0 167#727FFF100019F800
(1495807267.198679) can0 326#81A021DF81A000C8
(1495807267.204710) can0 083#0000000000017EF4
(1495807267.205723) can0 3BC#0C00089601A72700
(1495807267.206725) can0 42A#D85370E000000000
(1495807267.207738) can0 167#727FFF100019F800
(1495807267.208744) can0 33B#0000000000000000
(1495807267.209759) can0 42C#055154008746A400
(1495807267.210770) can0 42E#8B0000E17503BB80
(1495807267.211783) can0 42F#7D04002E66060177
(1495807267.212792) can0 216#0000000082000000
(1495807267.213808) can0 346#000000030300C000
(1495807267.214812) can0 348#0000000000000000
(1495807267.215823) can0 415#0000D4F70FFE0FFE
(1495807267.216851) can0 505#0B12000000000000
(1495807267.217879) can0 167#727FFF100019F800
(1495807267.218892) can0 178#000002010E8ECE90
(1495807267.220346) can0 3B3#4048061210050022
(1495807267.221354) can0 40A#C000000D1192DE00
(1495807267.224257) can0 3A5#0000000000000000
(1495807267.225277) can0 3AD#FFFFFFFFFFFFFFFF
(1495807267.226384) can0 167#727FFF100019F800
(1495807267.231958) can0 216#0000000082000000
(1495807267.232970) can0 415#0000D8F60FFE0FFE
(1495807267.236903) can0 167#727FFF100019F800
(1495807267.238864) can0 42F#7D04002E66050177
(1495807267.242232) can0 304#0800000000000000
(1495807267.244726) can0 3A4#0000000000000000
(1495807267.245730) can0 3AC#FFFFFFFFFFFFFFFF
(1495807267.246740) can0 167#727FFF100019F800
(1495807267.251934) can0 216#0000000082000000
(1495807267.252942) can0 415#0000DCF50FFE0FFE
(1495807267.254929) can0 083#0000000000017EF4
(1495807267.255932) can0 3BC#0C00089601A72700
(1495807267.256947) can0 3BE#00204CEE4000D300
(1495807267.257970) can0 167#727FFF100019F700
(1495807267.258976) can0 3C4#7794E801000093DE
(1495807267.259980) can0 42A#D85371E000000000
(1495807267.260990) can0 42C#05515400877EA400
(1495807267.262000) can0 42E#8F0000E1780FBBB1
(1495807267.266376) can0 167#727FFF100019F700
(1495807267.267811) can0 42F#7D04002E66040177
(1495807267.268820) can0 33B#0000000000000000
(1495807267.271928) can0 216#0000000082000000
(1495807267.272934) can0 415#0000E0F40FFE0FFE
(1495807267.274263) can0 3A5#0000000000000000
(1495807267.275267) can0 3AD#FFFFFFFFFFFFFFFF
(1495807267.276282) can0 333#0000000000000000
(1495807267.277301) can0 167#727FFF100019F700
(1495807267.286396) can0 167#727FFF100019F700
(1495807267.287401) can0 332#0000000000000000
(1495807267.288411) can0 33A#0000000000000000
(1495807267.291927) can0 216#0000000082000000
(1495807267.292930) can0 415#0000E4F30FFE0FFE
(1495807267.294752) can0 3A4#0000000000000000
(1495807267.295758) can0 3AC#FFFFFFFFFFFFFFFF
(1495807267.297645) can0 167#727FFF100019F700
(1495807267.299096) can0 326#81A021DF81A000C8
(1495807267.300100) can0 42F#7D04002E66040177
(1495807267.304604) can0 083#0000000000017EF4
(1495807267.305605) can0 3BC#0C00089601A82700
(1495807267.306619) can0 42A#D85371E000000000
(1495807267.307628) can0 167#727FFF100019F700
(1495807267.308640) can0 42C#055154008746A400
(1495807267.309660) can0 42E#8B0000E17703BB80
(1495807267.311917) can0 216#0000000082000000
(1495807267.312925) can0 415#0000E8F20FFE0FFE
(1495807267.313936) can0 346#000000030300C000
(1495807267.314948) can0 348#0000000000000000
(1495807267.315970) can0 50B#1E12000000000000
(1495807267.317379) can0 167#727FFF100019F700
(1495807267.318390) can0 178#000002000E8ECE90
(1495807267.324283) can0 3A5#0000000000000000
(1495807267.325300) can0 3A7#0E400A045F700000
(1495807267.326308) can0 3AD#FFFFFFFFFFFFFFFF
(1495807267.327322) can0 167#727FFF100019F700
(1495807267.328352) can0 42F#7D04002E66030177
(1495807267.329358) can0 33B#0000000000000000
(1495807267.331971) can0 216#0000000082000000
(1495807267.332976) can0 415#0000ECF10FFE0FFE
(1495807267.336913) can0 167#727FFF100019F700
(1495807267.342273) can0 3E1#8000010701800000
(1495807267.344754) can0 3A4#0000000000000000
(1495807267.345767) can0 3A6#0E400A045F700000
(1495807267.346777) can0 167#727FFF100019F700
(1495807267.347792) can0 3AC#FFFFFFFFFFFFFFFF
(1495807267.351930) can0 216#0000000082000000
(1495807267.352934) can0 415#0000F0F00FFE0FFE
(1495807267.354875) can0 083#0000000000017EF4
(1495807267.355890) can0 3BC#0C00089601A82700
(1495807267.356901) can0 3BE#00204CEE4000D300
(1495807267.357915) can0 167#727FFF100019F700
(1495807267.358924) can0 42A#D85371E000000000
(1495807267.359943) can0 42C#05515400877EA400
(1495807267.360971) can0 42E#8F0000E1770FBBB1
(1495807267.361980) can0 42F#7D04002E66030177
(1495807267.362975) can0 466#70042031B2403800
(1495807267.366393) can0 167#727FFF100019F700
(1495807267.367411) can0 3B6#0800040000000000
(1495807267.368425) can0 3B7#0000020060A67BEB
(1495807267.371919) can0 216#0000000082000000
(1495807267.372929) can0 415#0000F4EF0FFE0FFE
(1495807267.374502) can0 3A5#0000000000000000
(1495807267.375506) can0 3AD#FFFFFFFFFFFFFFFF
(1495807267.376516) can0 333#0000000000000000
(1495807267.377535) can0 167#727FFF100019F700
(1495807267.378542) can0 33C#0000000000000000
(1495807267.386371) can0 167#727FFF100019F700
(1495807267.387388) can0 332#0000000000000000
(1495807267.388397) can0 42F#7D04002E66030177
(1495807267.389418) can0 33A#0000000000000000
(1495807267.390423) can0 33B#0000000000000000
(1495807267.391434) can0 35D#0000000000000000
(1495807267.392471) can0 216#0000000082000000
(1495807267.393480) can0 415#0000F8EE0FFE0FFE
(1495807267.394765) can0 3A4#0000000000000000
(1495807267.395776) can0 3AC#FFFFFFFFFFFFFFFF
(1495807267.397645) can0 167#727FFF100019F700
(1495807267.399555) can0 326#81A021DF81A000C8
(1495807267.404470) can0 083#0000000000017EF4
(1495807267.405479) can0 3BC#0C00089601A92700
(1495807267.406479) can0 42A#D85371E000000000
(1495807267.407491) can0 42C#055154008746A400
(1495807267.408505) can0 167#727FFF100019F700
(1495807267.409522) can0 42E#8B0000E17503BB80
(1495807267.410534) can0 465#63EE415234F08FCC
(1495807267.411551) can0 467#AA80003593001830
(1495807267.412562) can0 216#0000000082000000
(1495807267.413586) can0 346#000000030300C000
(1495807267.414601) can0 348#0000000000000000
(1495807267.415606) can0 415#0000FCED0FFE0FFE
(1495807267.416618) can0 51E#3B02000000000000
(1495807267.417893) can0 167#727FFF100019F700
(1495807267.418907) can0 178#000001FF0E8ECE90
(1495807267.420568) can0 40A#C100334641365030
(1495807267.422507) can0 42F#7D04002E66030177
(1495807267.424303) can0 3A5#0000000000000000
(1495807267.425334) can0 3AD#FFFFFFFFFFFFFFFF
(1495807267.426384) can0 167#727FFF100019F800
(1495807267.431994) can0 216#0000000082000000
(1495807267.432998) can0 415#0000C0FC0FFE0FFE
(1495807267.436908) can0 167#727FFF100019F800
(1495807267.444786) can0 3A4#0000000000000000
(1495807267.445801) can0 3AC#FFFFFFFFFFFFFFFF
(1495807267.446804) can0 167#727FFF100019F800
(1495807267.447821) can0 42F#7D04002E66040177
(1495807267.448846) can0 33B#0000000000000000
(1495807267.451929) can0 216#0000000082000000
(1495807267.452942) can0 415#0000C4FB0FFE0FFE
(1495807267.454794) can0 083#0000000000017EF8
(1495807267.455801) can0 3BC#0C00089601A82700
(1495807267.456814) can0 3BE#00204CEE4000D300
(1495807267.457846) can0 167#727FFF100019F800
(1495807267.458846) can0 3C4#7794E801000093DE
(1495807267.459851) can0 42A#D85370E000000000
(1495807267.460863) can0 42C#05515400877EA400
(1495807267.461886) can0 42E#8F0000E1760FBBB1
(1495807267.466381) can0 167#727FFF100019F800
(1495807267.471946) can0 216#0000000082000000
(1495807267.472976) can0 415#0000C8FA0FFE0FFE
(1495807267.474351) can0 3A5#0000000000000000
(1495807267.475351) can0 3AD#FFFFFFFFFFFFFFFF
(1495807267.476359) can0 333#0000000000000000
(1495807267.477420) can0 167#727FFF100019F800
(1495807267.479108) can0 42F#7D04002E66040177
(1495807267.486433) can0 167#727FFF100019F800
(1495807267.487434) can0 332#0000000000000000
(1495807267.488444) can0 33A#0000000000000000
(1495807267.489479) can0 3DE#0000000080000000
(1495807267.491923) can0 216#0000000082000000
(1495807267.492936) can0 415#0000CCF90FFE0FFE
(1495807267.494803) can0 3A4#0000000000000000
(1495807267.495807) can0 3AC#FFFFFFFFFFFFFFFF
(1495807267.497661) can0 167#727FFF100019F800
(1495807267.500025) can0 326#81A021DF81A000C8
(1495807267.504417) can0 083#0000000000017EF4
(1495807267.505431) can0 3BC#0C00089601A82700
(1495807267.506439) can0 42A#D85370E000000000
(1495807267.507471) can0 167#727FFF100019F800
(1495807267.508471) can0 3EB#5704140211100000
(1495807267.509476) can0 33B#0000000000000000
(1495807267.510481) can0 42C#055154008746A400
(1495807267.511497) can0 42E#8B0000E17603BB80
(1495807267.512508) can0 42F#7D04002E66040177
(1495807267.513523) can0 216#0000000082000000
(1495807267.514534) can0 415#0000D0F80FFE0FFE
(1495807267.515550) can0 53B#5D12000000000000
(1495807267.516560) can0 346#000000030300C000
(1495807267.517571) can0 348#0000000000000000
(1495807267.518596) can0 3E0#0000000080000000
(1495807267.519601) can0 167#727FFF100019F800
(1495807267.520606) can0 178#000002000E8ECE90
(1495807267.524352) can0 3A5#0000000000000000
(1495807267.525355) can0 3A7#0E400A045F700000
(1495807267.526359) can0 3AD#FFFFFFFFFFFFFFFF
(1495807267.527368) can0 167#727FFF100019F800
(1495807267.531939) can0 216#0000000082000000
(1495807267.532948) can0 415#0000D4F70FFE0FFE
(1495807267.537645) can0 167#727FFF100019F800
(1495807267.539304) can0 42F#7D04002E66040177
(1495807267.540375) can0 3E7#0000000000000000
(1495807267.544817) can0 3A4#0000000000000000
(1495807267.545851) can0 3A6#0E400A045F700000
(1495807267.546851) can0 167#727FFF100019F700
(1495807267.547851) can0 3AC#FFFFFFFFFFFFFFFF
(1495807267.551942) can0 216#0000000082000000
(1495807267.552971) can0 415#0000D8F60FFE0FFE
(1495807267.554605) can0 083#0000000000017EF5
(1495807267.555607) can0 3BC#0C00089601A82700
(1495807267.556621) can0 3BE#00204CEE4000D300
(1495807267.557633) can0 42A#D85371E000000000
(1495807267.558641) can0 167#727FFF100019F800
(1495807267.559659) can0 42C#05515400877EA400
(1495807267.560678) can0 42E#8F0000E1780FBBB1
(1495807267.566416) can0 167#727FFF100019F800
(1495807267.567855) can0 42F#7D04002E66040177
(1495807267.568864) can0 33B#0000000000000000
(1495807267.571944) can0 216#0000000082000000
(1495807267.572971) can0 415#0000DCF50FFE0FFE
(1495807267.574510) can0 3A5#0000000000000000
(1495807267.575527) can0 3AD#FFFFFFFFFFFFFFFF
(1495807267.576543) can0 333#0000000000000000
(1495807267.577555) can0 167#727FFF100019F700
(1495807267.586536) can0 167#727FFF100019F700
(1495807267.587541) can0 332#0000000000000000
(1495807267.588550) can0 33A#0000000000000000
(1495807267.591935) can0 216#0000000082000000
(1495807267.592940) can0 415#0000E0F40FFE0FFE
(1495807267.594851) can0 3A4#0000000000000000
(1495807267.595851) can0 3AC#FFFFFFFFFFFFFFFF
(1495807267.597665) can0 167#727FFF100019F700
(1495807267.599118) can0 42F#7D04002E66020177
(1495807267.600541) can0 326#81A021DF81A000C8
(1495807267.601565) can0 55D#0402000000000000
(1495807267.604311) can0 083#0000000000017EF4
(1495807267.605333) can0 3BC#0C00089601A72700
(1495807267.606351) can0 42A#D85371E000000000
(1495807267.607351) can0 167#727FFF100019F700
(1495807267.608359) can0 42C#055154008746A400
(1495807267.609370) can0 42E#8B0000E17903BB80
(1495807267.611813) can0 346#000000030300C000
(1495807267.612824) can0 216#0000000082000000
(1495807267.613851) can0 348#0000000000000000
(1495807267.614851) can0 415#0000E4F30FFE0FFE
(1495807267.617907) can0 167#727FFF100019F600
(1495807267.618920) can0 178#000002000E8ECE90
(1495807267.620635) can0 3B6#0800050000000000
(1495807267.621658) can0 3B7#0000030060A65F8C
(1495807267.622668) can0 3EB#5704140211100000
(1495807267.623679) can0 40A#C1014B3931485232
(1495807267.624689) can0 3A5#0000000000000000
(1495807267.625722) can0 3AD#FFFFFFFFFFFFFFFF
(1495807267.626726) can0 447#2100000002000000
(1495807267.627734) can0 167#727FFF100019F600
(1495807267.628746) can0 42F#7D04002E66020177
(1495807267.629766) can0 33B#0000000000000000
(1495807267.631971) can0 216#0000000082000000
(1495807267.632976) can0 415#0000E8F20FFE0FFE
(1495807267.635985) can0 3E2#0000000080000000
(1495807267.637445) can0 167#727FFF100019F600
(1495807267.644859) can0 3A4#0000000000000000
(1495807267.645882) can0 3AC#FFFFFFFFFFFFFFFF
(1495807267.646886) can0 167#727FFF100019F600
(1495807267.651957) can0 216#0000000082000000
(1495807267.652971) can0 415#0000ECF10FFE0FFE
(1495807267.654522) can0 083#0000000000017EF4
(1495807267.655531) can0 3BC#0C00089601A82700
(1495807267.656546) can0 3BE#00204CEE4000D301
(1495807267.657556) can0 3C4#7794E801000093DE
(1495807267.658565) can0 167#727FFF100019F600
(1495807267.659575) can0 42A#D85371E000000000
(1495807267.660602) can0 42C#05515400877FA500
(1495807267.661605) can0 42E#8F0000E1740FBBB1
(1495807267.662609) can0 42F#7D04002E66020177
(1495807267.666396) can0 167#727FFF100019F700
(1495807267.667400) can0 3B4#401111FF25250000
(1495807267.671938) can0 216#0000000082000000
(1495807267.672942) can0 415#0000F0F00FFE0FFE
(1495807267.674390) can0 3A5#0000000000000000
(1495807267.675395) can0 3AD#FFFFFFFFFFFFFFFF
(1495807267.676407) can0 333#0000000000000000
(1495807267.677418) can0 167#727FFF100019F700
(1495807267.686415) can0 167#727FFF100019F700
(1495807267.687420) can0 332#0000000000000000
(1495807267.688431) can0 42F#7D04002E66030177
(1495807267.689445) can0 33A#0000000000000000
(1495807267.690472) can0 33B#0000000000000000
(1495807267.691471) can0 33F#0100000000000000
(1495807267.692476) can0 216#0000000082000000
(1495807267.693496) can0 415#0000F4EF0FFE0FFE
(1495807267.694863) can0 3A4#0000000000000000
(1495807267.695872) can0 3AC#FFFFFFFFFFFFFFFF
(1495807267.697178) can0 504#0512000000000000
(1495807267.698182) can0 167#727FFF100019F800
(1495807267.700989) can0 124#0202000000000000
(1495807267.702006) can0 22C#000A000000000000
(1495807267.703019) can0 326#81A021DF81A000C8
(1495807267.704030) can0 355#60003D8000800000
(1495807267.705045) can0 083#0000000000017EF5
(1495807267.706057) can0 356#003C4C4F4C4F0000
(1495807267.707071) can0 167#727FFF100019F800
(1495807267.708101) can0 35E#00C000DAAC006000
(1495807267.709101) can0 3BC#0C00089601A82700
(1495807267.710116) can0 3E7#0000000000000000
(1495807267.711125) can0 41A#8A00000000000000
(1495807267.712137) can0 42A#D85371E000000000
(1495807267.713162) can0 216#0000000082000000
(1495807267.714169) can0 346#000000030300C000
(1495807267.715178) can0 348#0000000000000000
(1495807267.716189) can0 415#0000F8EE0FFE0FFE
(1495807267.717223) can0 42C#055154008746A400
(1495807267.718226) can0 42E#8B0000E17403BB80
(1495807267.719225) can0 167#727FFF100019F800
(1495807267.720240) can0 178#000001FE0E8ECE90
(1495807267.721256) can0 3B3#4048061210050022
(1495807267.722262) can0 3C3#40C8000000004100
(1495807267.723275) can0 42F#7D04002E66040177
(1495807267.724394) can0 3A5#0000000000000000
(1495807267.725414) can0 3A7#0E400A045F700000
(1495807267.726429) can0 3AD#FFFFFFFFFFFFFFFF
(1495807267.727437) can0 167#727FFF100019F800
(1495807267.731994) can0 216#0000000082000000
(1495807267.733012) can0 415#0000FCED0FFE0FFE
(1495807267.734751) can0 1E6#800CE80700000000
(1495807267.736937) can0 167#727FFF100019F800
(1495807267.744914) can0 3A4#0000000000000000
(1495807267.745918) can0 3A6#0E400A045F700000
(1495807267.746927) can0 167#727FFF100019F800
(1495807267.747946) can0 3AC#FFFFFFFFFFFFFFFF
(1495807267.748970) can0 33B#0000000000000000
(1495807267.749972) can0 42F#7D04002E66050177
(1495807267.751949) can0 216#0000000082000000
(1495807267.752971) can0 415#0000C0FC0FFE0FFE
(1495807267.754487) can0 083#0000000000017EF4
(1495807267.755504) can0 3BC#0C00089601A72700
(1495807267.756518) can0 3BE#00204CEE4000D300
(1495807267.757536) can0 42A#D85370E000000000
(1495807267.758544) can0 167#727FFF100019F800
(1495807267.759561) can0 42C#05515400877EA400
(1495807267.760596) can0 42E#8F0000E1730FBBB1
(1495807267.766415) can0 167#727FFF100019F800
(1495807267.771941) can0 216#0000000082000000
(1495807267.772948) can0 415#0000C4FB0FFE0FFE
(1495807267.774423) can0 3A5#0000000000000000
(1495807267.775429) can0 3AD#FFFFFFFFFFFFFFFF
(1495807267.776438) can0 333#0000000000000000
(1495807267.777448) can0 167#727FFF100019F800
(1495807267.779367) can0 42F#7D04002E66050177
(1495807267.786381) can0 167#727FFF100019F900
(1495807267.787388) can0 332#0000000000000000
(1495807267.788394) can0 33A#0000000000000000
(1495807267.791936) can0 216#0000000082000000
(1495807267.792946) can0 415#0000C8FA0FFE0FFE
(1495807267.794894) can0 3A4#0000000000000000
(1495807267.795899) can0 3AC#FFFFFFFFFFFFFFFF
(1495807267.796910) can0 505#0B12000000000000
(1495807267.797920) can0 167#727FFF100019F900
(1495807267.801431) can0 326#81A021DF81A000C8
(1495807267.804175) can0 083#0000000000017EF4
(1495807267.805197) can0 3BC#0C00089601A72700
(1495807267.806223) can0 42A#D85370E000000000
(1495807267.807226) can0 167#727FFF100019F900
(1495807267.808228) can0 331#C0061B1F0CD49414
(1495807267.809234) can0 33B#0000000000000000
(1495807267.810247) can0 42C#055154008746A400
(1495807267.811260) can0 42E#8B0000E17403BB80
(1495807267.812277) can0 42F#7D04002E66060176
(1495807267.813294) can0 216#0000000082000000
(1495807267.814297) can0 346#000000030300C000
(1495807267.815308) can0 348#0000000000000000
(1495807267.816317) can0 415#0000CCF90FFE0FFE
(1495807267.817888) can0 167#727FFF100019F900
(1495807267.818902) can0 178#000002000E8ECE90
(1495807267.820306) can0 40A#C1023130373639FF
(1495807267.824449) can0 3A5#0000000000000000
(1495807267.825476) can0 3AD#FFFFFFFFFFFFFFFF
(1495807267.826477) can0 167#727FFF100019F900
(1495807267.831947) can0 216#0000000082000000
(1495807267.832971) can0 415#0000D0F80FFE0FFE
(1495807267.836909) can0 167#727FFF100019F900
(1495807267.838852) can0 42F#7D04002E66060176
(1495807267.844908) can0 3A4#0000000000000000
(1495807267.845925) can0 3AC#FFFFFFFFFFFFFFFF
(1495807267.846929) can0 167#727FFF100019F900
(1495807267.851956) can0 216#0000000082000000
(1495807267.852971) can0 415#0000D4F70FFE0FFE
(1495807267.854355) can0 083#0000000000017EF5
(1495807267.855351) can0 3BC#0C00089601A72700
(1495807267.856366) can0 3BE#00204CEE4000D300
(1495807267.857390) can0 3C4#7794E831000093DE
(1495807267.858396) can0 167#727FFF100019F800
(1495807267.859406) can0 42A#D85370E000000000
(1495807267.860422) can0 42C#05515400877EA400
(1495807267.861438) can0 34E#0000000000000000
(1495807267.862471) can0 358#0000000000000000
(1495807267.863476) can0 42E#8F0000E1780FBBB1
(1495807267.866388) can0 167#727FFF100019F800
(1495807267.867601) can0 331#C0061B1F0CD49414
(1495807267.868610) can0 3B6#0800060000000000
(1495807267.869631) can0 33B#0000000000000000
(1495807267.870639) can0 3B7#0000000060A67C5C
(1495807267.871648) can0 42F#7D04002E66050176
(1495807267.872669) can0 216#0000000082000000
(1495807267.873678) can0 415#0000D8F60FFE0FFE
(1495807267.874687) can0 3A5#0000000000000000
(1495807267.875722) can0 3AD#FFFFFFFFFFFFFFFF
(1495807267.876726) can0 333#0000000000000000
(1495807267.877733) can0 084#1100009201080900
(1495807267.878745) can0 167#727FFF100019F800
(1495807267.886415) can0 167#727FFF100019F800
(1495807267.887423) can0 332#0000000000000000
(1495807267.888432) can0 33A#0000000000000000
(1495807267.891960) can0 216#0000000082000000
(1495807267.892977) can0 415#0000DCF50FFE0FFE
(1495807267.893981) can0 50B#1E12000000000000
(1495807267.894989) can0 3A4#0000000000000000
(1495807267.895997) can0 3AC#FFFFFFFFFFFFFFFF
(1495807267.897671) can0 167#727FFF100019F800
(1495807267.899366) can0 42F#7D04002E66040176
(1495807267.901917) can0 2A0#FFFFFFFF00001E00
(1495807267.902921) can0 326#81A021DF81A000C8
(1495807267.904472) can0 083#0000000000017EF4
(1495807267.905480) can0 3BC#0C00089601A72700
(1495807267.906486) can0 42A#D85370E000000000
(1495807267.907503) can0 167#727FFF100019F700
(1495807267.908518) can0 42C#055154008746A400
(1495807267.909535) can0 42E#8B0000E17803BB80
(1495807267.911972) can0 216#0000000082000000
(1495807267.912976) can0 346#000000030300C000
(1495807267.913981) can0 348#0000000000000000
(1495807267.914991) can0 415#0000E0F40FFE0FFE
(1495807267.917897) can0 167#727FFF100019F700
(1495807267.918913) can0 178#000002000E8ECE90
(1495807267.924481) can0 3A5#0000000000000000
(1495807267.925480) can0 3A7#0E400A045F700000
(1495807267.926481) can0 3AD#FFFFFFFFFFFFFFFF
(1495807267.927492) can0 167#727FFF100019F700
(1495807267.928503) can0 42F#7D04002E66030177
(1495807267.929602) can0 33B#0000000000000000
(1495807267.931971) can0 216#0000000082000000
(1495807267.932976) can0 415#0000E4F30FFE0FFE
(1495807267.936972) can0 167#727FFF100019F700
(1495807267.944939) can0 3A4#0000000000000000
(1495807267.945977) can0 3A6#0E400A045F700000
(1495807267.946976) can0 167#727FFF100019F700
(1495807267.947980) can0 3AC#FFFFFFFFFFFFFFFF
(1495807267.951977) can0 216#0000000082000000
(1495807267.952976) can0 415#0000E8F20FFE0FFE
(1495807267.954355) can0 083#0000000000017EF4
(1495807267.955355) can0 3BC#0C00089601A72700
(1495807267.956367) can0 3BE#00204CEE4000D300
(1495807267.957383) can0 167#727FFF100019F700
(1495807267.958387) can0 42A#D85371E000000000
(1495807267.959399) can0 42C#05515400877EA400
(1495807267.960408) can0 42E#8F0000E1790FBBB1
(1495807267.961424) can0 42F#7D04002E66020177
(1495807267.966427) can0 167#727FFF100019F700
(1495807267.971980) can0 216#0000000082000000
(1495807267.972976) can0 415#0000ECF10FFE0FFE
(1495807267.974480) can0 3A5#0000000000000000
(1495807267.975485) can0 3AD#FFFFFFFFFFFFFFFF
(1495807267.976496) can0 333#0000000000000000
(1495807267.977512) can0 167#727FFF100019F700
(1495807267.986387) can0 167#727FFF100019F700
(1495807267.987393) can0 332#0000000000000000
(1495807267.988404) can0 42F#7D04002E66020177
(1495807267.989414) can0 33A#0000000000000000
(1495807267.990424) can0 33B#0000000000000000
(1495807267.991976) can0 216#0000000082000000
(1495807267.992980) can0 415#0000F0F00FFE0FFE
(1495807267.993997) can0 51E#3B02000000000000
(1495807267.995104) can0 3A4#0000000000000000
(1495807267.996114) can0 3AC#FFFFFFFFFFFFFFFF
(1495807267.997671) can0 167#727FFF100019F700
(1495807268.002347) can0 326#81A021DF81A000C8
(1495807268.004068) can0 083#0000000000017EF4
(1495807268.005097) can0 3BC#0C00089601A72700
(1495807268.006101) can0 42A#D85371E000000000
(1495807268.007102) can0 167#727FFF100019F700
(1495807268.008114) can0 42C#055154008746A400
(1495807268.009134) can0 42E#8B0000E17803BB80
(1495807268.011434) can0 346#000000030300C000
(1495807268.012446) can0 216#0000000082000000
(1495807268.013477) can0 348#0000000000000000
(1495807268.014476) can0 415#0000F4EF0FFE0FFE
(1495807268.017904) can0 167#727FFF100019F700
(1495807268.018918) can0 178#000001FF0E8ECE90
(1495807268.020597) can0 40A#C104014107F670C1
(1495807268.022531) can0 42F#7D04002E66020177
(1495807268.024488) can0 3A5#0000000000000000
(1495807268.025510) can0 3AD#FFFFFFFFFFFFFFFF
(1495807268.026521) can0 167#727FFF100019F700
(1495807268.031985) can0 216#0000000082000000
(1495807268.032991) can0 415#0000F8EE0FFE0FFE
(1495807268.036937) can0 167#727FFF100019F700
(1495807268.044978) can0 3A4#0000000000000000
(1495807268.045990) can0 3AC#FFFFFFFFFFFFFFFF
(1495807268.046993) can0 167#727FFF100019F700
(1495807268.048008) can0 42F#7D04002E66030177
(1495807268.049018) can0 33B#0000000000000000
(1495807268.051977) can0 216#0000000082000000
(1495807268.052976) can0 415#0000FCED0FFE0FFE
(1495807268.054229) can0 083#0000000000017EF4
(1495807268.055226) can0 3BC#0C00089601A72700
(1495807268.056226) can0 3BE#00204CEE4000D300
(1495807268.057240) can0 3C4#7794E841000093DE
(1495807268.058247) can0 167#727FFF100019F700
(1495807268.059257) can0 3D5#0400000000000000
(1495807268.060267) can0 42A#D85371E000000000
(1495807268.061281) can0 42C#05515400877EA400
(1495807268.062289) can0 42E#8F0000E1780FBBB1
(1495807268.066407) can0 167#727FFF100019F700
(1495807268.071948) can0 216#0000000082000000
(1495807268.072972) can0 415#0000C0FC0FFE0FFE
(1495807268.074512) can0 3A5#0000000000000000
(1495807268.075524) can0 3AD#FFFFFFFFFFFFFFFF
(1495807268.076540) can0 333#0000000000000000
(1495807268.077553) can0 167#727FFF100019F700
(1495807268.079123) can0 42F#7D04002E66030177
(1495807268.086425) can0 167#727FFF100019F700
(1495807268.087429) can0 332#0000000000000000
(1495807268.088445) can0 33A#0000000000000000
(1495807268.091959) can0 216#0000000082000000
(1495807268.092972) can0 415#0000C4FB0FFE0FFE
(1495807268.093977) can0 53B#5D12000000000000
(1495807268.094997) can0 3A4#0000000000000000
(1495807268.096010) can0 3AC#FFFFFFFFFFFFFFFF
(1495807268.097675) can0 167#727FFF100019F600
(1495807268.102784) can0 326#81A021DF81A000C8
(1495807268.104059) can0 083#0000000000017EF8
(1495807268.105097) can0 3BC#0C00089601A72700
(1495807268.106102) can0 42A#D85371E000000000
(1495807268.107105) can0 167#727FFF100019F600
(1495807268.108121) can0 42C#055154008746A400
(1495807268.109142) can0 42E#8B0000E17803BB80
(1495807268.110152) can0 33B#0000000000000000
(1495807268.111162) can0 42F#7D04002E66020177
(1495807268.112175) can0 216#0000000082000000
(1495807268.113189) can0 346#000000030300C000
(1495807268.114223) can0 348#0000000000000000
(1495807268.115226) can0 415#0000C8FA0FFE0FFE
(1495807268.117895) can0 167#727FFF100019F600
(1495807268.118911) can0 178#000001FF0E8ECE90
(1495807268.120123) can0 3B6#0800070000000000
(1495807268.121137) can0 3B7#0000010060A6144E
(1495807268.124523) can0 3A5#0000000000000000
(1495807268.125541) can0 3A7#0E400A045F700000
(1495807268.126546) can0 3AD#FFFFFFFFFFFFFFFF
(1495807268.127561) can0 167#727FFF100019F600
(1495807268.131945) can0 216#0000000082000000
(1495807268.132972) can0 415#0000CCF90FFE0FFE
(1495807268.136948) can0 167#727FFF100019F600
(1495807268.139133) can0 42F#7D04002E66020177
(1495807268.145018) can0 3A4#0000000000000000
(1495807268.146029) can0 3A6#0E400A045F700000
(1495807268.147043) can0 167#727FFF100019F700
(1495807268.148057) can0 3AC#FFFFFFFFFFFFFFFF
(1495807268.151981) can0 216#0000000082000000
(1495807268.152982) can0 415#0000D0F80FFE0FFE
(1495807268.154068) can0 083#0000000000017EF5
(1495807268.155073) can0 2FD#D400E3C108520000
(1495807268.156101) can0 3BC#0C00089601A72700
(1495807268.157102) can0 3BE#00204CEE4000D300
(1495807268.158109) can0 167#727FFF100019F700
(1495807268.159119) can0 42A#D85371E000000000
(1495807268.160128) can0 42C#05515400877EA400
(1495807268.161144) can0 42E#8F0000E1780FBBB1
(1495807268.166441) can0 167#727FFF100019F700
(1495807268.167893) can0 42F#7D04002E66020177
(1495807268.168903) can0 33B#0000000000000000
(1495807268.171980) can0 216#0000000082000000
(1495807268.172977) can0 415#0000D4F70FFE0FFE
(1495807268.174662) can0 3A5#0000000000000000
(1495807268.175672) can0 333#0000000000000000
(1495807268.176689) can0 3AD#FFFFFFFFFFFFFFFF
(1495807268.177722) can0 167#727FFF100019F700
(1495807268.183273) can0 55D#0402000000000000
(1495807268.186405) can0 167#727FFF100019F700
(1495807268.187412) can0 332#0000000000000000
(1495807268.188424) can0 33A#0000000000000000
(1495807268.191977) can0 216#0000000082000000
(1495807268.192977) can0 415#0000D8F60FFE0FFE
(1495807268.195142) can0 3A4#0000000000000000
(1495807268.196153) can0 3AC#FFFFFFFFFFFFFFFF
(1495807268.197690) can0 167#727FFF100019F700
(1495807268.199116) can0 42F#7D04002E66030177
(1495807268.203283) can0 326#81A021DF81A000C8
(1495807268.204287) can0 083#0000000000017EF4
(1495807268.205305) can0 3BC#0C00089601A62700
(1495807268.206311) can0 42A#D85371E000000000
(1495807268.207322) can0 167#727FFF100019F700
(1495807268.208347) can0 42C#055154008746A400
(1495807268.209355) can0 42E#8B0000E17703BB80
(1495807268.211255) can0 346#000000030300C000
(1495807268.212266) can0 216#0000000082000000
(1495807268.213281) can0 348#0000000000000000
(1495807268.214294) can0 415#0000DCF50FFE0FFE
(1495807268.217919) can0 167#727FFF100019F700
(1495807268.218934) can0 178#000001FF0E8ECE90
(1495807268.220378) can0 3B3#4048061210050022
(1495807268.221393) can0 40A#C110409060250000
(1495807268.224556) can0 3A5#0000000000000000
(1495807268.225571) can0 3AD#FFFFFFFFFFFFFFFF
(1495807268.226575) can0 167#727FFF100019F700
(1495807268.227597) can0 42F#7D04002E66030177
(1495807268.229254) can0 33B#0000000000000000
(1495807268.231999) can0 216#0000000082000000
(1495807268.233016) can0 415#0000E0F40FFE0FFE
(1495807268.236938) can0 167#727FFF100019F700
(1495807268.243013) can0 304#0800000000000000
(1495807268.245041) can0 3A4#0000000000000000
(1495807268.246051) can0 3AC#FFFFFFFFFFFFFFFF
(1495807268.247064) can0 167#727FFF100019F700
(1495807268.251972) can0 216#0000000082000000
(1495807268.252977) can0 415#0000E4F30FFE0FFE
(1495807268.254123) can0 083#0000000000017EF4
(1495807268.255128) can0 3BC#0C00089601A82700
(1495807268.256139) can0 3BE#00204CEE4000D300
(1495807268.257156) can0 3C4#7794E801000093DE
(1495807268.258162) can0 167#727FFF100019F700
(1495807268.259175) can0 42A#D85371E000000000
(1495807268.260184) can0 42C#05515400877EA400
(1495807268.261209) can0 42E#8F0000E1760FBBB1
(1495807268.262226) can0 42F#7D04002E66040177
(1495807268.266422) can0 167#727FFF100019F800
(1495807268.271978) can0 216#0000000082000000
(1495807268.272977) can0 415#0000E8F20FFE0FFE
(1495807268.274582) can0 3A5#0000000000000000
(1495807268.275597) can0 3AD#FFFFFFFFFFFFFFFF
(1495807268.276602) can0 333#0000000000000000
(1495807268.277602) can0 167#727FFF100019F800
(1495807268.278614) can0 504#0512000000000000
(1495807268.286482) can0 167#727FFF100019F800
(1495807268.287490) can0 332#0000000000000000
(1495807268.288498) can0 42F#7D04002E66040177
(1495807268.289518) can0 33A#0000000000000000
(1495807268.290522) can0 33B#0000000000000000
(1495807268.291972) can0 216#0000000082000000
(1495807268.292977) can0 415#0000ECF10FFE0FFE
(1495807268.295059) can0 3A4#0000000000000000
(1495807268.296063) can0 3AC#FFFFFFFFFFFFFFFF
(1495807268.297673) can0 167#727FFF100019F700
(1495807268.303697) can0 326#81A021DF81A000C8
(1495807268.304722) can0 083#0000000000017EF4
(1495807268.305731) can0 3BC#0C00089601A92700
(1495807268.306733) can0 42A#D85371E000000000
(1495807268.307744) can0 167#727FFF100019F700
(1495807268.308759) can0 42C#055154008746A400
(1495807268.309775) can0 42E#8B0000E17803BB80
(1495807268.311891) can0 346#000000030300C000
(1495807268.312901) can0 216#0000000082000000
(1495807268.313921) can0 348#0000000000000000
(1495807268.314926) can0 415#0000F0F00FFE0FFE
(1495807268.317906) can0 167#727FFF100019F700
(1495807268.318921) can0 178#000002000E8ECE90
(1495807268.321558) can0 42F#7D04002E66040177
(1495807268.324597) can0 3A5#0000000000000000
(1495807268.325605) can0 3A7#0E400A045F700000
(1495807268.326609) can0 167#727FFF100019F700
(1495807268.327624) can0 3AD#FFFFFFFFFFFFFFFF
(1495807268.331987) can0 216#0000000082000000
(1495807268.332992) can0 415#0000F4EF0FFE0FFE
(1495807268.336058) can0 466#70042431B2403800
(1495807268.337566) can0 167#727FFF100019F700
(1495807268.343053) can0 3E1#8000010701800000
(1495807268.345086) can0 3A4#0000000000000000
(1495807268.346110) can0 3A6#0E400A045F700000
(1495807268.347112) can0 167#727FFF100019F700
(1495807268.348112) can0 3AC#FFFFFFFFFFFFFFFF
(1495807268.349123) can0 42F#7D04002E66030177
(1495807268.350139) can0 33B#0000000000000000
(1495807268.351954) can0 216#0000000082000000
(1495807268.352979) can0 415#0000F8EE0FFE0FFE
(1495807268.353980) can0 083#0000000000017EF6
(1495807268.354981) can0 3BC#0C00089601A82700
(1495807268.355991) can0 3BE#00204CEE4000D300
(1495807268.357001) can0 42A#D85370E000000000
(1495807268.358020) can0 167#727FFF100019F700
(1495807268.359029) can0 42C#05515400877EA400
(1495807268.360046) can0 42E#8F0000E1790FBBB1
(1495807268.366448) can0 167#727FFF100019F700
(1495807268.367720) can0 3B6#0800080000000000
(1495807268.368726) can0 3B7#0000020060A67BEB
(1495807268.371933) can0 216#0000000082000000
(1495807268.372942) can0 415#0000FCED0FFE0FFE
(1495807268.374604) can0 3A5#0000000000000000
(1495807268.375608) can0 333#0000000000000000
(1495807268.376618) can0 3AD#FFFFFFFFFFFFFFFF
(1495807268.377636) can0 167#727FFF100019F700
(1495807268.378646) can0 33C#0000000000000000
(1495807268.379657) can0 42F#7D04002E66030177
(1495807268.380671) can0 505#0B12000000000000
(1495807268.386420) can0 167#727FFF100019F600
(1495807268.387426) can0 332#0000000000000000
(1495807268.388436) can0 33A#0000000000000000
(1495807268.391948) can0 216#0000000082000000
(1495807268.392976) can0 35D#0000000000000000
(1495807268.393981) can0 415#0000C0FC0FFE0FFE
(1495807268.395101) can0 3A4#0000000000000000
(1495807268.396109) can0 3AC#FFFFFFFFFFFFFFFF
(1495807268.397723) can0 167#727FFF100019F600
(1495807268.403788) can0 083#0000000000017EF8
(1495807268.404793) can0 326#81A021DF81A000C8
(1495807268.405806) can0 3BC#0C00089601A82700
(1495807268.406814) can0 42A#D85370E000000000
(1495807268.407847) can0 167#727FFF100019F600
(1495807268.408851) can0 42C#055154008746A400
(1495807268.409863) can0 33B#0000000000000000
(1495807268.410872) can0 42E#8B0000E17C03BB80
(1495807268.411889) can0 346#000000030300C000
(1495807268.412906) can0 348#0000000000000000
(1495807268.413920) can0 216#0000000082000000
(1495807268.414929) can0 415#0000C4FB0FFE0FFE
(1495807268.415947) can0 42F#7D04002E66010177
(1495807268.416971) can0 465#63EE415234F08FCC
(1495807268.417976) can0 467#AA80003593001830
(1495807268.418991) can0 167#727FFF100019F600
(1495807268.420003) can0 178#000002000E8ECE90
(1495807268.421013) can0 40A#C000000D1192EA00
(1495807268.424618) can0 3A5#0000000000000000
(1495807268.425662) can0 3AD#FFFFFFFFFFFFFFFF
(1495807268.426667) can0 167#727FFF100019F600
(1495807268.431979) can0 216#0000000082000000
(1495807268.432989) can0 415#0000C8FA0FFE0FFE
(1495807268.436948) can0 167#727FFF100019F600
(1495807268.438893) can0 42F#7D04002E66000177
(1495807268.445101) can0 3A4#0000000000000000
(1495807268.446108) can0 3AC#FFFFFFFFFFFFFFFF
(1495807268.447118) can0 167#727FFF100019F600
(1495807268.451976) can0 216#0000000082000000
(1495807268.452976) can0 415#0000CCF90FFE0FFE
(1495807268.453979) can0 083#0000000000017EF4
(1495807268.454988) can0 3BC#0C00089601A62700
(1495807268.456003) can0 3BE#00204CEE4000D300
(1495807268.457020) can0 3C4#7794E801000093DE
(1495807268.458041) can0 167#727FFF100019F600
(1495807268.459055) can0 42A#D85372E000000000
(1495807268.460073) can0 42C#05515400877EA400
(1495807268.461101) can0 42E#8F0000E1780FBBB1
(1495807268.466458) can0 167#727FFF100019F600
(1495807268.467872) can0 42F#7D04002E66010177
(1495807268.468883) can0 33B#0000000000000000
(1495807268.471971) can0 216#0000000082000000
(1495807268.472976) can0 415#0000D0F80FFE0FFE
(1495807268.474640) can0 3A5#0000000000000000
(1495807268.475652) can0 333#0000000000000000
(1495807268.476671) can0 3AD#FFFFFFFFFFFFFFFF
(1495807268.477680) can0 167#727FFF100019F600
(1495807268.483144) can0 50B#1E12000000000000
(1495807268.486476) can0 167#727FFF100019F600
(1495807268.487476) can0 332#0000000000000000
(1495807268.488489) can0 33A#0000000000000000
(1495807268.489505) can0 3DE#0000000080000000
(1495807268.491945) can0 216#0000000082000000
(1495807268.492971) can0 415#0000D4F70FFE0FFE
(1495807268.495122) can0 3A4#0000000000000000
(1495807268.496127) can0 3AC#FFFFFFFFFFFFFFFF
(1495807268.497680) can0 167#727FFF100019F600
(1495807268.499637) can0 42F#7D04002E66010177
(1495807268.503908) can0 083#0000000000017EF4
(1495807268.504924) can0 326#81A021DF81A000C8
(1495807268.505943) can0 3BC#0C00089601A82700
(1495807268.506971) can0 167#727FFF100019F700
(1495807268.507976) can0 3EB#5704140212100000
(1495807268.508976) can0 42A#D85372E000000000
(1495807268.509994) can0 42C#055154008746A400
(1495807268.511003) can0 42E#8B0000E17403BB80
(1495807268.512018) can0 216#0000000082000000
(1495807268.513029) can0 415#0000D8F60FFE0FFE
(1495807268.515770) can0 346#000000030300C000
(1495807268.516775) can0 348#0000000000000000
(1495807268.517785) can0 3E0#0000000080000000
(1495807268.518801) can0 167#727FFF100019F600
(1495807268.519810) can0 178#000001FD0E8ECE90
(1495807268.524654) can0 3A5#0000000000000000
(1495807268.525666) can0 3A7#0E400A045F700000
(1495807268.526677) can0 167#727FFF100019F600
(1495807268.527691) can0 3AD#FFFFFFFFFFFFFFFF
(1495807268.528726) can0 42F#7D04002E66020177
(1495807268.529729) can0 33B#0000000000000000
(1495807268.531977) can0 216#0000000082000000
(1495807268.532981) can0 415#0000DCF50FFE0FFE
(1495807268.537471) can0 167#727FFF100019F800
(1495807268.544851) can0 3E7#0000000000000000
(1495807268.545860) can0 3A4#0000000000000000
(1495807268.546867) can0 167#727FFF100019F800
(1495807268.547875) can0 3A6#0E400A045F700000
(1495807268.548892) can0 3AC#FFFFFFFFFFFFFFFF
(1495807268.551943) can0 216#0000000082000000
(1495807268.552972) can0 415#0000E0F40FFE0FFE
(1495807268.553980) can0 083#0000000000017EF4
(1495807268.554981) can0 3BC#0C00089601A92700
(1495807268.555995) can0 3BE#00204CEE4000D300
(1495807268.557006) can0 42A#D85371E000000000
(1495807268.558020) can0 167#727FFF100019F800
(1495807268.559035) can0 42C#05515400877EA400
(1495807268.560044) can0 42E#8F0000E1730FBBB1
(1495807268.561061) can0 42F#7D04002E66050177
(1495807268.566488) can0 167#727FFF100019F800
(1495807268.571957) can0 216#0000000082000000
(1495807268.572971) can0 415#0000E4F30FFE0FFE
(1495807268.573979) can0 51E#3B02000000000000
(1495807268.574983) can0 3A5#0000000000000000
(1495807268.575994) can0 333#0000000000000000
(1495807268.577013) can0 3AD#FFFFFFFFFFFFFFFF
(1495807268.578022) can0 167#727FFF100019F800
(1495807268.586425) can0 167#727FFF100019F800
(1495807268.587432) can0 332#0000000000000000
(1495807268.588444) can0 42F#7D04002E66050177
(1495807268.589474) can0 33A#0000000000000000
(1495807268.590476) can0 33B#0000000000000000
(1495807268.591949) can0 216#0000000082000000
(1495807268.592971) can0 415#0000E8F20FFE0FFE
(1495807268.595234) can0 3A4#0000000000000000
(1495807268.596254) can0 3AC#FFFFFFFFFFFFFFFF
(1495807268.597694) can0 167#727FFF100019F800
(1495807268.603610) can0 083#0000000000017EF5
(1495807268.604623) can0 3BC#0C00089601A82700
(1495807268.605639) can0 326#81A021DF81A000C8
(1495807268.606655) can0 42A#D85371E000000000
(1495807268.607664) can0 167#727FFF100019F800
(1495807268.608685) can0 42C#055154008746A400
(1495807268.609695) can0 42E#8B0000E17303BB80
(1495807268.610896) can0 346#000000030300C000
(1495807268.611910) can0 348#0000000000000000
(1495807268.612926) can0 216#0000000082000000
(1495807268.613943) can0 415#0000ECF10FFE0FFE
(1495807268.617939) can0 167#727FFF100019F800
(1495807268.618948) can0 178#000002010E8ECE90
(1495807268.621412) can0 3B6#0800090000000000
(1495807268.622424) can0 3B7#0000030060A65F8C
(1495807268.623437) can0 3EB#5704140212100000
(1495807268.624471) can0 40A#C100334641365030
(1495807268.625480) can0 3A5#0000000000000000
(1495807268.626477) can0 3AD#FFFFFFFFFFFFFFFF
(1495807268.627495) can0 167#727FFF100019F800
(1495807268.628503) can0 42F#7D04002E66050177
(1495807268.629520) can0 447#2100000002000000
(1495807268.631991) can0 216#0000000082000000
(1495807268.633004) can0 415#0000F0F00FFE0FFE
(1495807268.635905) can0 3E2#0000000080000000
(1495807268.637603) can0 167#727FFF100019F900
(1495807268.645166) can0 3A4#0000000000000000
(1495807268.646174) can0 3AC#FFFFFFFFFFFFFFFF
(1495807268.647188) can0 167#727FFF100019F900
(1495807268.648197) can0 42F#7D04002E66060177
(1495807268.649231) can0 33B#0000000000000000
(1495807268.651949) can0 216#0000000082000000
(1495807268.652976) can0 415#0000F4EF0FFE0FFE
(1495807268.653979) can0 083#0000000000017EF4
(1495807268.654989) can0 3BC#0C00089601A82700
(1495807268.656004) can0 3BE#00204CEE4000D301
(1495807268.657018) can0 3C4#7794E801000093DE
(1495807268.658037) can0 167#727FFF100019F800
(1495807268.659044) can0 42A#D85370E000000000
(1495807268.660056) can0 42C#05515400877FA500
(1495807268.661064) can0 42E#8F0000E1790FBBB1
(1495807268.666438) can0 167#727FFF100019F800
(1495807268.667446) can0 3B4#401111FF25250000
(1495807268.671937) can0 216#0000000082000000
(1495807268.672945) can0 415#0000F8EE0FFE0FFE
(1495807268.673976) can0 53B#5D12000000000000
(1495807268.674976) can0 3A5#0000000000000000
(1495807268.675977) can0 333#0000000000000000
(1495807268.676988) can0 3AD#FFFFFFFFFFFFFFFF
(1495807268.678000) can0 167#727FFF100019F800
(1495807268.679618) can0 42F#7D04002E66040177
(1495807268.686482) can0 167#727FFF100019F800
(1495807268.687476) can0 332#0000000000000000
(1495807268.688481) can0 33A#0000000000000000
(1495807268.689498) can0 33F#0100000000000000
(1495807268.691934) can0 216#0000000082000000
(1495807268.692944) can0 415#0000FCED0FFE0FFE
(1495807268.695179) can0 3A4#0000000000000000
(1495807268.696186) can0 3AC#FFFFFFFFFFFFFFFF
(1495807268.697698) can0 167#727FFF100019F700
(1495807268.703727) can0 083#0000000000017EF6
(1495807268.704730) can0 3BC#0C00089601A92700
(1495807268.705735) can0 124#0202000000000000
(1495807268.706749) can0 22C#000A000000000000
(1495807268.707759) can0 167#727FFF100019F700
(1495807268.708770) can0 326#81A021DF81A000C8
(1495807268.709788) can0 33B#0000000000000000
(1495807268.710802) can0 355#60003D8000800000
(1495807268.711821) can0 356#003C4C4F4C4F0000
(1495807268.712846) can0 346#000000030300C000
(1495807268.713855) can0 35E#00C000DAAC006000
(1495807268.714856) can0 216#0000000082000000
(1495807268.715875) can0 3E7#0000000000000000
(1495807268.716883) can0 348#0000000000000000
(1495807268.717896) can0 41A#8A00000000000000
(1495807268.718904) can0 415#0000C0FC0FFE0FFE
(1495807268.719917) can0 42A#D85370E000000000
(1495807268.720928) can0 167#727FFF100019F700
(1495807268.721957) can0 178#000002010E8ECE90
(1495807268.722971) can0 3B3#4048061210050022
(1495807268.723988) can0 3C3#40C8000000004100
(1495807268.723992) can0 42C#055154008746A400
(1495807268.725001) can0 3A5#0000000000000000
(1495807268.726019) can0 3A7#0E400A045F700000
(1495807268.727028) can0 167#727FFF100019F700
(1495807268.728046) can0 3AD#FFFFFFFFFFFFFFFF
(1495807268.729056) can0 42E#8B0000E17903BB80
(1495807268.730069) can0 42F#7D04002E66030177
(1495807268.731971) can0 216#0000000082000000
(1495807268.732976) can0 415#0000C4FB0FFE0FFE
(1495807268.734764) can0 1E6#800CE80700000000
(1495807268.737471) can0 167#727FFF100019F700
(1495807268.739427) can0 42F#7D04002E66020177
(1495807268.745195) can0 3A4#0000000000000000
(1495807268.746223) can0 3A6#0E400A045F700000
(1495807268.747225) can0 167#727FFF100019F700
(1495807268.748225) can0 3AC#FFFFFFFFFFFFFFFF
(1495807268.751979) can0 216#0000000082000000
(1495807268.752976) can0 415#0000C8FA0FFE0FFE
(1495807268.753987) can0 083#0000000000017EF5
(1495807268.754993) can0 3BC#0C00089601A92700
(1495807268.756003) can0 3BE#00204CEE4000D300
(1495807268.757013) can0 42A#D85371E000000000
(1495807268.758033) can0 167#727FFF100019F700
(1495807268.759050) can0 42C#05515400877EA400
(1495807268.760060) can0 42E#8F0000E1740FBBB1
(1495807268.765948) can0 55D#0402000000000000
(1495807268.766972) can0 167#727FFF100019F700
(1495807268.767976) can0 42F#7D04002E66030177
(1495807268.768979) can0 33B#0000000000000000
(1495807268.771979) can0 216#0000000082000000
(1495807268.772977) can0 415#0000CCF90FFE0FFE
(1495807268.774735) can0 3A5#0000000000000000
(1495807268.775752) can0 333#0000000000000000
(1495807268.776766) can0 3AD#FFFFFFFFFFFFFFFF
(1495807268.777776) can0 167#727FFF100019F800
(1495807268.786437) can0 167#727FFF100019F800
(1495807268.787443) can0 332#0000000000000000
(1495807268.788471) can0 33A#0000000000000000
(1495807268.791974) can0 216#0000000082000000
(1495807268.792977) can0 415#0000D0F80FFE0FFE
(1495807268.795226) can0 3A4#0000000000000000
(1495807268.796226) can0 3AC#FFFFFFFFFFFFFFFF
(1495807268.797727) can0 167#727FFF100019F800
(1495807268.799399) can0 42F#7D04002E66040177
(1495807268.803480) can0 083#0000000000017EF4
(1495807268.804479) can0 3BC#0C00089601A92700
(1495807268.805495) can0 42A#D85371E000000000
(1495807268.806500) can0 326#81A021DF81A000C8
(1495807268.807510) can0 167#727FFF100019F800
(1495807268.808521) can0 331#C0061B200CD49414
(1495807268.809531) can0 42C#055154008746A400
(1495807268.810543) can0 42E#8B0000E17403BB80
(1495807268.811553) can0 346#000000030300C000
(1495807268.812563) can0 348#0000000000000000
(1495807268.813599) can0 216#0000000082000000
(1495807268.814601) can0 415#0000D4F70FFE0FFE
(1495807268.817948) can0 167#727FFF100019F800
(1495807268.818971) can0 178#000001FF0E8ECE90
(1495807268.820346) can0 40A#C1014B3931485232
(1495807268.824741) can0 3A5#0000000000000000
(1495807268.825757) can0 3AD#FFFFFFFFFFFFFFFF
(1495807268.826768) can0 167#727FFF100019F800
(1495807268.827786) can0 42F#7D04002E66050177
(1495807268.829499) can0 33B#0000000000000000
(1495807268.831976) can0 216#0000000082000000
(1495807268.832976) can0 415#0000D8F60FFE0FFE
(1495807268.837496) can0 167#727FFF100019F800
(1495807268.845263) can0 3A4#0000000000000000
(1495807268.846269) can0 3AC#FFFFFFFFFFFFFFFF
(1495807268.847288) can0 167#727FFF100019F800
(1495807268.851980) can0 216#0000000082000000
(1495807268.852987) can0 415#0000DCF50FFE0FFE
(1495807268.854000) can0 083#0000000000017EF5
(1495807268.855006) can0 3BC#0C00089601A92700
(1495807268.856017) can0 3BE#00204CEE4000D300
(1495807268.857028) can0 3C4#7794E831000093DE
(1495807268.858038) can0 167#727FFF100019F800
(1495807268.859055) can0 42A#D85370E000000000
(1495807268.860066) can0 42C#05515400877EA400
(1495807268.861096) can0 42E#8F0000E1750FBBB1
(1495807268.862101) can0 42F#7D04002E66050177
(1495807268.863101) can0 34E#0000000000000000
(1495807268.864108) can0 358#0000000000000000
(1495807268.866433) can0 167#727FFF100019F800
(1495807268.867436) can0 504#0512000000000000
(1495807268.868447) can0 331#C0061B200CD49414
(1495807268.869474) can0 3B6#08000A0000000000
(1495807268.870476) can0 3B7#0000000060A67C5C
(1495807268.871971) can0 216#0000000082000000
(1495807268.872971) can0 415#0000E0F40FFE0FFE
(1495807268.874751) can0 3A5#0000000000000000
(1495807268.875765) can0 333#0000000000000000
(1495807268.876783) can0 3AD#FFFFFFFFFFFFFFFF
(1495807268.877800) can0 084#1100009201090900
(1495807268.878809) can0 167#727FFF100019F800
(1495807268.886474) can0 167#727FFF100019F800
(1495807268.887476) can0 332#0000000000000000
(1495807268.888483) can0 42F#7D04002E66050177
(1495807268.889495) can0 33A#0000000000000000
(1495807268.890502) can0 33B#0000000000000000
(1495807268.891976) can0 216#0000000082000000
(1495807268.892977) can0 415#0000E4F30FFE0FFE
(1495807268.895259) can0 3A4#0000000000000000
(1495807268.896267) can0 3AC#FFFFFFFFFFFFFFFF
(1495807268.897727) can0 167#727FFF100019F800
(1495807268.903228) can0 083#0000000000017EF5
(1495807268.904228) can0 3BC#0C00089601AA2700
(1495807268.905245) can0 42A#D85370E000000000
(1495807268.906258) can0 42C#055154008746A400
(1495807268.907267) can0 167#727FFF100019F800
(1495807268.908278) can0 2A0#FFFFFFFF00001E00
(1495807268.909289) can0 326#81A021DF81A000C8
(1495807268.910299) can0 42E#8B0000E17503BB80
(1495807268.911308) can0 346#000000030300C000
(1495807268.912346) can0 348#0000000000000000
(1495807268.913357) can0 216#0000000082000000
(1495807268.914351) can0 415#0000E8F20FFE0FFE
(1495807268.917949) can0 167#727FFF100019F800
(1495807268.918971) can0 178#000001FF0E8ECE90
(1495807268.921357) can0 42F#7D04002E66050177
(1495807268.924891) can0 3A5#0000000000000000
(1495807268.925907) can0 3A7#0E400A045F700000
(1495807268.926913) can0 167#727FFF100019F800
(1495807268.927922) can0 3AD#FFFFFFFFFFFFFFFF
(1495807268.932020) can0 216#0000000082000000
(1495807268.933025) can0 415#0000ECF10FFE0FFE
(1495807268.937479) can0 167#727FFF100019F800
(1495807268.945275) can0 3A4#0000000000000000
(1495807268.946275) can0 3A6#0E400A045F700000
(1495807268.947287) can0 167#727FFF100019F800
(1495807268.948296) can0 3AC#FFFFFFFFFFFFFFFF
(1495807268.949310) can0 42F#7D04002E66050177
(1495807268.950318) can0 33B#0000000000000000
(1495807268.951977) can0 216#0000000082000000
(1495807268.952981) can0 415#0000F0F00FFE0FFE
(1495807268.953997) can0 083#0000000000017EF4
(1495807268.955009) can0 3BC#0C00089601AA2700
(1495807268.956019) can0 3BE#00204CEE4000D300
(1495807268.957029) can0 42A#D85370E000000000
(1495807268.958046) can0 167#727FFF100019F800
(1495807268.959057) can0 42C#05515400877EA400
(1495807268.960070) can0 42E#8F0000E1750FBBB1
(1495807268.965390) can0 505#0B12000000000000
(1495807268.966476) can0 167#727FFF100019F800
(1495807268.971971) can0 216#0000000082000000
(1495807268.972976) can0 415#0000F4EF0FFE0FFE
(1495807268.974895) can0 3A5#0000000000000000
(1495807268.975905) can0 333#0000000000000000
(1495807268.976920) can0 3AD#FFFFFFFFFFFFFFFF
(1495807268.977932) can0 167#727FFF100019F800
(1495807268.979414) can0 42F#7D04002E66060176
(1495807268.986476) can0 167#727FFF100019F800
(1495807268.987471) can0 332#0000000000000000
(1495807268.988476) can0 33A#0000000000000000
(1495807268.991971) can0 216#0000000082000000
(1495807268.992976) can0 415#0000F8EE0FFE0FFE
(1495807268.995283) can0 3A4#0000000000000000
(1495807268.996294) can0 3AC#FFFFFFFFFFFFFFFF
(1495807268.997321) can0 167#727FFF100019F800
(1495807269.003317) can0 083#0000000000017EF6
(1495807269.004346) can0 3BC#0C00089601AA2700
(1495807269.005355) can0 42A#D85370E000000000
(1495807269.006351) can0 42C#055154008746A400
(1495807269.007356) can0 167#727FFF100019F800
(1495807269.008365) can0 326#81A021DF81A000C8
(1495807269.009376) can0 42E#8B0000E17503BB80
(1495807269.010386) can0 33B#0000000000000000
(1495807269.011396) can0 346#000000030300C000
(1495807269.012405) can0 348#0000000000000000
(1495807269.013426) can0 216#0000000082000000
(1495807269.014438) can0 415#0000FCED0FFE0FFE
(1495807269.015471) can0 42F#7D04002E66050176
(1495807269.017977) can0 167#727FFF100019F800
(1495807269.018982) can0 178#000002010E8ECE90
(1495807269.020352) can0 40A#C1023130373639FF
(1495807269.024798) can0 3A5#0000000000000000
(1495807269.025808) can0 3AD#FFFFFFFFFFFFFFFF
(1495807269.026818) can0 167#727FFF100019F800
(1495807269.031974) can0 216#0000000082000000
(1495807269.032977) can0 415#0000C0FC0FFE0FFE
(1495807269.036989) can0 167#727FFF100019F800
(1495807269.038924) can0 42F#7D04002E66040176
(1495807269.045306) can0 3A4#0000000000000000
(1495807269.046319) can0 3AC#FFFFFFFFFFFFFFFF
(1495807269.047352) can0 167#727FFF100019F800
(1495807269.051978) can0 216#0000000082000000
(1495807269.052982) can0 415#0000C4FB0FFE0FFE
(1495807269.053991) can0 083#0000000000017EF6
(1495807269.055002) can0 3BC#0C00089601A92700
(1495807269.056013) can0 3BE#00204CEE4000D300
(1495807269.057026) can0 3C4#7794E841000093DE
(1495807269.058038) can0 167#727FFF100019F700
(1495807269.059045) can0 3D5#0400000000000000
(1495807269.060056) can0 42A#D85370E000000000
(1495807269.061067) can0 42C#05515400877EA400
(1495807269.062097) can0 42E#8F0000E1790FBBB1
(1495807269.063602) can0 50B#1E12000000000000
(1495807269.066443) can0 167#727FFF100019F700
(1495807269.067878) can0 42F#7D04002E66030177
(1495807269.069109) can0 33B#0000000000000000
(1495807269.071980) can0 216#0000000082000000
(1495807269.072990) can0 415#0000C8FA0FFE0FFE
(1495807269.074812) can0 3A5#0000000000000000
(1495807269.075824) can0 333#0000000000000000
(1495807269.076852) can0 3AD#FFFFFFFFFFFFFFFF
(1495807269.077852) can0 167#727FFF100019F700
(1495807269.086483) can0 167#727FFF100019F700
(1495807269.087476) can0 332#0000000000000000
(1495807269.088489) can0 33A#0000000000000000
(1495807269.091980) can0 216#0000000082000000
(1495807269.092977) can0 415#0000CCF90FFE0FFE
(1495807269.095305) can0 3A4#0000000000000000
(1495807269.096316) can0 3AC#FFFFFFFFFFFFFFFF
(1495807269.097729) can0 167#727FFF100019F700
(1495807269.099401) can0 42F#7D04002E66030177
(1495807269.103100) can0 083#0000000000017EF4
(1495807269.104102) can0 3BC#0C00089601AA2700
(1495807269.105107) can0 42A#D85370E000000000
(1495807269.106115) can0 42C#055154008746A400
(1495807269.107127) can0 167#727FFF100019F600
(1495807269.108136) can0 326#81A021DF81A000C8
(1495807269.109155) can0 42E#8B0000E17903BB80
(1495807269.110997) can0 346#000000030300C000
(1495807269.112011) can0 348#0000000000000000
(1495807269.113028) can0 216#0000000082000000
(1495807269.114040) can0 415#0000D0F80FFE0FFE
(1495807269.117980) can0 167#727FFF100019F600
(1495807269.118982) can0 178#000002000E8ECE90
(1495807269.120189) can0 3B6#08000B0000000000
(1495807269.121231) can0 3B7#0000010060A6144E
(1495807269.124824) can0 3A5#0000000000000000
(1495807269.125855) can0 3A7#0E400A045F700000
(1495807269.126851) can0 167#727FFF100019F600
(1495807269.127866) can0 3AD#FFFFFFFFFFFFFFFF
(1495807269.128883) can0 42F#7D04002E66020177
(1495807269.129907) can0 33B#0000000000000000
(1495807269.131979) can0 216#0000000082000000
(1495807269.132981) can0 415#0000D4F70FFE0FFE
(1495807269.136975) can0 167#727FFF100019F600
(1495807269.145349) can0 3A4#0000000000000000
(1495807269.146348) can0 3A6#0E400A045F700000
(1495807269.147349) can0 167#727FFF100019F600
(1495807269.148353) can0 3AC#FFFFFFFFFFFFFFFF
(1495807269.151975) can0 216#0000000082000000
(1495807269.152983) can0 415#0000D8F60FFE0FFE
(1495807269.153994) can0 083#0000000000017EF4
(1495807269.155002) can0 2FD#D400E3C108520000
(1495807269.156013) can0 3BC#0C00089601A82700
(1495807269.157020) can0 3BE#00204CEE4000D300
(1495807269.158048) can0 167#727FFF100019F600
(1495807269.159045) can0 42A#D85371E000000000
(1495807269.160053) can0 42C#05515400877EA400
(1495807269.161071) can0 42E#8F0000E1770FBBB1
(1495807269.162099) can0 42F#7D04002E66020177
(1495807269.163097) can0 51E#3B02000000000000
(1495807269.166474) can0 167#727FFF100019F600
(1495807269.171980) can0 216#0000000082000000
(1495807269.172976) can0 415#0000DCF50FFE0FFE
(1495807269.174926) can0 3A5#0000000000000000
(1495807269.175935) can0 333#0000000000000000
(1495807269.176945) can0 3AD#FFFFFFFFFFFFFFFF
(1495807269.177973) can0 167#727FFF100019F800
(1495807269.186476) can0 167#727FFF100019F800
(1495807269.187476) can0 332#0000000000000000
(1495807269.188481) can0 42F#7D04002E66030177
(1495807269.189494) can0 33A#0000000000000000
(1495807269.190509) can0 33B#0000000000000000
(1495807269.191995) can0 216#0000000082000000
(1495807269.193008) can0 415#0000E0F40FFE0FFE
(1495807269.195370) can0 3A4#0000000000000000
(1495807269.196380) can0 3AC#FFFFFFFFFFFFFFFF
(1495807269.197756) can0 167#727FFF100019F800
(1495807269.202846) can0 083#0000000000017EF5
(1495807269.203848) can0 3BC#0C00089601A92700
(1495807269.204856) can0 42A#D85371E000000000
(1495807269.205869) can0 42C#055154008746A400
(1495807269.206885) can0 42E#8B0000E17303BB80
(1495807269.207895) can0 167#727FFF100019F800
(1495807269.208906) can0 326#81A021DF81A000C8
(1495807269.210377) can0 346#000000030300C000
(1495807269.211390) can0 348#0000000000000000
(1495807269.212397) can0 216#0000000082000000
(1495807269.213417) can0 415#0000E4F30FFE0FFE
(1495807269.217980) can0 167#727FFF100019F800
(1495807269.218990) can0 178#000001FC0E8ECE90
(1495807269.220675) can0 3B3#4048061210050022
(1495807269.221688) can0 40A#C104014107F670C1
(1495807269.222792) can0 42F#7D04002E66040177
(1495807269.224858) can0 3A5#0000000000000000
(1495807269.225881) can0 3AD#FFFFFFFFFFFFFFFF
(1495807269.226884) can0 167#727FFF100019F900
(1495807269.232012) can0 216#0000000082000000
(1495807269.233019) can0 415#0000E8F20FFE0FFE
(1495807269.236981) can0 167#727FFF100019F900
(1495807269.243754) can0 304#0800000000000000
(1495807269.245356) can0 3A4#0000000000000000
(1495807269.246372) can0 3AC#FFFFFFFFFFFFFFFF
(1495807269.247393) can0 167#727FFF100019F900
(1495807269.248409) can0 42F#7D04002E66060176
(1495807269.249417) can0 33B#0000000000000000
(1495807269.252005) can0 216#0000000082000000
(1495807269.253016) can0 415#0000ECF10FFE0FFE
(1495807269.254025) can0 083#0000000000017EF4
(1495807269.255041) can0 3BC#0C00089601A92700
(1495807269.256052) can0 3BE#00204CEE4000D300
(1495807269.257061) can0 3C4#7794E801000093DE
(1495807269.258075) can0 167#727FFF100019F900
(1495807269.259099) can0 42A#D85370E000000000
(1495807269.260103) can0 42C#05515400877EA400
(1495807269.261108) can0 42E#8F0000E1700FBBB1
(1495807269.262123) can0 53B#5D12000000000000
(1495807269.266603) can0 167#727FFF100019F900
(1495807269.271979) can0 216#0000000082000000
(1495807269.273620) can0 415#0000F0F00FFE0FFE
(1495807269.274868) can0 3A5#0000000000000000
(1495807269.275885) can0 333#0000000000000000
(1495807269.276889) can0 3AD#FFFFFFFFFFFFFFFF
(1495807269.277903) can0 167#727FFF100019F900
(1495807269.279178) can0 42F#7D04002E66070176
(1495807269.286540) can0 332#0000000000000000
(1495807269.287549) can0 167#727FFF100019F900
(1495807269.288560) can0 33A#0000000000000000
(1495807269.291980) can0 216#0000000082000000
(1495807269.292979) can0 415#0000F4EF0FFE0FFE
(1495807269.295379) can0 3A4#0000000000000000
(1495807269.296387) can0 3AC#FFFFFFFFFFFFFFFF
(1495807269.297729) can0 167#727FFF100019F900
(1495807269.302948) can0 083#0000000000017EF4
(1495807269.303974) can0 3BC#0C00089601A92700
(1495807269.304978) can0 42A#D85370E000000000
(1495807269.305988) can0 42C#055154008746A400
(1495807269.307002) can0 42E#8B0000E17103BB80
(1495807269.308012) can0 167#727FFF100019F900
(1495807269.309024) can0 326#81A021DF81A000C8
(1495807269.310035) can0 33B#0000000000000000
(1495807269.311055) can0 42F#7D04002E66070176
(1495807269.312075) can0 346#000000030300C000
(1495807269.313099) can0 216#0000000082000000
(1495807269.314103) can0 348#0000000000000000
(1495807269.315103) can0 415#0000F8EE0FFE0FFE
(1495807269.317974) can0 167#727FFF100019F900
(1495807269.318979) can0 178#000001FF0E8ECE90
(1495807269.324895) can0 3A5#0000000000000000
(1495807269.325902) can0 3A7#0E400A045F700000
(1495807269.326916) can0 3AD#FFFFFFFFFFFFFFFF
(1495807269.327922) can0 167#727FFF100019F900
(1495807269.328934) can0 466#70042831B2403800
(1495807269.331982) can0 216#0000000082000000
(1495807269.334371) can0 415#0000FCED0FFE0FFE
(1495807269.337479) can0 167#727FFF100019F900
(1495807269.339164) can0 42F#7D04002E66070176
(1495807269.343810) can0 3E1#8000010701800000
(1495807269.345391) can0 3A4#0000000000000000
(1495807269.346396) can0 358#001C000000000000
(1495807269.347411) can0 167#727FFF100019F900
(1495807269.348422) can0 3A6#0E400A045F700000
(1495807269.349441) can0 3AC#FFFFFFFFFFFFFFFF
(1495807269.350446) can0 55D#0402000000000000
(1495807269.352724) can0 216#0000000082000000
(1495807269.353733) can0 083#0000000000017EF4
(1495807269.354732) can0 3BC#0C00089601A82700
(1495807269.355741) can0 3BE#00204CEE4000D300
(1495807269.356758) can0 415#0000C0FC0FFE0FFE
(1495807269.357768) can0 42A#D8536FE000000000
(1495807269.358778) can0 167#727FFF100019F900
(1495807269.359792) can0 42C#05515400877EA400
(1495807269.360804) can0 42E#8F0000E1750FBBB1
(1495807269.366808) can0 167#727FFF100019F900
(1495807269.368057) can0 3B6#08000000307FE171
(1495807269.369064) can0 3B7#0000020060A67BEB
(1495807269.370102) can0 33B#0000000000000000
(1495807269.371103) can0 42F#7D04002E66070176
(1495807269.372451) can0 216#0000000082000000
(1495807269.373483) can0 415#0000C4FB0FFE0FFE
(1495807269.375062) can0 3A5#0000000000000000
(1495807269.376074) can0 333#0000000000000000
(1495807269.377098) can0 3AD#FFFFFFFFFFFFFFFF
(1495807269.378104) can0 167#727FFF100019F800
(1495807269.379112) can0 33C#0000000000000000
(1495807269.380126) can0 356#12BC363036300000
(1495807269.385985) can0 358#0000000000000000
(1495807269.386991) can0 167#727FFF100019F800
(1495807269.388007) can0 332#0000000000000000
(1495807269.389017) can0 33A#0000000000000000
(1495807269.392479) can0 216#0000000082000000
(1495807269.393479) can0 35D#0000000000000000
(1495807269.394487) can0 415#0000C8FA0FFE0FFE
(1495807269.395500) can0 3A4#0000000000000000
(1495807269.396509) can0 3AC#FFFFFFFFFFFFFFFF
(1495807269.397736) can0 167#727FFF100019F800
(1495807269.399185) can0 42F#7D04002E66050176
(1495807269.402756) can0 083#0000000000017EF5
(1495807269.403760) can0 3BC#0C00089601A72700
(1495807269.404772) can0 42A#D8536FE000000000
(1495807269.405790) can0 42C#055154008746A400
(1495807269.406793) can0 42E#8B0000E17603BB80
(1495807269.407806) can0 167#727FFF100019F800
(1495807269.408817) can0 326#81A021DF81A000C8
(1495807269.410228) can0 346#000000030300C000
(1495807269.411228) can0 348#0000000000000000
(1495807269.412474) can0 216#0000000082000000
(1495807269.413482) can0 415#0000CCF90FFE0FFE
(1495807269.417486) can0 167#727FFF100019F800
(1495807269.418496) can0 3C4#7793E801000093DE
(1495807269.419512) can0 178#000002020E8ECE90
(1495807269.420520) can0 356#02BC363036300000
(1495807269.421536) can0 40A#C110409060250000
(1495807269.424912) can0 3A5#0000000000000000
(1495807269.425923) can0 3AD#FFFFFFFFFFFFFFFF
(1495807269.426934) can0 167#727FFF100019F800
(1495807269.427947) can0 42F#7D04002E66040176
(1495807269.429729) can0 465#63EE415234F08FCC
(1495807269.430728) can0 33B#0000000000000000
(1495807269.432478) can0 216#0000000082000000
(1495807269.433482) can0 415#0000D0F80FFE0FFE
(1495807269.436116) can0 467#AA80003593001830
(1495807269.437608) can0 167#727FFF100019F800
(1495807269.445432) can0 3A4#0000000000000000
(1495807269.446441) can0 3AC#FFFFFFFFFFFFFFFF
(1495807269.447474) can0 167#727FFF100019F800
(1495807269.448478) can0 504#0512000000000000
(1495807269.452729) can0 216#0000000082000000
(1495807269.453732) can0 083#0000000000017EF4
(1495807269.454742) can0 3BC#0C00089601A82700
(1495807269.455752) can0 3BE#00204CEE4000D300
(1495807269.456763) can0 3C4#239360010000935C
(1495807269.457781) can0 415#0000D4F70FFE0FFE
(1495807269.458797) can0 167#727FFF100019F800
(1495807269.459801) can0 42A#D85371E000000000
(1495807269.460817) can0 42C#05515400877EA400
(1495807269.461855) can0 42E#8F0000E1790FBBB1
(1495807269.462853) can0 42F#7D04002E66040176
(1495807269.466607) can0 167#727FFF100019F700
(1495807269.472414) can0 216#0000000082000000
(1495807269.473429) can0 415#0000D8F60FFE0FFE
(1495807269.474973) can0 3A5#0000000000000000
(1495807269.475979) can0 333#0000000000000000
(1495807269.476984) can0 3AD#FFFFFFFFFFFFFFFF
(1495807269.478002) can0 167#727FFF100019F700
(1495807269.486486) can0 332#0000000000000000
(1495807269.487492) can0 167#727FFF100019F700
(1495807269.488501) can0 33A#0000000000000000
(1495807269.489518) can0 42F#7D04002E66030176
(1495807269.490521) can0 33B#0000000000000000
(1495807269.491540) can0 3DE#0000000080000000
(1495807269.492558) can0 216#0000000082000000
(1495807269.493567) can0 415#0000DCF50FFE0FFE
(1495807269.495432) can0 3A4#0000000000000000
(1495807269.496443) can0 3AC#FFFFFFFFFFFFFFFF
(1495807269.497733) can0 167#727FFF100019F700
(1495807269.502741) can0 083#0000000000017EF4
(1495807269.503655) can0 3BC#0C00089601A72700
(1495807269.504665) can0 42A#D85371E000000000
(1495807269.505683) can0 42C#055154008746A400
(1495807269.506692) can0 42E#8B0000E17603BB80
(1495807269.507723) can0 167#727FFF100019F600
(1495807269.508729) can0 3EB#5704140213100000
(1495807269.509733) can0 326#81A025DF81A000C8
(1495807269.510745) can0 35E#00C000D4AC006800
(1495807269.512395) can0 216#0000000082000000
(1495807269.513587) can0 415#0000E0F40FFE0FFE
(1495807269.514604) can0 346#000000030300C000
(1495807269.515622) can0 348#0000000000000000
(1495807269.516632) can0 3E0#0000000080000000
(1495807269.517974) can0 167#727FFF100019F600
(1495807269.518979) can0 178#000001FF0E8ECE90
(1495807269.521374) can0 42F#7D04002E66020176
(1495807269.524979) can0 3A5#0000000000000000
(1495807269.525979) can0 3A7#0E400A045F700000
(1495807269.526987) can0 167#727FFF100019F600
(1495807269.527998) can0 3AD#FFFFFFFFFFFFFFFF
(1495807269.532063) can0 216#0000000082000000
(1495807269.533068) can0 415#0000E4F30FFE0FFE
(1495807269.537005) can0 167#727FFF100019F800
(1495807269.539418) can0 3E7#0000000000000000
(1495807269.545121) can0 505#0B12000000000000
(1495807269.546113) can0 3A4#0000000000000000
(1495807269.547116) can0 167#727FFF100019F800
(1495807269.548136) can0 3A6#0E400A045F700000
(1495807269.549177) can0 3AC#FFFFFFFFFFFFFFFF
(1495807269.550156) can0 33B#0000000000000000
(1495807269.551164) can0 42F#7D04002E66040176
(1495807269.552175) can0 216#0000000082000000
(1495807269.553183) can0 083#0000000000017EF4
(1495807269.554201) can0 3BC#0C00089601A82700
(1495807269.555222) can0 3BE#00204CEE4000D300
(1495807269.556232) can0 415#0000E8F20FFE0FFE
(1495807269.557234) can0 42A#D85371E000000000
(1495807269.558235) can0 167#727FFF100019F800
(1495807269.559249) can0 42C#05515400877EA400
(1495807269.560272) can0 42E#8F0000E1720FBBB1
(1495807269.566491) can0 167#727FFF100019F800
(1495807269.572002) can0 216#0000000082000000
(1495807269.573011) can0 415#0000ECF10FFE0FFE
(1495807269.574978) can0 3A5#0000000000000000
(1495807269.575976) can0 333#0000000000000000
(1495807269.576992) can0 3AD#FFFFFFFFFFFFFFFF
(1495807269.578007) can0 167#727FFF100019F800
(1495807269.579444) can0 42F#7D04002E66050176
(1495807269.586478) can0 332#0000000000000000
(1495807269.587475) can0 167#727FFF100019F900
(1495807269.588488) can0 33A#0000000000000000
(1495807269.592004) can0 216#0000000082000000
(1495807269.593011) can0 415#0000F0F00FFE0FFE
(1495807269.595479) can0 3A4#0000000000000000
(1495807269.596481) can0 3AC#FFFFFFFFFFFFFFFF
(1495807269.597723) can0 167#727FFF100019F900
(1495807269.602613) can0 083#0000000000017EF4
(1495807269.603622) can0 3BC#0C00089601A82700
(1495807269.604633) can0 42A#D85371E000000000
(1495807269.605658) can0 42C#055154008746A400
(1495807269.606672) can0 42E#8B0000E17303BB80
(1495807269.607689) can0 167#727FFF100019F900
(1495807269.608722) can0 42F#7D04002E66060176
(1495807269.609728) can0 33B#0000000000000000
(1495807269.610727) can0 326#81A025DF81A000C8
(1495807269.611735) can0 346#000000030300C000
(1495807269.612753) can0 216#0000000082000000
(1495807269.613766) can0 348#0000000000000000
(1495807269.614775) can0 35E#00C000CEAC006000
(1495807269.615784) can0 415#0000F4EF0FFE0FFE
(1495807269.618225) can0 167#727FFF100019F900
(1495807269.619229) can0 178#000002000E8ECE90
(1495807269.620915) can0 3B6#08000100307FE16D
(1495807269.621935) can0 3B7#0000030060A65F8C
(1495807269.622943) can0 3EB#5704140213100000
(1495807269.623972) can0 40A#C000000D1192F600
(1495807269.624977) can0 3A5#0000000000000000
(1495807269.625992) can0 3AD#FFFFFFFFFFFFFFFF
(1495807269.627004) can0 167#727FFF100019F900
(1495807269.628015) can0 447#2100000002000000
(1495807269.632016) can0 216#0000000082000000
(1495807269.633022) can0 415#0000F8EE0FFE0FFE
(1495807269.635932) can0 3E2#0000000080000000
(1495807269.637631) can0 167#727FFF100019F900
(1495807269.639097) can0 42F#7D04002E66060176
(1495807269.644031) can0 50B#1E12000000000000
(1495807269.645488) can0 3A4#0000000000000000
(1495807269.646498) can0 3AC#FFFFFFFFFFFFFFFF
(1495807269.647506) can0 167#727FFF100019F900
(1495807269.652016) can0 216#0000000082000000
(1495807269.653032) can0 083#0000000000017EF5
(1495807269.654045) can0 3BC#0C00089601A82700
(1495807269.655060) can0 3BE#00204CEE4000D301
(1495807269.656069) can0 3C4#7793E801000093DE
(1495807269.657097) can0 415#0000FCED0FFE0FFE
(1495807269.658103) can0 167#727FFF100019F900
(1495807269.659106) can0 42A#D85370E000000000
(1495807269.660115) can0 42C#05515400877FA500
(1495807269.661129) can0 42E#8F0000E1740FBBB1
