(1494968671.426597) can0 2A0#FFFFFFFF00001E00
(1494968671.428095) can0 326#01A001DCF9D000C8
(1494968671.428105) can0 216#0000010082001454
(1494968671.430728) can0 331#C00051D8044A1004
(1494968671.432097) can0 167#80800009FFE00000
(1494968671.442347) can0 167#80800009FFE00000
(1494968671.444978) can0 3BE#0001E7CE7C005B00
(1494968671.448971) can0 216#0000010082001551
(1494968671.452848) can0 167#80800009FFE00000
(1494968671.454347) can0 33B#0000000000000000
(1494968671.456975) can0 3A4#0000000000000000
(1494968671.457222) can0 3A5#0000000000000000
(1494968671.459849) can0 083#0000000000017F01
(1494968671.459975) can0 3AC#FFFFFFFFFFFFFFFF
(1494968671.460098) can0 3AD#FFFFFFFFFFFFFFFF
(1494968671.461605) can0 3BC#0C00088901002700
(1494968671.463097) can0 167#80800009FFE00000
(1494968671.463223) can0 3C4#5765F8000000939E
(1494968671.464722) can0 42A#C10000E000000000
(1494968671.464972) can0 42C#0551D40032064A00
(1494968671.466350) can0 42E#130000E000039BC0
(1494968671.468975) can0 50B#1E12000000000000
(1494968671.469100) can0 216#0000010082001655
(1494968671.470600) can0 3BE#0001E7027C005B00
(1494968671.471975) can0 167#80800009FFE00000
(1494968671.480853) can0 178#016C01F60E4EC64E
(1494968671.482349) can0 167#80800009FFE00000
(1494968671.488851) can0 216#0000010082001755
(1494968671.492849) can0 167#80800009FFE00000
(1494968671.501733) can0 3B6#0800030000000000
(1494968671.501855) can0 346#000000030300C000
(1494968671.503228) can0 348#0000000000000000
(1494968671.504609) can0 167#80800009FFE00000
(1494968671.504732) can0 333#0000000000000000
(1494968671.506226) can0 3B7#0000010060C80084
(1494968671.506601) can0 3A4#0000000000000000
(1494968671.507977) can0 3A5#0000000000000000
(1494968671.509352) can0 083#0000000000017F00
(1494968671.509477) can0 216#0000010082001854
(1494968671.510852) can0 35D#0000000000000000
(1494968671.512351) can0 3AC#FFFFFFFFFFFFFFFF
(1494968671.512475) can0 167#80800009FFE00000
(1494968671.513853) can0 3AD#FFFFFFFFFFFFFFFF
(1494968671.515229) can0 332#0000000000000000
(1494968671.515474) can0 33B#0000000000000000
(1494968671.516853) can0 33A#0000000000000000
(1494968671.518352) can0 3BC#0C000C8901002700
(1494968671.518365) can0 42A#C10000E000000000
(1494968671.520979) can0 42C#0551F500323E4A40
(1494968671.521103) can0 42E#170000E0000F9BF1
(1494968671.522601) can0 167#80800009FFE00000
(1494968671.527735) can0 326#01A001DDF9D000C8
(1494968671.528105) can0 216#0000010082001950
(1494968671.531983) can0 167#80800009FFE00000
(1494968671.542110) can0 167#80800009FFE00000
(1494968671.548608) can0 216#0000010082001A55
(1494968671.552485) can0 167#80800009FFE00000
(1494968671.557619) can0 3A4#0000000000000000
(1494968671.557863) can0 3A5#0000000000000000
(1494968671.559236) can0 083#0000000000017EFF
(1494968671.559361) can0 3A6#0E400A045F700000
(1494968671.560860) can0 3A7#0E400A045F700000
(1494968671.561109) can0 3AC#FFFFFFFFFFFFFFFF
(1494968671.562610) can0 3AD#FFFFFFFFFFFFFFFF
(1494968671.564111) can0 167#80800009FFE00000
(1494968671.564123) can0 3BC#0C00088901002700
(1494968671.565611) can0 3BE#0001E7CE7C005B00
(1494968671.566988) can0 42A#C10000E000000000
(1494968671.567112) can0 42C#0551D40032064A00
(1494968671.568612) can0 42E#130000E000039BC0
(1494968671.568861) can0 216#0000010082001B55
(1494968671.570238) can0 51E#3B02000000000000
(1494968671.572862) can0 167#80800009FFE00000
(1494968671.575487) can0 33B#0000000000000000
(1494968671.580737) can0 178#016C01F60E4DC64E
(1494968671.582361) can0 167#80800009FFE00000
(1494968671.588863) can0 216#0000010082001C00
(1494968671.592740) can0 167#80800009FFE00000
(1494968671.601740) can0 346#000000030300C000
(1494968671.602238) can0 348#0000000000000000
(1494968671.603740) can0 167#80800009FFE00000
(1494968671.604240) can0 333#0000000000000000
(1494968671.605749) can0 3B3#4148001210050222
(1494968671.605991) can0 40A#C110418820250000
(1494968671.607489) can0 3A4#0000000000000000
(1494968671.608991) can0 083#0000000000017F01
(1494968671.609002) can0 216#0000010082001D15
(1494968671.610490) can0 3A5#0000000000000000
(1494968671.611868) can0 3AC#FFFFFFFFFFFFFFFF
(1494968671.611992) can0 167#80800009FFE00000
(1494968671.613366) can0 3AD#FFFFFFFFFFFFFFFF
(1494968671.614742) can0 3BC#0C000C8901002700
(1494968671.614865) can0 332#0000000000000000
(1494968671.616365) can0 3EB#1F04140311200000
(1494968671.617741) can0 33A#0000000000000000
(1494968671.617867) can0 42A#C10000E000000000
(1494968671.619240) can0 42C#0551F500323E4A40
(1494968671.620615) can0 42E#170000E0000F9BF1
(1494968671.620741) can0 084#11000088041E0D00
(1494968671.622239) can0 167#80800009FFE00000
(1494968671.627372) can0 326#01A001DDF9D000C8
(1494968671.628869) can0 216#0000010082001E55
(1494968671.632748) can0 167#80800009FFE00000
(1494968671.635370) can0 33B#0000000000000000
(1494968671.643120) can0 167#80800009FFE00000
(1494968671.648371) can0 216#0000010082001F11
(1494968671.652248) can0 167#80800009FFE00000
(1494968671.657374) can0 3A4#0000000000000000
(1494968671.657498) can0 3A5#0000000000000000
(1494968671.658873) can0 083#0000000000017F03
(1494968671.660248) can0 3AC#FFFFFFFFFFFFFFFF
(1494968671.660375) can0 3AD#FFFFFFFFFFFFFFFF
(1494968671.661873) can0 3BC#0C00088901002700
(1494968671.662122) can0 167#80800009FFE00000
(1494968671.663622) can0 3BE#0001E7CE7C005B00
(1494968671.665124) can0 3C4#5765F8300000939E
(1494968671.665248) can0 42A#C10000E000000000
(1494968671.666626) can0 42C#0551D40032064A00
(1494968671.666996) can0 42E#130000E000039BC0
(1494968671.668375) can0 53B#5D12000000000000
(1494968671.669753) can0 216#0000010082002051
(1494968671.672375) can0 167#80800009FFE00000
(1494968671.680124) can0 178#016C01F60E4DC64E
(1494968671.682874) can0 167#80800009FFE00000
(1494968671.688125) can0 216#0000010082002115
(1494968671.692002) can0 167#80800009FFE00000
(1494968671.695879) can0 33B#0000000000000000
(1494968671.701004) can0 346#000000030300C000
(1494968671.702503) can0 348#0000000000000000
(1494968671.702628) can0 167#80800009FFE00000
(1494968671.704127) can0 333#0000000000000000
(1494968671.708005) can0 3A4#0000000000000000
(1494968671.708130) can0 3A5#0000000000000000
(1494968671.708254) can0 083#0000000000017F01
(1494968671.711003) can0 216#0000010082002215
(1494968671.711015) can0 3AC#FFFFFFFFFFFFFFFF
(1494968671.711130) can0 3AD#FFFFFFFFFFFFFFFF
(1494968671.712632) can0 167#80800009FFE00000
(1494968671.714130) can0 3BC#0C000C8901002700
(1494968671.714142) can0 42A#C10000E000000000
(1494968671.715629) can0 332#0000000000000000
(1494968671.717130) can0 42C#0551F500323E4A40
(1494968671.717144) can0 33A#0000000000000000
(1494968671.718503) can0 42E#170000E0000F9BF1
(1494968671.722378) can0 167#80800009FFE00000
(1494968671.728760) can0 326#01A001DDF9D000C8
(1494968671.729003) can0 216#0000010082002340
(1494968671.732880) can0 167#80800009FFE00000
(1494968671.743132) can0 167#80800009FFE00000
(1494968671.748384) can0 216#0000010082000000
(1494968671.751012) can0 3B6#0800040000000000
(1494968671.751137) can0 3B7#0000020060C8022D
(1494968671.752635) can0 167#80800009FFE00000
(1494968671.755261) can0 33B#0000000000000000
(1494968671.757888) can0 3A4#0000000000000000
(1494968671.758012) can0 3A5#0000000000000000
(1494968671.758259) can0 083#0000000000017F00
(1494968671.761010) can0 3A6#0E400A045F700000
(1494968671.761022) can0 3A7#0E400A045F700000
(1494968671.761136) can0 3AC#FFFFFFFFFFFFFFFF
(1494968671.762635) can0 3AD#FFFFFFFFFFFFFFFF
(1494968671.764136) can0 167#80800009FFE00000
(1494968671.764148) can0 3BC#0C00088901002700
(1494968671.765670) can0 3BE#0001E7CE7C005B00
(1494968671.767137) can0 42A#C10000E000000000
(1494968671.767149) can0 42C#0551D40032064A00
(1494968671.768513) can0 42E#130000E000039BC0
(1494968671.769888) can0 216#0000010082000100
(1494968671.770013) can0 55D#0402000000000000
(1494968671.772761) can0 167#80800009FFE00000
(1494968671.780391) can0 178#016C01F60E4EC64E
(1494968671.783137) can0 167#80800009FFE00000
(1494968671.788387) can0 216#00000100820002FA
(1494968671.792266) can0 167#80800009FFE00000
(1494968671.801265) can0 346#000000030300C000
(1494968671.802765) can0 348#0000000000000000
(1494968671.803139) can0 167#80800009FFE00000
(1494968671.804640) can0 333#0000000000000000
(1494968671.806141) can0 40A#C0000003372F0600
(1494968671.806268) can0 3A4#0000000000000000
(1494968671.808892) can0 3A5#0000000000000000
(1494968671.809142) can0 083#0000000000017F01
(1494968671.809267) can0 216#00000100820003B3
(1494968671.811893) can0 3AC#FFFFFFFFFFFFFFFF
(1494968671.812019) can0 3AD#FFFFFFFFFFFFFFFF
(1494968671.812265) can0 167#80800009FFE00000
(1494968671.813770) can0 3BC#0C000C8901002700
(1494968671.814142) can0 42A#C10000E000000000
(1494968671.815667) can0 332#0000000000000000
(1494968671.817143) can0 33B#0000000000000000
(1494968671.817155) can0 33A#0000000000000000
(1494968671.818641) can0 42C#0551F500323E4A40
(1494968671.820020) can0 42E#170000E0000F9BF1
(1494968671.822785) can0 167#80800009FFE00000
(1494968671.827894) can0 326#01A001DDF9D000C8
(1494968671.829267) can0 216#0000010082000448
(1494968671.831892) can0 167#80800009FFE00000
(1494968671.839524) can0 304#0800000000000000
(1494968671.842269) can0 167#80800009FFE00000
(1494968671.848770) can0 216#0000010082000547
(1494968671.852648) can0 167#80800009FFE00000
(1494968671.857774) can0 3A4#0000000000000000
(1494968671.857899) can0 3A5#0000000000000000
(1494968671.859273) can0 083#0000000000017EFE
(1494968671.859522) can0 3AC#FFFFFFFFFFFFFFFF
(1494968671.860899) can0 3AD#FFFFFFFFFFFFFFFF
(1494968671.861271) can0 3BC#0C00088901002700
(1494968671.862775) can0 167#80800009FFE00000
(1494968671.863148) can0 3BE#0001E7CE7C005B00
(1494968671.864647) can0 3C4#5765F8400000939E
(1494968671.866149) can0 42A#C10000E000000000
(1494968671.866160) can0 42C#0551D40032064A00
(1494968671.867524) can0 42E#130000E000039BC0
(1494968671.868900) can0 504#0512000000000000
(1494968671.869025) can0 216#0000010082000639
(1494968671.872901) can0 167#80800009FFE00000
(1494968671.875655) can0 33B#0000000000000000
(1494968671.880900) can0 178#016C01F60E4EC24E
(1494968671.882276) can0 167#80800009FFE00000
(1494968671.888778) can0 216#0000010082000743
(1494968671.892653) can0 167#80800009FFE00000
(1494968671.901530) can0 346#000000030300C000
(1494968671.901781) can0 348#0000000000000000
(1494968671.903155) can0 167#80800009FFE00000
(1494968671.904530) can0 333#0000000000000000
(1494968671.907156) can0 3A4#0000000000000000
(1494968671.907402) can0 3A5#0000000000000000
(1494968671.910030) can0 216#000001008200082D
(1494968671.910279) can0 083#0000000000017F00
(1494968671.910291) can0 3AC#FFFFFFFFFFFFFFFF
(1494968671.912906) can0 3AD#FFFFFFFFFFFFFFFF
(1494968671.913032) can0 167#80800009FFE00000
(1494968671.913155) can0 3BC#0C000C8901002700
(1494968671.914654) can0 42A#C10000E000000000
(1494968671.916156) can0 332#0000000000000000
(1494968671.916168) can0 42C#0551F500323E4A40
(1494968671.917656) can0 33A#0000000000000000
(1494968671.919154) can0 42E#170000E0000F9BF1
(1494968671.923032) can0 167#80800009FFE00000
(1494968671.928280) can0 216#0000010082000931
(1494968671.929659) can0 326#01A001DDF9D000C8
(1494968671.932283) can0 167#80800009FFE00000
(1494968671.934908) can0 33B#0000000000000000
(1494968671.940034) can0 3E1#8000010701800000
(1494968671.942660) can0 167#80800009FFE00000
(1494968671.949158) can0 216#0000010082000A34
(1494968671.953036) can0 167#80800009FFE00000
(1494968671.956914) can0 3A4#0000000000000000
(1494968671.958286) can0 3A5#0000000000000000
(1494968671.958411) can0 083#0000000000017F02
(1494968671.961037) can0 3A6#0E400A045F700000
(1494968671.961285) can0 3A7#0E400A045F700000
(1494968671.961297) can0 3AC#FFFFFFFFFFFFFFFF
(1494968671.963912) can0 167#80800009FFE00000
(1494968671.964038) can0 3AD#FFFFFFFFFFFFFFFF
(1494968671.964162) can0 3BC#0C00088901002700
(1494968671.965668) can0 3BE#0001E7CE7C005B00
(1494968671.967162) can0 42A#C10000E000000000
(1494968671.967174) can0 42C#0551D40032064A00
(1494968671.968538) can0 42E#130000E000039BC0
(1494968671.969913) can0 216#0000010082000B43
(1494968671.970038) can0 505#0B12000000000000
(1494968671.972663) can0 167#80800009FFE00000
(1494968671.980413) can0 178#016C01F60E4EC64E
(1494968671.983039) can0 167#80800009FFE00000
(1494968671.988288) can0 216#0000010082000C36
(1494968671.992166) can0 167#80800009FFE00000
(1494968671.996043) can0 33B#0000000000000000
(1494968672.002417) can0 167#80800009FFE00000
(1494968672.005166) can0 3B6#0800050000000000
(1494968672.005177) can0 333#0000000000000000
(1494968672.005539) can0 3B7#0000030060C8017C
(1494968672.006919) can0 3A4#0000000000000000
(1494968672.008293) can0 346#000000030300C000
(1494968672.008540) can0 3A5#0000000000000000
(1494968672.010042) can0 083#0000000000017F02
(1494968672.011418) can0 216#0000010082000D30
(1494968672.011543) can0 3AC#FFFFFFFFFFFFFFFF
(1494968672.012918) can0 348#0000000000000000
(1494968672.014294) can0 3AD#FFFFFFFFFFFFFFFF
(1494968672.014418) can0 167#80800009FFE00000
(1494968672.017169) can0 332#0000000000000000
(1494968672.017181) can0 3BC#0C000C8901002700
(1494968672.017293) can0 33A#0000000000000000
(1494968672.019919) can0 3E0#0000000080000000
(1494968672.020044) can0 3EB#1F04140311200000
(1494968672.020416) can0 40A#C100334641365030
(1494968672.021921) can0 42A#C10000E000000000
(1494968672.022168) can0 167#80800009FFE00000
(1494968672.023668) can0 42C#0551F500323F4B40
(1494968672.025167) can0 42E#170000E0000F9BF1
(1494968672.029046) can0 216#0000010082000E32
(1494968672.029294) can0 326#01A001DDF9D000C8
(1494968672.031921) can0 167#80800009FFE00000
(1494968672.042048) can0 167#80800009FFE00000
(1494968672.048545) can0 216#0000010082000F2D
(1494968672.050047) can0 3E7#0000000000000000
(1494968672.050058) can0 3B4#401111FF23230000
(1494968672.052796) can0 167#80800009FFE00000
(1494968672.055423) can0 33B#0000000000000000
(1494968672.058050) can0 3A4#0000000000000000
(1494968672.058174) can0 3A5#0000000000000000
(1494968672.058421) can0 083#0000000000017F01
(1494968672.061049) can0 3AC#FFFFFFFFFFFFFFFF
(1494968672.061297) can0 3AD#FFFFFFFFFFFFFFFF
(1494968672.061309) can0 3BC#0C00088901002700
(1494968672.063924) can0 167#80800009FFE00000
(1494968672.064050) can0 3BE#0001E7CE7C005B01
(1494968672.064174) can0 3C4#5765F8000000939E
(1494968672.065678) can0 3D5#4121094000000000
(1494968672.067173) can0 42A#C10000E000000000
(1494968672.067185) can0 42C#0551D40032064A00
(1494968672.068550) can0 42E#130000E000039BC0
(1494968672.069928) can0 216#0000010082001041
(1494968672.070050) can0 50B#1E12000000000000
(1494968672.072675) can0 167#80800009FFE00000
(1494968672.080426) can0 178#016C01F60E4DC64E
(1494968672.083052) can0 167#80800009FFE00000
(1494968672.088300) can0 216#0000010082001146
(1494968672.092178) can0 167#80800009FFE00000
(1494968672.101055) can0 346#000000030300C000
(1494968672.102429) can0 348#0000000000000000
(1494968672.102679) can0 3B3#4148001210050222
(1494968672.104055) can0 167#80800009FFE00000
(1494968672.105429) can0 333#0000000000000000
(1494968672.105554) can0 3C3#4008000000004100
(1494968672.106932) can0 33C#2400000000000000
(1494968672.108428) can0 3A4#0000000000000000
(1494968672.108440) can0 083#0000000000017F04
(1494968672.111055) can0 216#0000010082001200
(1494968672.111181) can0 3A5#0000000000000000
(1494968672.111428) can0 3AC#FFFFFFFFFFFFFFFF
(1494968672.114056) can0 167#80800009FFE00000
(1494968672.114309) can0 3AD#FFFFFFFFFFFFFFFF
(1494968672.114326) can0 332#0000000000000000
(1494968672.116932) can0 3BC#0C000C8901002700
(1494968672.117057) can0 33A#0000000000000000
(1494968672.117304) can0 33B#0000000000000000
(1494968672.119932) can0 3DE#0000000080000000
(1494968672.120180) can0 3E2#0000000080000000
(1494968672.120305) can0 42A#C10000E000000000
(1494968672.121809) can0 42C#0551F500323E4A40
(1494968672.122179) can0 42E#170000E0000F9BF1
(1494968672.123680) can0 167#80800009FFE00000
(1494968672.125057) can0 1E6#800CE2CE00000000
(1494968672.129056) can0 216#0000010082001300
(1494968672.130433) can0 326#01A001DDF9D000C8
(1494968672.133058) can0 167#80800009FFE00000
(1494968672.136935) can0 34E#0000000000000000
(1494968672.138309) can0 358#0000000000000000
(1494968672.142184) can0 167#80800009FFE00000
(1494968672.148683) can0 216#0000010082001454
(1494968672.152561) can0 167#80800009FFE00000
(1494968672.157689) can0 3A4#0000000000000000
(1494968672.157814) can0 3A5#0000000000000000
(1494968672.159186) can0 083#0000000000017EFF
(1494968672.159434) can0 2FD#D400E30000000000
(1494968672.162186) can0 3A6#0E400A045F700000
(1494968672.162198) can0 3A7#0E400A045F700000
(1494968672.162311) can0 167#80800009FFE00000
(1494968672.164938) can0 3AC#FFFFFFFFFFFFFFFF
(1494968672.165063) can0 3AD#FFFFFFFFFFFFFFFF
(1494968672.165186) can0 3BC#0C00088901002700
(1494968672.166687) can0 3BE#0001E7CE7C005B00
(1494968672.168187) can0 42A#C10000E000000000
(1494968672.168199) can0 42C#0551D40032064A00
(1494968672.169562) can0 216#0000010082001551
(1494968672.170938) can0 42E#130000E000039BC0
(1494968672.171063) can0 51E#3B02000000000000
(1494968672.172438) can0 167#80800009FFE00000
(1494968672.175063) can0 33B#0000000000000000
(1494968672.180312) can0 178#016C01F60E4EC64E
(1494968672.182941) can0 167#80800009FFE00000
(1494968672.188187) can0 216#0000010082001655
(1494968672.192189) can0 167#80800009FFE00000
(1494968672.202318) can0 346#000000030300C000
(1494968672.202442) can0 167#80800009FFE00000
(1494968672.205067) can0 348#0000000000000000
(1494968672.205193) can0 333#0000000000000000
(1494968672.205206) can0 40A#C1014C5534485233
(1494968672.207942) can0 3A4#0000000000000000
(1494968672.207954) can0 3A5#0000000000000000
(1494968672.209318) can0 083#0000000000017F00
(1494968672.209442) can0 216#0000010082001755
(1494968672.212068) can0 3AC#FFFFFFFFFFFFFFFF
(1494968672.212194) can0 3AD#FFFFFFFFFFFFFFFF
(1494968672.212441) can0 167#80800009FFE00000
(1494968672.215070) can0 3BC#0C000C8901002700
(1494968672.215195) can0 42A#C10000E000000000
(1494968672.215318) can0 332#0000000000000000
(1494968672.216817) can0 42C#0551F500323E4A40
(1494968672.217192) can0 33A#0000000000000000
(1494968672.218692) can0 42E#170000E0000F9BF1
(1494968672.222568) can0 167#80800009FFE00000
(1494968672.228944) can0 216#0000010082001854
(1494968672.230318) can0 124#0202000000000000
(1494968672.231693) can0 22C#000A000000000000
(1494968672.231941) can0 167#80800009FFE00000
(1494968672.233442) can0 326#01A001DDF9D000C8
(1494968672.234818) can0 355#200700A0008A00E0
(1494968672.234944) can0 33B#0000000000000000
(1494968672.236324) can0 356#003C202020200000
(1494968672.237699) can0 35E#00C0001499590000
(1494968672.237826) can0 3E7#0000000000000000
(1494968672.239320) can0 41A#7500000000000000
(1494968672.241947) can0 167#80800009FFE00000
(1494968672.248324) can0 216#0000010082001950
(1494968672.250949) can0 331#C00051D8044A1004
(1494968672.251073) can0 3B6#0800060000000000
(1494968672.252449) can0 3B7#0000000060C801CE
(1494968672.252698) can0 167#80800009FFE00000
(1494968672.257826) can0 3A4#0000000000000000
(1494968672.257949) can0 3A5#0000000000000000
(1494968672.259324) can0 083#0000000000017F02
(1494968672.259450) can0 3AC#FFFFFFFFFFFFFFFF
(1494968672.262199) can0 3AD#FFFFFFFFFFFFFFFF
(1494968672.262211) can0 3BC#0C00088901002700
(1494968672.262325) can0 167#80800009FFE00000
(1494968672.264951) can0 3BE#0001E7CE7C005B00
(1494968672.265076) can0 3C4#5765F8000000939E
(1494968672.265199) can0 42A#C10000E000000000
(1494968672.266823) can0 42C#0551D40032064A00
(1494968672.267073) can0 42E#130000E000039BC0
(1494968672.268450) can0 53B#5D12000000000000
(1494968672.269829) can0 216#0000010082001A55
(1494968672.272450) can0 167#80800009FFE00000
(1494968672.280078) can0 178#016C01F60E4EC64E
(1494968672.282826) can0 167#80800009FFE00000
(1494968672.287955) can0 216#0000010082001B55
(1494968672.293079) can0 167#80800009FFE00000
(1494968672.295710) can0 33B#0000000000000000
(1494968672.302080) can0 346#000000030300C000
(1494968672.302205) can0 348#0000000000000000
(1494968672.302579) can0 167#80800009FFE00000
(1494968672.303955) can0 333#0000000000000000
(1494968672.307831) can0 3A4#0000000000000000
(1494968672.307955) can0 3A5#0000000000000000
(1494968672.309330) can0 083#0000000000017F01
(1494968672.309457) can0 216#0000010082001C00
(1494968672.312206) can0 3AC#FFFFFFFFFFFFFFFF
(1494968672.312218) can0 3AD#FFFFFFFFFFFFFFFF
(1494968672.312331) can0 167#80800009FFE00000
(1494968672.314956) can0 3BC#0C000C8901002700
(1494968672.315081) can0 42A#C10000E000000000
(1494968672.315329) can0 332#0000000000000000
(1494968672.316831) can0 42C#0551F500323E4A40
(1494968672.317204) can0 33A#0000000000000000
(1494968672.318706) can0 42E#170000E0000F9BF1
(1494968672.320231) can0 33F#0200200000000000
(1494968672.322832) can0 167#80800009FFE00000
(1494968672.327959) can0 216#0000010082001D15
(1494968672.331955) can0 326#01A001DEF9D000C8
(1494968672.331968) can0 167#80800009FFE00000
(1494968672.342088) can0 167#80800009FFE00000
(1494968672.348463) can0 216#0000010082001E55
(1494968672.351086) can0 55D#0402000000000000
(1494968672.352583) can0 167#80800009FFE00000
(1494968672.355211) can0 33B#0000000000000000
(1494968672.357840) can0 3A4#0000000000000000
(1494968672.357967) can0 3A5#0000000000000000
(1494968672.359337) can0 083#0000000000017F01
(1494968672.359462) can0 3A6#0E400A045F700000
(1494968672.362211) can0 3A7#0E400A045F700000
(1494968672.362223) can0 3AC#FFFFFFFFFFFFFFFF
(1494968672.362336) can0 167#80800009FFE00000
(1494968672.364963) can0 3AD#FFFFFFFFFFFFFFFF
(1494968672.365089) can0 3BC#0C00088901002700
(1494968672.365212) can0 3BE#0001E7CE7C005B00
(1494968672.366837) can0 42A#C10000E000000000
(1494968672.367211) can0 42C#0551D40032064A00
(1494968672.368713) can0 42E#130000E000039BC0
(1494968672.370088) can0 216#0000010082001F11
(1494968672.372713) can0 167#80800009FFE00000
(1494968672.380340) can0 178#016C01F60E4EC24E
(1494968672.383088) can0 167#80800009FFE00000
(1494968672.388217) can0 216#0000010082002051
(1494968672.392091) can0 167#80800009FFE00000
(1494968672.400969) can0 346#000000030300C000
(1494968672.402342) can0 348#0000000000000000
(1494968672.403717) can0 167#80800009FFE00000
(1494968672.404091) can0 40A#C1023130353736FF
(1494968672.405468) can0 333#0000000000000000
(1494968672.408094) can0 3A4#0000000000000000
(1494968672.408217) can0 3A5#0000000000000000
(1494968672.408466) can0 083#0000000000017EFE
(1494968672.411093) can0 216#0000010082002115
(1494968672.411343) can0 3AC#FFFFFFFFFFFFFFFF
(1494968672.411467) can0 3AD#FFFFFFFFFFFFFFFF
(1494968672.414094) can0 167#80800009FFE00000
(1494968672.414219) can0 3BC#0C000C8901002700
(1494968672.414342) can0 332#0000000000000000
(1494968672.416972) can0 42A#C10000E000000000
(1494968672.417218) can0 33A#0000000000000000
(1494968672.417343) can0 33B#0000000000000000
(1494968672.418865) can0 42C#0551F500323E4A40
(1494968672.419217) can0 42E#170000E0000F9C31
(1494968672.423097) can0 167#80800009FFE00000
(1494968672.428222) can0 216#0000010082002215
(1494968672.430863) can0 331#C00051D9044A1004
(1494968672.430976) can0 2A0#FFFFFFFF00001E00
(1494968672.432343) can0 167#80800009FFE00000
(1494968672.433719) can0 326#01A001DEF9D000C8
(1494968672.442597) can0 167#80800009FFE00000
(1494968672.444092) can0 3BE#0001E7CE7C005D00
(1494968672.445469) can0 504#0512000000000000
(1494968672.448101) can0 216#0000010082002340
(1494968672.451974) can0 167#80800009FFE00000
(1494968672.457102) can0 3A4#0000000000000000
(1494968672.458475) can0 3A5#0000000000000000
(1494968672.458722) can0 083#0000000000017F01
(1494968672.460099) can0 3AC#FFFFFFFFFFFFFFFF
(1494968672.461474) can0 3AD#FFFFFFFFFFFFFFFF
(1494968672.461599) can0 3BC#0C00088901002700
(1494968672.462975) can0 167#80800009FFE00000
(1494968672.464349) can0 3C4#5765F8000000939E
(1494968672.464598) can0 42A#C10000E000000000
(1494968672.466101) can0 42C#0551D40032064A00
(1494968672.466225) can0 42E#130000E000039C00
(1494968672.468852) can0 3BE#0001E7027C005D00
(1494968672.468977) can0 216#0000010082000000
(1494968672.472852) can0 167#80800009FFE00000
(1494968672.475600) can0 33B#0000000000000000
(1494968672.480730) can0 178#016C01F60E4DC64E
(1494968672.482102) can0 167#80800009FFE00000
(1494968672.488601) can0 216#0000010082000100
(1494968672.492479) can0 167#80800009FFE00000
(1494968672.501356) can0 346#000000030300C000
(1494968672.501604) can0 348#0000000000000000
(1494968672.502980) can0 3B6#0800070000000000
(1494968672.504355) can0 167#80800009FFE00000
(1494968672.504481) can0 333#0000000000000000
(1494968672.507107) can0 3B7#0000010060C80084
(1494968672.507233) can0 3A4#0000000000000000
(1494968672.507480) can0 3A5#0000000000000000
(1494968672.510106) can0 083#0000000000017F04
(1494968672.510235) can0 216#00000100820002FA
(1494968672.510479) can0 35D#0000000000000000
(1494968672.513107) can0 3AC#FFFFFFFFFFFFFFFF
(1494968672.513231) can0 167#80800009FFE00000
(1494968672.513479) can0 3AD#FFFFFFFFFFFFFFFF
(1494968672.516108) can0 332#0000000000000000
(1494968672.516232) can0 3BC#0C000C8901002700
(1494968672.516357) can0 33A#0000000000000000
(1494968672.518983) can0 42A#C10000E000000000
(1494968672.519230) can0 42C#0551F500323E4A40
(1494968672.519242) can0 42E#170000E0000F9C31
(1494968672.523110) can0 167#80800009FFE00000
(1494968672.528238) can0 216#00000100820003B3
(1494968672.532109) can0 326#01A001DEF9D000C8
(1494968672.532356) can0 167#80800009FFE00000
(1494968672.535107) can0 33B#0000000000000000
(1494968672.542737) can0 167#80800009FFE00000
(1494968672.544233) can0 505#0B12000000000000
(1494968672.548113) can0 216#0000010082000448
(1494968672.551988) can0 167#80800009FFE00000
(1494968672.557113) can0 3A4#0000000000000000
(1494968672.558612) can0 3A5#0000000000000000
(1494968672.558624) can0 083#0000000000017EFC
(1494968672.559989) can0 3A6#0E400A045F700000
(1494968672.561363) can0 3A7#0E400A045F700000
(1494968672.561489) can0 3AC#FFFFFFFFFFFFFFFF
(1494968672.564113) can0 167#80800009FFE00000
(1494968672.564363) can0 3AD#FFFFFFFFFFFFFFFF
(1494968672.564375) can0 3BC#0C00088901002700
(1494968672.566992) can0 3BE#0001E7CE7C005D00
(1494968672.567115) can0 42A#C10000E000000000
(1494968672.567237) can0 42C#0551D40032064A00
(1494968672.568738) can0 42E#130000E000039C00
(1494968672.570237) can0 216#0000010082000547
(1494968672.572865) can0 167#80800009FFE00000
(1494968672.580492) can0 178#016C01F60E4EC64E
(1494968672.583116) can0 167#80800009FFE00000
(1494968672.588243) can0 216#0000010082000639
(1494968672.592117) can0 167#80800009FFE00000
(1494968672.596116) can0 33B#0000000000000000
(1494968672.601243) can0 346#000000030300C000
(1494968672.602618) can0 348#0000000000000000
(1494968672.603993) can0 167#80800009FFE00000
(1494968672.604118) can0 3B3#4148001210050222
(1494968672.605494) can0 333#0000000000000000
(1494968672.606994) can0 40A#C104010107CC70C1
(1494968672.607005) can0 3A4#0000000000000000
(1494968672.608369) can0 083#0000000000017F05
(1494968672.609744) can0 216#0000010082000743
(1494968672.609869) can0 3A5#0000000000000000
(1494968672.611367) can0 3AC#FFFFFFFFFFFFFFFF
(1494968672.612744) can0 3AD#FFFFFFFFFFFFFFFF
(1494968672.612870) can0 167#80800009FFE00000
(1494968672.614244) can0 3BC#0C000C8901002700
(1494968672.615620) can0 332#0000000000000000
(1494968672.615751) can0 3EB#1F04140312200000
(1494968672.617243) can0 33A#0000000000000000
(1494968672.618621) can0 42A#C10000E000000000
(1494968672.618745) can0 42C#0551F500323E4A40
(1494968672.620120) can0 42E#170000E0000F9C31
(1494968672.621498) can0 084#11000088041F0D00
(1494968672.622872) can0 167#80800009FFE00000
(1494968672.628116) can0 216#000001008200082D
(1494968672.631993) can0 167#80800009FFE00000
(1494968672.633369) can0 326#01A001DEF9D000C8
(1494968672.642250) can0 167#80800009FFE00000
(1494968672.648626) can0 216#0000010082000931
(1494968672.650000) can0 50B#1E12000000000000
(1494968672.652748) can0 167#80800009FFE00000
(1494968672.655375) can0 33B#0000000000000000
(1494968672.658001) can0 3A4#0000000000000000
(1494968672.658125) can0 3A5#0000000000000000
(1494968672.659500) can0 083#0000000000017F00
(1494968672.659626) can0 3AC#FFFFFFFFFFFFFFFF
(1494968672.661127) can0 3AD#FFFFFFFFFFFFFFFF
(1494968672.661498) can0 3BC#0C00088901002700
(1494968672.664126) can0 167#80800009FFE00000
(1494968672.664252) can0 3BE#0001E7CE7C005D00
(1494968672.664375) can0 3C4#5765F8300000939E
(1494968672.667003) can0 42A#C10000E000000000
(1494968672.667128) can0 42C#0551D40032064A00
(1494968672.667251) can0 42E#130000E000039C00
(1494968672.668749) can0 216#0000010082000A34
(1494968672.672627) can0 167#80800009FFE00000
(1494968672.680255) can0 178#016C01F60E4EC64E
(1494968672.682879) can0 167#80800009FFE00000
(1494968672.688128) can0 216#0000010082000B43
(1494968672.692005) can0 167#80800009FFE00000
(1494968672.702132) can0 346#000000030300C000
(1494968672.702256) can0 348#0000000000000000
(1494968672.702504) can0 167#80800009FFE00000
(1494968672.705131) can0 333#0000000000000000
(1494968672.707758) can0 3A4#0000000000000000
(1494968672.707878) can0 3A5#0000000000000000
(1494968672.709253) can0 083#0000000000017F03
(1494968672.709501) can0 216#0000010082000C36
(1494968672.712128) can0 3AC#FFFFFFFFFFFFFFFF
(1494968672.712378) can0 3AD#FFFFFFFFFFFFFFFF
(1494968672.712502) can0 167#80800009FFE00000
(1494968672.715128) can0 3BC#0C000C8901002700
(1494968672.715255) can0 332#0000000000000000
(1494968672.715377) can0 42A#C10000E000000000
(1494968672.718010) can0 33A#0000000000000000
(1494968672.718255) can0 33B#0000000000000000
(1494968672.718380) can0 42C#0551F500323E4A40
(1494968672.719880) can0 42E#170000E0000F9C31
(1494968672.722507) can0 167#80800009FFE00000
(1494968672.728886) can0 216#0000010082000D30
(1494968672.732759) can0 167#80800009FFE00000
(1494968672.733008) can0 326#01A001DEF9D000C8
(1494968672.738137) can0 51E#3B02000000000000
(1494968672.742014) can0 167#80800009FFE00000
(1494968672.748387) can0 216#0000010082000E32
(1494968672.751011) can0 3B6#0800080000000000
(1494968672.751136) can0 3B7#0000020060C8022D
(1494968672.752634) can0 167#80800009FFE00000
(1494968672.757772) can0 3A4#0000000000000000
(1494968672.757892) can0 3A5#0000000000000000
(1494968672.759262) can0 083#0000000000017EFF
(1494968672.759511) can0 3A6#0E400A045F700000
(1494968672.762138) can0 3A7#0E400A045F700000
(1494968672.762387) can0 3AC#FFFFFFFFFFFFFFFF
(1494968672.762512) can0 167#80800009FFE00000
(1494968672.765138) can0 3AD#FFFFFFFFFFFFFFFF
(1494968672.765263) can0 3BC#0C00088901002700
(1494968672.765387) can0 3BE#0001E7CE7C005D00
(1494968672.768015) can0 42A#C10000E000000000
(1494968672.768140) can0 42C#0551D40032064A00
(1494968672.768263) can0 42E#130000E000039C00
(1494968672.769761) can0 216#0000010082000F2D
(1494968672.772389) can0 167#80800009FFE00000
(1494968672.775137) can0 33B#0000000000000000
(1494968672.780266) can0 178#016C01F60E4EC64E
(1494968672.783015) can0 167#80800009FFE00000
(1494968672.788143) can0 216#0000010082001041
(1494968672.792017) can0 167#80800009FFE00000
(1494968672.802144) can0 346#000000030300C000
(1494968672.802268) can0 348#0000000000000000
(1494968672.803766) can0 167#80800009FFE00000
(1494968672.803892) can0 40A#C110418820250000
(1494968672.805269) can0 333#0000000000000000
(1494968672.807895) can0 3A4#0000000000000000
(1494968672.808019) can0 3A5#0000000000000000
(1494968672.809394) can0 083#0000000000017F00
(1494968672.809641) can0 216#0000010082001146
(1494968672.811019) can0 3AC#FFFFFFFFFFFFFFFF
(1494968672.812395) can0 3AD#FFFFFFFFFFFFFFFF
(1494968672.812519) can0 167#80800009FFE00000
(1494968672.815145) can0 3BC#0C000C8901002700
(1494968672.815270) can0 332#0000000000000000
(1494968672.815517) can0 42A#C10000E000000000
(1494968672.818147) can0 33A#0000000000000000
(1494968672.818271) can0 42C#0551F500323E4A40
(1494968672.818394) can0 42E#170000E0000F9C31
(1494968672.821021) can0 53B#5D12000000000000
(1494968672.822396) can0 167#80800009FFE00000
(1494968672.828895) can0 216#0000010082001200
(1494968672.832773) can0 167#80800009FFE00000
(1494968672.832901) can0 326#01A001DEF9D000C8
(1494968672.835522) can0 33B#0000000000000000
(1494968672.840649) can0 304#0800000000000000
(1494968672.842023) can0 167#80800009FFE00000
(1494968672.848522) can0 216#0000010082001300
(1494968672.852400) can0 167#80800009FFE00000
(1494968672.857526) can0 3A4#0000000000000000
(1494968672.857650) can0 3A5#0000000000000000
(1494968672.859025) can0 083#0000000000017F00
(1494968672.860400) can0 3AC#FFFFFFFFFFFFFFFF
(1494968672.860650) can0 3AD#FFFFFFFFFFFFFFFF
(1494968672.862026) can0 3BC#0C00088901002700
(1494968672.863402) can0 167#80800009FFE00000
(1494968672.863526) can0 3BE#0001E7CE7C005D00
(1494968672.866152) can0 3C4#5765F8400000939E
(1494968672.866277) can0 42A#C10000E000000000
(1494968672.866401) can0 42C#0551D40032064A00
(1494968672.867900) can0 42E#130000E000039C00
(1494968672.868274) can0 216#0000010082001454
(1494968672.872154) can0 167#80800009FFE00000
(1494968672.879902) can0 178#016C01F60E4DC64E
(1494968672.882650) can0 167#80800009FFE00000
(1494968672.889030) can0 216#0000010082001551
(1494968672.892904) can0 167#80800009FFE00000
(1494968672.895529) can0 33B#0000000000000000
(1494968672.900778) can0 346#000000030300C000
(1494968672.902279) can0 348#0000000000000000
(1494968672.902404) can0 167#80800009FFE00000
(1494968672.905031) can0 333#0000000000000000
(1494968672.907657) can0 3A4#0000000000000000
(1494968672.907782) can0 3A5#0000000000000000
(1494968672.909156) can0 083#0000000000017F01
(1494968672.910531) can0 216#0000010082001655
(1494968672.910781) can0 3AC#FFFFFFFFFFFFFFFF
(1494968672.912157) can0 3AD#FFFFFFFFFFFFFFFF
(1494968672.913532) can0 167#80800009FFE00000
(1494968672.913657) can0 3BC#0C000C8901002700
(1494968672.915032) can0 332#0000000000000000
(1494968672.916408) can0 42A#C10000E000000000
(1494968672.916654) can0 33A#0000000000000000
(1494968672.918036) can0 42C#0551F500323E4A40
(1494968672.918404) can0 42E#170000E0000F9C31
(1494968672.919906) can0 55D#0402000000000000
(1494968672.922532) can0 167#80800009FFE00000
(1494968672.928913) can0 216#0000010082001755
(1494968672.932907) can0 167#80800009FFE00000
(1494968672.933282) can0 326#01A001DEF9D000C8
(1494968672.940911) can0 3E1#8000010701800000
(1494968672.942286) can0 167#80800009FFE00000
(1494968672.948662) can0 216#0000010082001854
(1494968672.952537) can0 167#80800009FFE00000
(1494968672.955285) can0 33B#0000000000000000
(1494968672.957917) can0 3A4#0000000000000000
(1494968672.958038) can0 3A5#0000000000000000
(1494968672.959413) can0 083#0000000000017EFE
(1494968672.959660) can0 3A6#0E400A045F700000
(1494968672.961038) can0 3A7#0E400A045F700000
(1494968672.962538) can0 3AC#FFFFFFFFFFFFFFFF
(1494968672.962550) can0 167#80800009FFE00000
(1494968672.965163) can0 3AD#FFFFFFFFFFFFFFFF
(1494968672.965288) can0 3BC#0C00088901002700
(1494968672.965413) can0 3BE#0001E7CE7C005D00
(1494968672.968040) can0 42A#C10000E000000000
(1494968672.968165) can0 42C#0551D40032064A00
(1494968672.968288) can0 216#0000010082001950
(1494968672.969790) can0 42E#130000E000039C00
(1494968672.972414) can0 167#80800009FFE00000
(1494968672.980165) can0 178#016C01F60E4EC64E
(1494968672.982915) can0 167#80800009FFE00000
(1494968672.988042) can0 216#0000010082001A55
(1494968672.993168) can0 167#80800009FFE00000
(1494968673.002045) can0 167#80800009FFE00000
(1494968673.003418) can0 3B6#0800090000000000
(1494968673.004793) can0 333#0000000000000000
(1494968673.005042) can0 3B7#0000030060C8017C
(1494968673.006420) can0 3EB#1F04140312200000
(1494968673.007794) can0 346#000000030300C000
(1494968673.007919) can0 348#0000000000000000
(1494968673.009294) can0 083#0000000000017F01
(1494968673.010669) can0 216#0000010082001B55
(1494968673.010917) can0 3A4#0000000000000000
(1494968673.012294) can0 3A5#0000000000000000
(1494968673.013670) can0 3AC#FFFFFFFFFFFFFFFF
(1494968673.013920) can0 3AD#FFFFFFFFFFFFFFFF
(1494968673.015295) can0 332#0000000000000000
(1494968673.016672) can0 3BC#0C000C8901002700
(1494968673.016918) can0 33A#0000000000000000
(1494968673.018295) can0 3E0#0000000080000000
(1494968673.019671) can0 40A#C0000003372F1200
(1494968673.019795) can0 167#80800009FFE00000
(1494968673.021171) can0 33B#0000000000000000
(1494968673.022548) can0 42A#C10000E000000000
(1494968673.022795) can0 167#80800009FFE00000
(1494968673.024171) can0 42C#0551F500323F4B40
(1494968673.025546) can0 42E#170000E0000F9C31
(1494968673.025677) can0 504#0512000000000000
(1494968673.028296) can0 216#0000010082001C00
(1494968673.032171) can0 167#80800009FFE00000
(1494968673.034921) can0 358#005C000000000000
(1494968673.034932) can0 326#01A001DEF9D000C8
(1494968673.042549) can0 167#80800009FFE00000
(1494968673.045173) can0 3E7#0000000000000000
(1494968673.049173) can0 216#0000010082001D15
(1494968673.050549) can0 3B4#401111FF23230000
(1494968673.053299) can0 167#80800009FFE00000
(1494968673.057176) can0 3A4#0000000000000000
(1494968673.058550) can0 3A5#0000000000000000
(1494968673.058675) can0 083#0000000000017F01
(1494968673.060052) can0 3AC#FFFFFFFFFFFFFFFF
(1494968673.061549) can0 3AD#FFFFFFFFFFFFFFFF
(1494968673.061674) can0 3BC#0C00088901002700
(1494968673.063052) can0 167#80800009FFE00000
(1494968673.064425) can0 3BE#0001E7CE7C005D01
(1494968673.064551) can0 3C4#5765F8000000939E
(1494968673.067178) can0 3D5#4121094000000000
(1494968673.067425) can0 42A#C10000E000000000
(1494968673.067437) can0 42C#0551D40032064A00
(1494968673.068925) can0 216#0000010082001E55
(1494968673.069300) can0 42E#130000E000039C00
(1494968673.073178) can0 167#80800009FFE00000
(1494968673.074552) can0 358#0000000000000000
(1494968673.074800) can0 355#60371DA0008800E0
(1494968673.076178) can0 33B#0000000000000000
(1494968673.080053) can0 178#016C01F60E4EC24E
(1494968673.082678) can0 167#80800009FFE00000
(1494968673.084053) can0 356#02BC363936390000
(1494968673.089180) can0 216#0000010082001F11
(1494968673.093178) can0 167#80800009FFE00000
(1494968673.100807) can0 346#000000030300C000
(1494968673.102181) can0 348#0000000000000000
(1494968673.102305) can0 3B3#4148001210050222
(1494968673.103681) can0 167#80800009FFE00000
(1494968673.105056) can0 333#0000000000000000
(1494968673.105304) can0 355#60071DA0008800E0
(1494968673.106682) can0 33C#2400000000000000
(1494968673.107054) can0 3A4#0000000000000000
(1494968673.108432) can0 3A5#0000000000000000
(1494968673.109814) can0 083#0000000000017F03
(1494968673.109936) can0 216#0000010082002051
(1494968673.111431) can0 3AC#FFFFFFFFFFFFFFFF
(1494968673.112807) can0 167#80800009FFE00000
(1494968673.112933) can0 3AD#FFFFFFFFFFFFFFFF
(1494968673.114310) can0 3BC#0C000C8901002700
(1494968673.115688) can0 332#0000000000000000
(1494968673.115808) can0 3C3#4008000000004100
(1494968673.117305) can0 33A#0000000000000000
(1494968673.118683) can0 3E2#0000000080000000
(1494968673.118808) can0 3DE#0000000080000000
(1494968673.120183) can0 42A#C10000E000000000
(1494968673.121559) can0 42C#0551F500323E4A40
(1494968673.121805) can0 42E#170000E0000F9C31
(1494968673.123183) can0 167#80800009FFE00000
(1494968673.124558) can0 505#0B12000000000000
(1494968673.125938) can0 1E6#800CE2CE00000000
(1494968673.128559) can0 216#0000010082002115
(1494968673.132435) can0 167#80800009FFE00000
(1494968673.135184) can0 326#01A001DEF9D000C8
(1494968673.135308) can0 33B#0000000000000000
(1494968673.137936) can0 34E#0000000000000000
(1494968673.138183) can0 358#0000000000000000
(1494968673.142065) can0 167#80800009FFE00000
(1494968673.148437) can0 216#0000010082002215
(1494968673.152435) can0 167#80800009FFE00000
(1494968673.157563) can0 3A4#0000000000000000
(1494968673.157687) can0 083#0000000000017F01
(1494968673.159063) can0 2FD#D400E30000000000
(1494968673.160438) can0 3A5#0000000000000000
(1494968673.160686) can0 3A6#0E400A045F700000
(1494968673.162186) can0 3A7#0E400A045F700000
(1494968673.163563) can0 167#80800009FFE00000
(1494968673.163689) can0 3AC#FFFFFFFFFFFFFFFF
(1494968673.165064) can0 3AD#FFFFFFFFFFFFFFFF
(1494968673.166440) can0 3BC#0C00088901002700
(1494968673.166564) can0 3BE#0001E7CE7C005D00
(1494968673.169314) can0 42A#C10000E000000000
(1494968673.169326) can0 216#0000010082002340
(1494968673.169335) can0 42C#0551D40032064A00
(1494968673.170813) can0 42E#130000E000039C00
(1494968673.172189) can0 167#80800009FFE00000
(1494968673.179940) can0 178#016C01F60E4EC64E
(1494968673.182689) can0 167#80800009FFE00000
(1494968673.189067) can0 216#0000010082000000
(1494968673.192943) can0 167#80800009FFE00000
(1494968673.195568) can0 33B#0000000000000000
(1494968673.201944) can0 346#000000030300C000
(1494968673.202069) can0 348#0000000000000000
(1494968673.203567) can0 167#80800009FFE00000
(1494968673.204943) can0 333#0000000000000000
(1494968673.205069) can0 40A#C100334641365030
(1494968673.207696) can0 3A4#0000000000000000
(1494968673.207941) can0 3A5#0000000000000000
(1494968673.209321) can0 083#0000000000017EFF
(1494968673.210694) can0 216#0000010082000100
(1494968673.210942) can0 3AC#FFFFFFFFFFFFFFFF
(1494968673.212320) can0 3AD#FFFFFFFFFFFFFFFF
(1494968673.213694) can0 167#80800009FFE00000
(1494968673.213821) can0 3BC#0C000C8901002700
(1494968673.215317) can0 332#0000000000000000
(1494968673.216698) can0 42A#C10000E000000000
(1494968673.216822) can0 33A#0000000000000000
(1494968673.218195) can0 42C#0551F500323E4A40
(1494968673.219570) can0 42E#170000E0000F9C31
(1494968673.222196) can0 167#80800009FFE00000
(1494968673.228695) can0 216#00000100820002FA
(1494968673.230194) can0 50B#1E12000000000000
(1494968673.232825) can0 167#80800009FFE00000
(1494968673.235448) can0 124#0202000000000000
(1494968673.235702) can0 22C#000A000000000000
(1494968673.237074) can0 326#81A025DEF9D00166
(1494968673.238573) can0 355#60071DA0008800E0
(1494968673.238585) can0 356#02BC363936390000
(1494968673.241198) can0 35E#00C0001499590000
(1494968673.241324) can0 3E7#0000000000000000
(1494968673.241571) can0 41A#7500000000000000
(1494968673.244199) can0 167#80800009FFE00000
(1494968673.248197) can0 216#00000100820003B3
(1494968673.252076) can0 331#C00051D9044A1004
(1494968673.252200) can0 3B6#08000A0000000000
(1494968673.252325) can0 167#80800009FFE00000
(1494968673.253831) can0 3B7#0000000060C801CE
(1494968673.255200) can0 33B#0000000000000000
(1494968673.257953) can0 3A4#0000000000000000
(1494968673.257964) can0 083#0000000000017F02
(1494968673.259325) can0 3A5#0000000000000000
(1494968673.260701) can0 3AC#FFFFFFFFFFFFFFFF
(1494968673.260826) can0 3AD#FFFFFFFFFFFFFFFF
(1494968673.262201) can0 3BC#0C00088901002700
(1494968673.263700) can0 167#80800009FFE00000
(1494968673.263712) can0 3BE#0001E7CE7C005D00
(1494968673.265077) can0 3C4#5765F8000000939E
(1494968673.266453) can0 42A#C10000E000000000
(1494968673.266577) can0 42C#0551D40032064A00
(1494968673.269202) can0 42E#130000E000039C00
(1494968673.269327) can0 216#0000010082000448
(1494968673.273203) can0 167#80800009FFE00000
(1494968673.279701) can0 178#016C01F60E4DC64E
(1494968673.282328) can0 167#80800009FFE00000
(1494968673.288706) can0 216#0000010082000547
(1494968673.292702) can0 167#80800009FFE00000
(1494968673.300332) can0 346#000000030300C000
(1494968673.301706) can0 348#0000000000000000
(1494968673.303082) can0 167#80800009FFE00000
(1494968673.304456) can0 333#0000000000000000
(1494968673.307083) can0 3A4#0000000000000000
(1494968673.308580) can0 3A5#0000000000000000
(1494968673.308706) can0 083#0000000000017EFE
(1494968673.310082) can0 216#0000010082000639
(1494968673.311457) can0 3AC#FFFFFFFFFFFFFFFF
(1494968673.311706) can0 3AD#FFFFFFFFFFFFFFFF
(1494968673.313083) can0 167#80800009FFE00000
(1494968673.314582) can0 3BC#0C000C8901002700
(1494968673.314593) can0 332#0000000000000000
(1494968673.317209) can0 42A#C10000E000000000
(1494968673.317333) can0 33A#0000000000000000
(1494968673.317581) can0 33B#0000000000000000
(1494968673.320208) can0 33F#0200200000000000
(1494968673.320457) can0 42C#0551F500323E4A40
(1494968673.320469) can0 42E#170000E0000F9C31
(1494968673.323084) can0 51E#3B02000000000000
(1494968673.323209) can0 167#80800009FFE00000
(1494968673.328335) can0 216#0000010082000743
(1494968673.332210) can0 167#80800009FFE00000
(1494968673.336209) can0 326#81A025DEF9D00166
(1494968673.342586) can0 167#80800009FFE00000
(1494968673.348963) can0 216#000001008200082D
(1494968673.352838) can0 167#80800009FFE00000
(1494968673.357966) can0 3A4#0000000000000000
(1494968673.358088) can0 083#0000000000017F02
(1494968673.359588) can0 3A5#0000000000000000
(1494968673.359712) can0 3A6#0E400A045F700000
(1494968673.361088) can0 3A7#0E400A045F700000
(1494968673.362464) can0 3AC#FFFFFFFFFFFFFFFF
(1494968673.362711) can0 167#80800009FFE00000
(1494968673.364090) can0 3AD#FFFFFFFFFFFFFFFF
(1494968673.365587) can0 3BC#0C00088901002700
(1494968673.365599) can0 3BE#0001E7CE7C005D00
(1494968673.368215) can0 42A#C10000E000000000
(1494968673.368341) can0 42C#0551D40032064A00
(1494968673.368464) can0 216#0000010082000931
(1494968673.371212) can0 42E#130000E000039C00
(1494968673.372591) can0 167#80800009FFE00000
(1494968673.375216) can0 33B#0000000000000000
(1494968673.380343) can0 178#016C01F60E4EC64E
(1494968673.382971) can0 167#80800009FFE00000
(1494968673.388095) can0 216#0000010082000A34
(1494968673.393341) can0 167#80800009FFE00000
(1494968673.402221) can0 346#000000030300C000
(1494968673.402353) can0 348#0000000000000000
(1494968673.403721) can0 167#80800009FFE00000
(1494968673.403845) can0 40A#C1014C5534485233
(1494968673.405220) can0 333#0000000000000000
(1494968673.407970) can0 3A5#0000000000000000
(1494968673.407987) can0 083#0000000000017EFF
(1494968673.409346) can0 216#0000010082000B43
(1494968673.410721) can0 3A4#0000000000000000
(1494968673.410846) can0 3AC#FFFFFFFFFFFFFFFF
(1494968673.412222) can0 3AD#FFFFFFFFFFFFFFFF
(1494968673.413720) can0 167#80800009FFE00000
(1494968673.413737) can0 3BC#0C000C8901002700
(1494968673.415097) can0 332#0000000000000000
(1494968673.416474) can0 42A#C10000E000000000
(1494968673.416719) can0 33A#0000000000000000
(1494968673.418098) can0 42C#0551F500323E4A40
(1494968673.419595) can0 42E#170000E0000F9C31
(1494968673.419613) can0 53B#5D12000000000000
(1494968673.422223) can0 167#80800009FFE00000
(1494968673.428600) can0 216#0000010082000C36
(1494968673.431226) can0 331#C00051DA044A1004
(1494968673.432599) can0 167#80800009FFE00000
(1494968673.435347) can0 33B#0000000000000000
(1494968673.436726) can0 2A0#FFFFFFFF00001E00
(1494968673.438100) can0 326#81A025DEF9D00166
(1494968673.443225) can0 167#80800009FFE00000
(1494968673.443350) can0 3BE#0001E7CE7C005E00
(1494968673.448477) can0 216#0000010082000D30
(1494968673.452475) can0 167#80800009FFE00000
(1494968673.457603) can0 3A4#0000000000000000
(1494968673.457848) can0 083#0000000000017F01
(1494968673.459227) can0 3A5#0000000000000000
(1494968673.460603) can0 3AC#FFFFFFFFFFFFFFFF
(1494968673.460728) can0 3AD#FFFFFFFFFFFFFFFF
(1494968673.462106) can0 3BC#0C00088901002700
(1494968673.463478) can0 167#80800009FFE00000
(1494968673.463603) can0 3C4#5765F8000000939E
(1494968673.466230) can0 42A#C10000E000000000
(1494968673.466353) can0 42C#0551D40032064A00
(1494968673.466600) can0 42E#130000E000039C00
(1494968673.469228) can0 3BE#0001E7027C005E00
(1494968673.469353) can0 216#0000010082000E32
(1494968673.473225) can0 167#80800009FFE00000
(1494968673.479724) can0 178#016C01F60E4EC64E
(1494968673.482352) can0 167#80800009FFE00000
(1494968673.488857) can0 216#0000010082000F2D
(1494968673.492727) can0 167#80800009FFE00000
(1494968673.495354) can0 33B#0000000000000000
(1494968673.500479) can0 346#000000030300C000
(1494968673.501856) can0 348#0000000000000000
(1494968673.501982) can0 3B6#08000B0000000000
(1494968673.503477) can0 167#80800009FFE00000
(1494968673.504856) can0 333#0000000000000000
(1494968673.504982) can0 3B7#0000010060C80084
(1494968673.507609) can0 3A4#0000000000000000
(1494968673.507855) can0 3A5#0000000000000000
(1494968673.509234) can0 083#0000000000017F00
(1494968673.510732) can0 216#0000010082001041
(1494968673.510859) can0 35D#0000000000000000
(1494968673.512235) can0 3AC#FFFFFFFFFFFFFFFF
(1494968673.513609) can0 167#80800009FFE00000
(1494968673.513767) can0 3AD#FFFFFFFFFFFFFFFF
(1494968673.515109) can0 332#0000000000000000
(1494968673.516607) can0 3BC#0C000C8901002700
(1494968673.516731) can0 33A#0000000000000000
(1494968673.518106) can0 42A#C10000E000000000
(1494968673.519482) can0 42C#0551F500323E4A40
(1494968673.519607) can0 42E#170000E0000F9C31
(1494968673.522232) can0 55D#0402000000000000
(1494968673.522479) can0 167#80800009FFE00000
(1494968673.528858) can0 216#0000010082001146
(1494968673.532734) can0 167#80800009FFE00000
(1494968673.536609) can0 326#81A025DFF9D00166
(1494968673.542986) can0 167#80800009FFE00000
(1494968673.548116) can0 216#0000010082001200
(1494968673.553364) can0 167#80800009FFE00000
(1494968673.555991) can0 33B#0000000000000000
(1494968673.557365) can0 3A4#0000000000000000
(1494968673.558739) can0 083#0000000000017EFF
(1494968673.558865) can0 3A5#0000000000000000
(1494968673.560362) can0 3A6#0E400A045F700000
(1494968673.561774) can0 3A7#0E400A045F700000
(1494968673.561875) can0 3AC#FFFFFFFFFFFFFFFF
(1494968673.563238) can0 167#80800009FFE00000
(1494968673.564613) can0 3AD#FFFFFFFFFFFFFFFF
(1494968673.564737) can0 3BC#0C00088901002700
(1494968673.566234) can0 3BE#0001E7CE7C005E00
(1494968673.567613) can0 42A#C10000E000000000
(1494968673.567738) can0 42C#0551D40032064A00
(1494968673.569114) can0 216#0000010082001300
(1494968673.570488) can0 42E#130000E000039C00
(1494968673.573113) can0 167#80800009FFE00000
(1494968673.579739) can0 178#016C01F60E4EC24E
(1494968673.582363) can0 167#80800009FFE00000
(1494968673.588740) can0 216#0000010082001454
(1494968673.592616) can0 167#80800009FFE00000
(1494968673.601497) can0 346#000000030300C000
(1494968673.601743) can0 348#0000000000000000
(1494968673.603242) can0 167#80800009FFE00000
(1494968673.604620) can0 3B3#4148001210050222
(1494968673.604745) can0 333#0000000000000000
(1494968673.606126) can0 40A#C1023130353736FF
(1494968673.607492) can0 3A4#0000000000000000
(1494968673.607864) can0 083#0000000000017F02
(1494968673.609367) can0 216#0000010082001551
(1494968673.610742) can0 3A5#0000000000000000
(1494968673.610868) can0 3AC#FFFFFFFFFFFFFFFF
(1494968673.612243) can0 3AD#FFFFFFFFFFFFFFFF
(1494968673.613619) can0 167#80800009FFE00000
(1494968673.613743) can0 3BC#0C000C8901002700
(1494968673.615241) can0 332#0000000000000000
(1494968673.616620) can0 3EB#1F04140318200000
(1494968673.616744) can0 33A#0000000000000000
(1494968673.618119) can0 33B#0000000000000000
(1494968673.619495) can0 42A#C10000E000000000
(1494968673.619619) can0 42C#0551F500323E4A40
(1494968673.622369) can0 084#1100008804200D00
(1494968673.622386) can0 42E#170000E0000F9C31
(1494968673.622492) can0 167#80800009FFE00000
(1494968673.625120) can0 504#0512000000000000
(1494968673.628996) can0 216#0000010082001655
(1494968673.632996) can0 167#80800009FFE00000
(1494968673.638131) can0 326#81A025DFF9D00166
(1494968673.643252) can0 167#80800009FFE00000
(1494968673.648378) can0 216#0000010082001755
(1494968673.652247) can0 167#80800009FFE00000
(1494968673.657374) can0 3A4#0000000000000000
(1494968673.658873) can0 083#0000000000017EFE
(1494968673.658890) can0 3A5#0000000000000000
(1494968673.660250) can0 3AC#FFFFFFFFFFFFFFFF
(1494968673.661626) can0 3AD#FFFFFFFFFFFFFFFF
(1494968673.661749) can0 3BC#0C00088901002700
(1494968673.663125) can0 167#80800009FFE00000
(1494968673.664624) can0 3BE#0001E7CE7C005E00
(1494968673.664748) can0 3C4#5765F8300000939E
(1494968673.666131) can0 42A#C10000E000000000
(1494968673.667504) can0 42C#0551D40032064A00
(1494968673.667630) can0 42E#130000E000039C00
(1494968673.670253) can0 216#0000010082001854
(1494968673.672998) can0 167#80800009FFE00000
(1494968673.675753) can0 33B#0000000000000000
(1494968673.680879) can0 178#016C01F60E4EC64E
(1494968673.682252) can0 167#80800009FFE00000
(1494968673.688633) can0 216#0000010082001950
(1494968673.692508) can0 167#80800009FFE00000
(1494968673.700256) can0 346#000000030300C000
(1494968673.701633) can0 348#0000000000000000
(1494968673.702008) can0 167#80800009FFE00000
(1494968673.704634) can0 333#0000000000000000
(1494968673.707260) can0 3A4#0000000000000000
(1494968673.708632) can0 083#0000000000017F02
(1494968673.708878) can0 216#0000010082001A55
(1494968673.710256) can0 3A5#0000000000000000
(1494968673.711631) can0 3AC#FFFFFFFFFFFFFFFF
(1494968673.711756) can0 3AD#FFFFFFFFFFFFFFFF
(1494968673.713131) can0 167#80800009FFE00000
(1494968673.714506) can0 3BC#0C000C8901002700
(1494968673.714754) can0 332#0000000000000000
(1494968673.716135) can0 42A#C10000E000000000
(1494968673.717509) can0 33A#0000000000000000
(1494968673.717634) can0 42C#0551F500323E4A40
(1494968673.720260) can0 42E#170000E0000F9C31
(1494968673.722885) can0 167#80800009FFE00000
(1494968673.724260) can0 505#0B12000000000000
(1494968673.728140) can0 216#0000010082001B55
(1494968673.733263) can0 167#80800009FFE00000
(1494968673.735889) can0 33B#0000000000000000
(1494968673.737263) can0 326#81A025DFF9D00166
(1494968673.742510) can0 167#80800009FFE00000
(1494968673.748890) can0 216#0000010082001C00
(1494968673.750265) can0 3B6#080000003055BD91
(1494968673.750512) can0 3B7#0000020060C8022D
(1494968673.753140) can0 167#80800009FFE00000
(1494968673.758266) can0 3A4#0000000000000000
(1494968673.758511) can0 083#0000000000017EFF
(1494968673.759890) can0 3A5#0000000000000000
(1494968673.760015) can0 3A6#0E400A045F700000
(1494968673.761390) can0 3A7#0E400A045F700000
(1494968673.762767) can0 3AC#FFFFFFFFFFFFFFFF
(1494968673.762891) can0 167#80800009FFE00000
(1494968673.764389) can0 3AD#FFFFFFFFFFFFFFFF
(1494968673.764762) can0 3BC#0C00088901002700
(1494968673.766145) can0 3BE#0001E7CE7C005E00
(1494968673.767516) can0 42A#C10000E000000000
(1494968673.767641) can0 42C#0551D40032064A00
(1494968673.770267) can0 216#0000010082001D15
(1494968673.770514) can0 42E#130000E000039C00
(1494968673.773143) can0 167#80800009FFE00000
(1494968673.779640) can0 178#016C01F60E4EC64E
(1494968673.782268) can0 167#80800009FFE00000
(1494968673.788645) can0 216#0000010082001E55
(1494968673.792521) can0 167#80800009FFE00000
(1494968673.795268) can0 33B#0000000000000000
(1494968673.801647) can0 346#000000030300C000
(1494968673.801770) can0 348#0000000000000000
(1494968673.803146) can0 167#80800009FFE00000
(1494968673.804520) can0 40A#C104010107CC70C1
(1494968673.804645) can0 333#0000000000000000
(1494968673.807396) can0 3A4#0000000000000000
(1494968673.808772) can0 083#0000000000017F01
(1494968673.808898) can0 216#0000010082001F11
(1494968673.810271) can0 3A5#0000000000000000
(1494968673.811647) can0 3AC#FFFFFFFFFFFFFFFF
(1494968673.811894) can0 3AD#FFFFFFFFFFFFFFFF
(1494968673.813395) can0 167#80800009FFE00000
(1494968673.814772) can0 3BC#0C000C8901002700
(1494968673.814897) can0 332#0000000000000000
(1494968673.816275) can0 42A#C10000E000000000
(1494968673.817647) can0 33A#0000000000000000
(1494968673.817896) can0 42C#0551F500323E4A40
(1494968673.819273) can0 42E#170000E0000F9C31
(1494968673.821900) can0 50B#1E12000000000000
(1494968673.822027) can0 167#80800009FFE00000
(1494968673.828400) can0 216#0000010082002051
(1494968673.832275) can0 167#80800009FFE00000
(1494968673.838773) can0 326#81A025DFF9D00166
(1494968673.841401) can0 304#0800000000000000
(1494968673.842776) can0 167#80800009FFE00000
(1494968673.849153) can0 216#0000010082002115
(1494968673.853027) can0 167#80800009FFE00000
(1494968673.855658) can0 33B#0000000000000000
(1494968673.858401) can0 3A4#0000000000000000
(1494968673.858417) can0 083#0000000000017F01
(1494968673.859778) can0 3A5#0000000000000000
(1494968673.859904) can0 3AC#FFFFFFFFFFFFFFFF
(1494968673.861279) can0 3AD#FFFFFFFFFFFFFFFF
(1494968673.862653) can0 3BC#0C00088901002700
(1494968673.862902) can0 167#80800009FFE00000
(1494968673.864278) can0 3BE#0001E7CE7C005E00
(1494968673.865659) can0 3C4#5765F8400000939E
(1494968673.865778) can0 42A#C10000E000000000
(1494968673.867154) can0 42C#0551D40032064A00
(1494968673.868529) can0 42E#130000E000039C00
(1494968673.868778) can0 216#0000010082002215
(1494968673.872654) can0 167#80800009FFE00000
(1494968673.880402) can0 178#016C01F60E4EC64E
(1494968673.883030) can0 167#80800009FFE00000
(1494968673.888158) can0 216#0000010082002340
(1494968673.893282) can0 167#80800009FFE00000
(1494968673.901031) can0 346#000000030300C000
(1494968673.901048) can0 348#0000000000000000
(1494968673.902409) can0 167#80800009FFE00000
(1494968673.905038) can0 333#0000000000000000
(1494968673.907660) can0 3A4#0000000000000000
(1494968673.907909) can0 083#0000000000017EFE
(1494968673.909407) can0 216#0000010082000000
(1494968673.910784) can0 3A5#0000000000000000
(1494968673.910910) can0 3AC#FFFFFFFFFFFFFFFF
(1494968673.912286) can0 167#80800009FFE00000
(1494968673.913659) can0 3AD#FFFFFFFFFFFFFFFF
(1494968673.913908) can0 3BC#0C000C8901002700
(1494968673.915284) can0 332#0000000000000000
(1494968673.916661) can0 42A#C10000E000000000
(1494968673.916785) can0 33A#0000000000000000
(1494968673.918161) can0 33B#0000000000000000
(1494968673.919535) can0 42C#0551F500323E4A40
(1494968673.919782) can0 42E#170000E0000F9C31
(1494968673.921161) can0 51E#3B02000000000000
(1494968673.922536) can0 167#80800009FFE00000
(1494968673.928912) can0 216#0000010082000100
(1494968673.932787) can0 167#80800009FFE00000
(1494968673.939164) can0 326#81A025DFF9D00166
(1494968673.941918) can0 3E1#8000010701800000
(1494968673.942284) can0 167#80800009FFE00000
(1494968673.948666) can0 216#00000100820002FA
(1494968673.952540) can0 167#80800009FFE00000
(1494968673.957666) can0 3A4#0000000000000000
(1494968673.958041) can0 083#0000000000017EFF
(1494968673.959537) can0 3A5#0000000000000000
(1494968673.960915) can0 3A6#0E400A045F700000
(1494968673.961040) can0 3A7#0E400A045F700000
(1494968673.962416) can0 3AC#FFFFFFFFFFFFFFFF
(1494968673.963791) can0 167#80800009FFE00000
(1494968673.963916) can0 3AD#FFFFFFFFFFFFFFFF
(1494968673.965413) can0 3BC#0C00088901002700
(1494968673.966794) can0 3BE#0001E7CE7C005E00
(1494968673.966916) can0 42A#C10000E000000000
(1494968673.968291) can0 42C#0551D40032064A00
(1494968673.969666) can0 216#00000100820003B3
(1494968673.969791) can0 42E#130000E000039C00
(1494968673.972540) can0 167#80800009FFE00000
(1494968673.975413) can0 33B#0000000000000000
(1494968673.980544) can0 178#016C01F60E4EC64E
(1494968673.983169) can0 167#80800009FFE00000
(1494968673.988295) can0 216#0000010082000448
(1494968673.992171) can0 167#80800009FFE00000
(1494968674.002420) can0 167#80800009FFE00000
(1494968674.003795) can0 3B6#0800010030734849
(1494968674.004042) can0 333#0000000000000000
(1494968674.005423) can0 3B7#0000030060C8017C
(1494968674.006798) can0 3EB#1F04140318200000
(1494968674.006922) can0 346#000000030300C000
(1494968674.008297) can0 348#0000000000000000
(1494968674.009671) can0 083#0000000000017F01
(1494968674.009797) can0 216#0000010082000547
(1494968674.011173) can0 3A4#0000000000000000
(1494968674.012547) can0 3A5#0000000000000000
(1494968674.012918) can0 3AC#FFFFFFFFFFFFFFFF
(1494968674.014302) can0 3AD#FFFFFFFFFFFFFFFF
(1494968674.015688) can0 332#0000000000000000
(1494968674.015801) can0 3BC#0C000C8901002700
(1494968674.017173) can0 33A#0000000000000000
(1494968674.018549) can0 3E0#0000000080000000
(1494968674.018794) can0 40A#C110418820250000
(1494968674.020173) can0 167#80800009FFE00000
(1494968674.021548) can0 42A#C10000E000000000
(1494968674.021673) can0 42C#0551F500323F4B40
(1494968674.024299) can0 167#80800009FFE00000
(1494968674.024423) can0 42E#170000E0000F9C31
(1494968674.024548) can0 53B#5D12000000000000
(1494968674.028425) can0 216#0000010082000639
(1494968674.032300) can0 167#80800009FFE00000
(1494968674.036297) can0 33B#0000000000000000
(1494968674.039050) can0 326#81A025DFF9D00166
(1494968674.042926) can0 167#80800009FFE00000
(1494968674.049424) can0 216#0000010082000743
(1494968674.049440) can0 3E7#0000000000000000
(1494968674.050803) can0 3B4#401111FF23230000
(1494968674.052177) can0 167#80800009FFE00000
(1494968674.057304) can0 3A4#0000000000000000
(1494968674.058678) can0 083#0000000000017F03
(1494968674.059049) can0 3A5#0000000000000000
(1494968674.060430) can0 3AC#FFFFFFFFFFFFFFFF
(1494968674.061803) can0 3AD#FFFFFFFFFFFFFFFF
(1494968674.061930) can0 3BC#0C00088901002700
(1494968674.063304) can0 167#80800009FFE00000
(1494968674.064678) can0 3BE#0001E7CE7C005E01
(1494968674.064928) can0 3C4#5765F8000000939E
(1494968674.066305) can0 3D5#4121094000000000
(1494968674.067679) can0 42A#C10000E000000000
(1494968674.067804) can0 42C#0551D40032064A00
(1494968674.069180) can0 216#000001008200082D
(1494968674.070555) can0 42E#130000E000039C00
(1494968674.073303) can0 167#80800009FFE00000
(1494968674.079802) can0 178#016C01F60E4EC64E
(1494968674.082431) can0 167#80800009FFE00000
(1494968674.088808) can0 216#0000010082000931
(1494968674.092682) can0 167#80800009FFE00000
(1494968674.095553) can0 33B#0000000000000000
(1494968674.100685) can0 346#000000030300C000
(1494968674.100929) can0 348#0000000000000000
(1494968674.102308) can0 3B3#4148001210050222
(1494968674.103684) can0 167#80800009FFE00000
(1494968674.103808) can0 3C3#4008000000004100
(1494968674.105307) can0 333#0000000000000000
(1494968674.106685) can0 33C#2400000000000000
(1494968674.107055) can0 3A4#0000000000000000
(1494968674.108434) can0 083#0000000000017F02
(1494968674.109809) can0 216#0000010082000A34
(1494968674.109936) can0 3A5#0000000000000000
(1494968674.111431) can0 3AC#FFFFFFFFFFFFFFFF
(1494968674.112809) can0 167#80800009FFE00000
(1494968674.112937) can0 3AD#FFFFFFFFFFFFFFFF
(1494968674.114310) can0 3BC#0C000C8901002700
(1494968674.115691) can0 332#0000000000000000
(1494968674.115810) can0 3E2#0000000080000000
(1494968674.117308) can0 33A#0000000000000000
(1494968674.118686) can0 42A#C10000E000000000
(1494968674.118810) can0 3DE#0000000080000000
(1494968674.120186) can0 42C#0551F500323E4A40
(1494968674.121560) can0 42E#170000E0000F9C31
(1494968674.121686) can0 55D#0402000000000000
(1494968674.124433) can0 167#80800009FFE00000
(1494968674.125813) can0 1E6#800CE2CE00000000
(1494968674.128437) can0 216#0000010082000B43
(1494968674.132312) can0 167#80800009FFE00000
(1494968674.137439) can0 34E#0000000000000000
(1494968674.137810) can0 358#0000000000000000
(1494968674.139311) can0 326#81A025DFF9D00166
(1494968674.143189) can0 167#80800009FFE00000
(1494968674.148315) can0 216#0000010082000C36
(1494968674.152190) can0 167#80800009FFE00000
(1494968674.156188) can0 33B#0000000000000000
(1494968674.157565) can0 3A4#0000000000000000
(1494968674.159065) can0 083#0000000000017F00
(1494968674.159081) can0 2FD#D400E30000000000
(1494968674.160440) can0 3A5#0000000000000000
(1494968674.161817) can0 3A6#0E400A045F700000
(1494968674.161941) can0 3A7#0E400A045F700000
(1494968674.163437) can0 167#80800009FFE00000
(1494968674.164816) can0 3AC#FFFFFFFFFFFFFFFF
(1494968674.164941) can0 3AD#FFFFFFFFFFFFFFFF
(1494968674.166318) can0 3BC#0C00088901002700
(1494968674.167692) can0 3BE#0001E7CE7C005E00
(1494968674.167817) can0 42A#C10000E000000000
(1494968674.169314) can0 216#0000010082000D30
(1494968674.170692) can0 42C#0551D40032064A00
(1494968674.170817) can0 42E#130000E000039C00
(1494968674.172192) can0 167#80800009FFE00000
(1494968674.179941) can0 178#016C01F60E4EC64E
(1494968674.182569) can0 167#80800009FFE00000
(1494968674.189066) can0 216#0000010082000E32
(1494968674.192947) can0 167#80800009FFE00000
(1494968674.201822) can0 346#000000030300C000
(1494968674.201948) can0 348#0000000000000000
(1494968674.203321) can0 167#80800009FFE00000
(1494968674.203446) can0 40A#C0000003372F1E00
(1494968674.205068) can0 333#0000000000000000
(1494968674.207698) can0 3A4#0000000000000000
(1494968674.209075) can0 083#0000000000017F01
(1494968674.209197) can0 216#0000010082000F2D
(1494968674.210572) can0 3A5#0000000000000000
(1494968674.211949) can0 3AC#FFFFFFFFFFFFFFFF
(1494968674.212195) can0 167#80800009FFE00000
(1494968674.213573) can0 3AD#FFFFFFFFFFFFFFFF
(1494968674.213952) can0 3BC#0C000C8901002700
(1494968674.215322) can0 332#0000000000000000
(1494968674.216701) can0 42A#C10000E000000000
(1494968674.216823) can0 33A#0000000000000000
(1494968674.218321) can0 33B#0000000000000000
(1494968674.219698) can0 42C#0551F500323E4A40
(1494968674.219823) can0 42E#170000E0000F9C31
(1494968674.221198) can0 504#0512000000000000
(1494968674.222573) can0 167#80800009FFE00000
(1494968674.228951) can0 216#0000010082001041
(1494968674.232948) can0 167#80800009FFE00000
(1494968674.240577) can0 124#0202000000000000
(1494968674.240701) can0 22C#000A000000000000
(1494968674.242199) can0 326#81A025DFF9D00166
(1494968674.242448) can0 167#80800009FFE00000
(1494968674.243948) can0 355#60071DA0008800E0
(1494968674.245326) can0 356#02BC363936390000
(1494968674.245451) can0 35E#00C0001499590000
(1494968674.246950) can0 3E7#0000000000000000
(1494968674.248450) can0 41A#7500000000000000
(1494968674.248466) can0 216#0000010082001146
(1494968674.251201) can0 331#C00051DA044A1004
(1494968674.251217) can0 3B6#0800020000000000
(1494968674.251573) can0 3B7#0000000060C801CE
(1494968674.253076) can0 167#80800009FFE00000
(1494968674.258205) can0 3A4#0000000000000000
(1494968674.258328) can0 083#0000000000017F00
(1494968674.259825) can0 3A5#0000000000000000
(1494968674.260074) can0 3AC#FFFFFFFFFFFFFFFF
(1494968674.261454) can0 3AD#FFFFFFFFFFFFFFFF
(1494968674.262829) can0 3BC#0C00088901002700
(1494968674.262954) can0 167#80800009FFE00000
(1494968674.264329) can0 3BE#0001E7CE7C005E00
(1494968674.265828) can0 3C4#5765F8000000939E
(1494968674.265844) can0 42A#C10000E000000000
(1494968674.267205) can0 42C#0551D40032064A00
(1494968674.268579) can0 42E#130000E000039C00
(1494968674.268705) can0 216#0000010082001200
(1494968674.272580) can0 167#80800009FFE00000
(1494968674.275577) can0 33B#0000000000000000
(1494968674.280707) can0 178#016C01F60E4EC64E
(1494968674.283332) can0 167#80800009FFE00000
(1494968674.288458) can0 216#0000010082001300
(1494968674.292333) can0 167#80800009FFE00000
(1494968674.301210) can0 346#000000030300C000
(1494968674.301456) can0 348#0000000000000000
(1494968674.302834) can0 167#80800009FFE00000
(1494968674.304209) can0 333#0000000000000000
(1494968674.308086) can0 3A4#0000000000000000
(1494968674.308209) can0 083#0000000000017F02
(1494968674.309584) can0 216#0000010082001454
(1494968674.311083) can0 3A5#0000000000000000
(1494968674.311100) can0 3AC#FFFFFFFFFFFFFFFF
(1494968674.312460) can0 167#80800009FFE00000
(1494968674.313835) can0 3AD#FFFFFFFFFFFFFFFF
(1494968674.313962) can0 3BC#0C000C8901002700
(1494968674.315336) can0 332#0000000000000000
(1494968674.316834) can0 42A#C10000E000000000
(1494968674.316958) can0 33A#0000000000000000
(1494968674.318336) can0 42C#0551F500323E4A40
(1494968674.319711) can0 33F#0200200000000000
(1494968674.319835) can0 42E#170000E0000F9C31
(1494968674.321332) can0 505#0B12000000000000
(1494968674.322711) can0 167#80800009FFE00000
(1494968674.329089) can0 216#0000010082001551
(1494968674.332962) can0 167#80800009FFE00000
(1494968674.336839) can0 33B#0000000000000000
(1494968674.340714) can0 326#81A025E0F9D00166
(1494968674.343461) can0 167#80800009FFE00000
(1494968674.348591) can0 216#0000010082001655
(1494968674.352465) can0 167#80800009FFE00000
(1494968674.357592) can0 3A4#0000000000000000
(1494968674.358966) can0 083#0000000000017F00
(1494968674.359092) can0 3A5#0000000000000000
(1494968674.360589) can0 3A6#0E400A045F700000
(1494968674.361968) can0 3A7#0E400A045F700000
(1494968674.362094) can0 3AC#FFFFFFFFFFFFFFFF
(1494968674.363467) can0 167#80800009FFE00000
(1494968674.364843) can0 3AD#FFFFFFFFFFFFFFFF
(1494968674.364966) can0 3BC#0C00088901002700
(1494968674.366465) can0 3BE#0001E7CE7C005E00
(1494968674.367842) can0 42A#C10000E000000000
(1494968674.367966) can0 42C#0551D40032064A00
(1494968674.369342) can0 216#0000010082001755
(1494968674.370717) can0 42E#130000E000039C00
(1494968674.373343) can0 167#80800009FFE00000
(1494968674.379841) can0 178#016C01F60E4EC64E
(1494968674.382469) can0 167#80800009FFE00000
(1494968674.388846) can0 216#0000010082001854
(1494968674.392720) can0 167#80800009FFE00000
(1494968674.396597) can0 33B#0000000000000000
(1494968674.401722) can0 346#000000030300C000
(1494968674.401968) can0 348#0000000000000000
(1494968674.403346) can0 167#80800009FFE00000
(1494968674.403593) can0 40A#C100334641365030
(1494968674.406226) can0 333#0000000000000000
(1494968674.407597) can0 3A4#0000000000000000
(1494968674.408971) can0 083#0000000000017F01
(1494968674.409219) can0 216#0000010082001950
(1494968674.410597) can0 3A5#0000000000000000
(1494968674.411973) can0 3AC#FFFFFFFFFFFFFFFF
(1494968674.412098) can0 167#80800009FFE00000
(1494968674.413473) can0 3AD#FFFFFFFFFFFFFFFF
(1494968674.414971) can0 3BC#0C000C8901002700
(1494968674.414987) can0 332#0000000000000000
(1494968674.416351) can0 42A#C10000E000000000
(1494968674.417724) can0 33A#0000000000000000
(1494968674.417849) can0 42C#0551F500323E4A40
(1494968674.419224) can0 42E#170000E0000F9C31
(1494968674.423223) can0 167#80800009FFE00000
(1494968674.423239) can0 50B#1E12000000000000
(1494968674.428351) can0 216#0000010082001A55
(1494968674.430979) can0 331#C00051DB044A1004
(1494968674.432351) can0 167#80800009FFE00000
(1494968674.441352) can0 2A0#FFFFFFFF00001E00
(1494968674.441598) can0 326#81A025DFF9D00166
(1494968674.443099) can0 167#80800009FFE00000
(1494968674.443473) can0 3BE#0001E7CE7C006000
(1494968674.448603) can0 216#0000010082001B55
(1494968674.452478) can0 167#80800009FFE00000
(1494968674.456355) can0 33B#0000000000000000
(1494968674.457851) can0 3A4#0000000000000000
(1494968674.458104) can0 083#0000000000017F00
(1494968674.459479) can0 3A5#0000000000000000
(1494968674.460854) can0 3AC#FFFFFFFFFFFFFFFF
(1494968674.461100) can0 3AD#FFFFFFFFFFFFFFFF
(1494968674.462479) can0 3BC#0C00088901002700
(1494968674.463977) can0 167#80800009FFE00000
(1494968674.463993) can0 3C4#5765F8000000939E
(1494968674.465355) can0 42A#C10000E000000000
(1494968674.466731) can0 42C#0551D40032064A00
(1494968674.466854) can0 42E#130000E000039C00
(1494968674.468230) can0 3BE#0001E7027C006000
(1494968674.469728) can0 216#0000010082001C00
(1494968674.472355) can0 167#80800009FFE00000
(1494968674.479983) can0 178#016C01F60E4EC64E
(1494968674.482607) can0 167#80800009FFE00000
(1494968674.488983) can0 216#0000010082001D15
(1494968674.492858) can0 167#80800009FFE00000
(1494968674.500607) can0 346#000000030300C000
(1494968674.500733) can0 348#0000000000000000
(1494968674.503360) can0 3B6#0800030000000000
(1494968674.503485) can0 167#80800009FFE00000
(1494968674.503608) can0 3B7#0000010060C80084
(1494968674.506236) can0 333#0000000000000000
(1494968674.507609) can0 3A4#0000000000000000
(1494968674.508985) can0 083#0000000000017F01
(1494968674.509109) can0 216#0000010082001E55
(1494968674.510485) can0 35D#0000000000000000
(1494968674.511860) can0 3A5#0000000000000000
(1494968674.512107) can0 167#80800009FFE00000
(1494968674.513485) can0 3AC#FFFFFFFFFFFFFFFF
(1494968674.514861) can0 3AD#FFFFFFFFFFFFFFFF
(1494968674.514985) can0 332#0000000000000000
(1494968674.516362) can0 3BC#0C000C8901002700
(1494968674.517736) can0 33A#0000000000000000
(1494968674.517991) can0 33B#0000000000000000
(1494968674.519361) can0 42A#C10000E000000000
(1494968674.520736) can0 42C#0551F500323E4A40
(1494968674.520862) can0 42E#170000E0000F9C31
(1494968674.522237) can0 51E#3B02000000000000
(1494968674.523612) can0 167#80800009FFE00000
(1494968674.528860) can0 216#0000010082001F11
(1494968674.532738) can0 167#80800009FFE00000
(1494968674.541615) can0 326#81A025DFF9D00166
(1494968674.542989) can0 167#80800009FFE00000
(1494968674.549367) can0 216#0000010082002051
(1494968674.553242) can0 167#80800009FFE00000
(1494968674.558490) can0 3A4#0000000000000000
(1494968674.558506) can0 083#0000000000017F01
(1494968674.559867) can0 3A5#0000000000000000
(1494968674.560114) can0 3A6#0E400A045F700000
(1494968674.561492) can0 3A7#0E400A045F700000
(1494968674.562868) can0 3AC#FFFFFFFFFFFFFFFF
(1494968674.563115) can0 167#80800009FFE00000
(1494968674.564493) can0 3AD#FFFFFFFFFFFFFFFF
(1494968674.565869) can0 3BC#0C00088901002700
(1494968674.566001) can0 3BE#0001E7CE7C006000
(1494968674.567368) can0 42A#C10000E000000000
(1494968674.568743) can0 42C#0551D40032064A00
(1494968674.568991) can0 216#0000010082002115
(1494968674.570368) can0 42E#130000E000039C00
(1494968674.572993) can0 167#80800009FFE00000
(1494968674.576870) can0 33B#0000000000000000
(1494968674.580744) can0 178#016C01F60E4EC64E
(1494968674.583370) can0 167#80800009FFE00000
(1494968674.588619) can0 216#0000010082002215
(1494968674.592496) can0 167#80800009FFE00000
(1494968674.601372) can0 346#000000030300C000
(1494968674.601497) can0 348#0000000000000000
(1494968674.602872) can0 3B3#4148001210050222
(1494968674.603243) can0 167#80800009FFE00000
(1494968674.604622) can0 333#0000000000000000
(1494968674.606000) can0 40A#C1014C5534485233
(1494968674.607372) can0 3A4#0000000000000000
(1494968674.608747) can0 083#0000000000017F01
(1494968674.610123) can0 216#0000010082002340
(1494968674.610370) can0 3A5#0000000000000000
(1494968674.611748) can0 3AC#FFFFFFFFFFFFFFFF
(1494968674.612120) can0 167#80800009FFE00000
(1494968674.613499) can0 3AD#FFFFFFFFFFFFFFFF
(1494968674.614873) can0 3BC#0C000C8901002700
(1494968674.614999) can0 332#0000000000000000
(1494968674.616496) can0 3EB#1F04140319200000
(1494968674.617873) can0 33A#0000000000000000
(1494968674.618001) can0 42A#C10000E000000000
(1494968674.619374) can0 42C#0551F500323E4A40
(1494968674.620749) can0 42E#170000E0000F9C31
(1494968674.620875) can0 084#1100008804210D00
(1494968674.622373) can0 53B#5D12000000000000
(1494968674.623749) can0 167#80800009FFE00000
(1494968674.628876) can0 216#0000010082000000
(1494968674.632749) can0 167#80800009FFE00000
(1494968674.636626) can0 33B#0000000000000000
(1494968674.641876) can0 326#81A025E0F9D00166
(1494968674.643375) can0 167#80800009FFE00000
(1494968674.648504) can0 216#0000010082000100
(1494968674.652378) can0 167#80800009FFE00000
(1494968674.657506) can0 3A4#0000000000000000
(1494968674.658880) can0 083#0000000000017EFD
(1494968674.659127) can0 3A5#0000000000000000
(1494968674.660627) can0 3AC#FFFFFFFFFFFFFFFF
(1494968674.662012) can0 3AD#FFFFFFFFFFFFFFFF
(1494968674.662132) can0 167#80800009FFE00000
(1494968674.663504) can0 3BC#0C00088901002700
(1494968674.664881) can0 3BE#0001E7CE7C006000
(1494968674.665005) can0 3C4#5765F8300000939E
(1494968674.666503) can0 42A#C10000E000000000
(1494968674.667880) can0 42C#0551D40032064A00
(1494968674.668005) can0 42E#130000E000039C00
(1494968674.669380) can0 216#00000100820002FA
(1494968674.673257) can0 167#80800009FFE00000
(1494968674.679753) can0 178#016C01F60E4EC64E
(1494968674.682382) can0 167#80800009FFE00000
(1494968674.688759) can0 216#00000100820003B3
(1494968674.692633) can0 167#80800009FFE00000
(1494968674.696510) can0 33B#0000000000000000
(1494968674.700385) can0 346#000000030300C000
(1494968674.700755) can0 348#0000000000000000
(1494968674.703385) can0 167#80800009FFE00000
(1494968674.704760) can0 333#0000000000000000
(1494968674.707386) can0 3A4#0000000000000000
(1494968674.708756) can0 083#0000000000017F03
(1494968674.710134) can0 216#0000010082000448
(1494968674.710379) can0 3A5#0000000000000000
(1494968674.711757) can0 3AC#FFFFFFFFFFFFFFFF
(1494968674.712128) can0 167#80800009FFE00000
(1494968674.713507) can0 3AD#FFFFFFFFFFFFFFFF
(1494968674.714883) can0 3BC#0C000C8901002700
(1494968674.715007) can0 332#0000000000000000
(1494968674.716509) can0 42A#C10000E000000000
(1494968674.717886) can0 33A#0000000000000000
(1494968674.718012) can0 42C#0551F500323E4A40
(1494968674.719387) can0 42E#170000E0000F9C31
(1494968674.723262) can0 55D#0402000000000000
(1494968674.723387) can0 167#80800009FFE00000
(1494968674.728637) can0 216#0000010082000547
(1494968674.732513) can0 167#80800009FFE00000
(1494968674.742641) can0 167#80800009FFE00000
(1494968674.742886) can0 326#81A025E0F9D00166
(1494968674.749267) can0 216#0000010082000639
(1494968674.750640) can0 3B6#0800040000000000
(1494968674.750888) can0 3B7#0000020060C8022D
(1494968674.752266) can0 167#80800009FFE00000
(1494968674.757392) can0 33B#0000000000000000
(1494968674.757516) can0 3A4#0000000000000000
(1494968674.758892) can0 083#0000000000017F00
(1494968674.759262) can0 3A5#0000000000000000
(1494968674.760764) can0 3A6#0E400A045F700000
(1494968674.762145) can0 3A7#0E400A045F700000
(1494968674.762267) can0 3AC#FFFFFFFFFFFFFFFF
(1494968674.763643) can0 167#80800009FFE00000
(1494968674.765017) can0 3AD#FFFFFFFFFFFFFFFF
(1494968674.765142) can0 3BC#0C00088901002700
(1494968674.766519) can0 3BE#0001E7CE7C006000
(1494968674.767893) can0 42A#C10000E000000000
(1494968674.768019) can0 42C#0551D40032064A00
(1494968674.769392) can0 216#0000010082000743
(1494968674.770768) can0 42E#130000E000039C00
(1494968674.773514) can0 167#80800009FFE00000
(1494968674.779895) can0 178#016C01F60E4EC64E
(1494968674.782519) can0 167#80800009FFE00000
(1494968674.788896) can0 216#000001008200082D
(1494968674.792771) can0 167#80800009FFE00000
(1494968674.800398) can0 346#000000030300C000
(1494968674.801893) can0 348#0000000000000000
(1494968674.802143) can0 40A#C1023130353736FF
(1494968674.803522) can0 167#80800009FFE00000
(1494968674.804897) can0 333#0000000000000000
(1494968674.807523) can0 3A5#0000000000000000
(1494968674.808897) can0 083#0000000000017F00
(1494968674.809269) can0 216#0000010082000931
(1494968674.810648) can0 3A4#0000000000000000
(1494968674.812023) can0 3AC#FFFFFFFFFFFFFFFF
(1494968674.812148) can0 167#80800009FFE00000
(1494968674.813524) can0 3AD#FFFFFFFFFFFFFFFF
(1494968674.814898) can0 3BC#0C000C8901002700
(1494968674.815147) can0 332#0000000000000000
(1494968674.816526) can0 42A#C10000E000000000
(1494968674.817899) can0 33A#0000000000000000
(1494968674.818024) can0 33B#0000000000000000
(1494968674.819400) can0 42C#0551F500323E4A40
(1494968674.820774) can0 42E#170000E0000F9C31
(1494968674.821022) can0 504#0512000000000000
(1494968674.822399) can0 167#80800009FFE00000
(1494968674.828777) can0 216#0000010082000A34
(1494968674.832651) can0 167#80800009FFE00000
(1494968674.842780) can0 167#80800009FFE00000
(1494968674.843024) can0 304#0800000000000000
(1494968674.844526) can0 326#81A025E0F9D00166
(1494968674.848404) can0 216#0000010082000B43
(1494968674.852279) can0 167#80800009FFE00000
(1494968674.857405) can0 3A4#0000000000000000
(1494968674.858779) can0 083#0000000000017F01
(1494968674.860154) can0 3A5#0000000000000000
(1494968674.860403) can0 3AC#FFFFFFFFFFFFFFFF
(1494968674.861780) can0 3AD#FFFFFFFFFFFFFFFF
(1494968674.863156) can0 167#80800009FFE00000
(1494968674.863280) can0 3BC#0C00088901002700
(1494968674.864655) can0 3BE#0001E7CE7C006000
(1494968674.866153) can0 3C4#5765F8400000939E
(1494968674.866169) can0 42A#C10000E000000000
(1494968674.867531) can0 42C#0551D40032064A00
(1494968674.868905) can0 42E#130000E000039C00
(1494968674.869030) can0 216#0000010082000C36
(1494968674.872906) can0 167#80800009FFE00000
(1494968674.876903) can0 33B#0000000000000000
(1494968674.880782) can0 178#016C01F60E4DC64E
(1494968674.883405) can0 167#80800009FFE00000
(1494968674.888530) can0 216#0000010082000D30
(1494968674.892406) can0 167#80800009FFE00000
(1494968674.901286) can0 346#000000030300C000
(1494968674.901531) can0 348#0000000000000000
(1494968674.902909) can0 167#80800009FFE00000
(1494968674.904285) can0 333#0000000000000000
(1494968674.908162) can0 3A4#0000000000000000
(1494968674.908285) can0 083#0000000000017F00
(1494968674.909660) can0 216#0000010082000E32
(1494968674.911161) can0 3A5#0000000000000000
(1494968674.911178) can0 3AC#FFFFFFFFFFFFFFFF
(1494968674.912537) can0 167#80800009FFE00000
(1494968674.913911) can0 3AD#FFFFFFFFFFFFFFFF
(1494968674.914158) can0 3BC#0C000C8901002700
(1494968674.915536) can0 332#0000000000000000
(1494968674.917033) can0 42A#C10000E000000000
(1494968674.917050) can0 33A#0000000000000000
(1494968674.918412) can0 42C#0551F500323E4A40
(1494968674.919787) can0 42E#170000E0000F9C31
(1494968674.919911) can0 505#0B12000000000000
(1494968674.922538) can0 167#80800009FFE00000
(1494968674.929038) can0 216#0000010082000F2D
(1494968674.932913) can0 167#80800009FFE00000
(1494968674.936789) can0 33B#0000000000000000
(1494968674.943167) can0 167#80800009FFE00000
(1494968674.943290) can0 326#81A025E0F9D00166
(1494968674.944664) can0 3E1#8000010701800000
(1494968674.948663) can0 216#0000010082001041
(1494968674.952542) can0 167#80800009FFE00000
(1494968674.957667) can0 3A4#0000000000000000
(1494968674.959044) can0 083#0000000000017F02
(1494968674.959290) can0 3A5#0000000000000000
(1494968674.960788) can0 3A6#0E400A045F700000
(1494968674.962167) can0 3A7#0E400A045F700000
(1494968674.962292) can0 167#80800009FFE00000
(1494968674.963667) can0 3AC#FFFFFFFFFFFFFFFF
(1494968674.965042) can0 3AD#FFFFFFFFFFFFFFFF
(1494968674.965167) can0 3BC#0C00088901002700
(1494968674.966666) can0 3BE#0001E7CE7C006000
(1494968674.968043) can0 42A#C10000E000000000
(1494968674.968167) can0 42C#0551D40032064A00
(1494968674.969542) can0 216#0000010082001146
(1494968674.970918) can0 42E#130000E000039C00
(1494968674.972294) can0 167#80800009FFE00000
(1494968674.980041) can0 178#016C01F60E4EC64E
(1494968674.982675) can0 167#80800009FFE00000
(1494968674.989044) can0 216#0000010082001200
(1494968674.992919) can0 167#80800009FFE00000
(1494968674.996798) can0 33B#0000000000000000
(1494968675.003173) can0 167#80800009FFE00000
(1494968675.004670) can0 3B6#0800050000000000
(1494968675.004795) can0 333#0000000000000000
(1494968675.007424) can0 3B7#0000030060C8017C
(1494968675.007548) can0 3EB#1F04140319200000
(1494968675.007671) can0 346#000000030300C000
(1494968675.010298) can0 083#0000000000017EFF
(1494968675.010546) can0 216#0000010082001300
(1494968675.010671) can0 348#0000000000000000
(1494968675.013299) can0 3A4#0000000000000000
(1494968675.013424) can0 3A5#0000000000000000
(1494968675.013670) can0 3AC#FFFFFFFFFFFFFFFF
(1494968675.015173) can0 332#0000000000000000
(1494968675.015686) can0 3AD#FFFFFFFFFFFFFFFF
(1494968675.017172) can0 33A#0000000000000000
(1494968675.017545) can0 3BC#0C000C8901002700
(1494968675.019046) can0 3E0#0000000080000000
(1494968675.020548) can0 40A#C104010107CC70C1
(1494968675.020564) can0 167#80800009FFE00000
(1494968675.022050) can0 42A#C10000E000000000
(1494968675.023425) can0 167#80800009FFE00000
(1494968675.023550) can0 42C#0551F500323F4B40
(1494968675.024925) can0 42E#170000E0000F9C31
(1494968675.026301) can0 50B#1E12000000000000
(1494968675.028926) can0 216#0000010082001454
(1494968675.032801) can0 167#80800009FFE00000
(1494968675.042929) can0 167#80800009FFE00000
(1494968675.044303) can0 326#81A025E0F9D00166
(1494968675.044428) can0 3E7#0000000000000000
(1494968675.048306) can0 216#0000010082001551
(1494968675.049924) can0 3B4#401111FF23230000
(1494968675.052553) can0 167#80800009FFE00000
(1494968675.056431) can0 33B#0000000000000000
(1494968675.057804) can0 3A4#0000000000000000
(1494968675.059179) can0 083#0000000000017EFC
(1494968675.059304) can0 3A5#0000000000000000
(1494968675.060802) can0 3AC#FFFFFFFFFFFFFFFF
(1494968675.062183) can0 3AD#FFFFFFFFFFFFFFFF
(1494968675.062309) can0 167#80800009FFE00000
(1494968675.063680) can0 3BC#0C00088901002700
(1494968675.065055) can0 3BE#0001E7CE7C006001
(1494968675.065180) can0 3C4#5765F8000000939E
(1494968675.066678) can0 3D5#4121094000000000
(1494968675.068055) can0 42A#C10000E000000000
(1494968675.068181) can0 42C#0551D40032064A00
(1494968675.069555) can0 216#0000010082001655
(1494968675.070931) can0 42E#130000E000039C00
(1494968675.072305) can0 167#80800009FFE00000
(1494968675.080055) can0 178#016C01F60E4EC64E
(1494968675.082682) can0 167#80800009FFE00000
(1494968675.089063) can0 216#0000010082001755
(1494968675.092933) can0 167#80800009FFE00000
(1494968675.100683) can0 346#000000030300C000
(1494968675.100809) can0 348#0000000000000000
(1494968675.102307) can0 3B3#4148001210050222
(1494968675.102556) can0 167#80800009FFE00000
(1494968675.104057) can0 3C3#4008000000004100
(1494968675.105558) can0 333#0000000000000000
(1494968675.105574) can0 33C#2400000000000000
(1494968675.108186) can0 3A4#0000000000000000
(1494968675.108433) can0 083#0000000000017F03
(1494968675.109811) can0 216#0000010082001854
(1494968675.111187) can0 3A5#0000000000000000
(1494968675.111311) can0 3AC#FFFFFFFFFFFFFFFF
(1494968675.112686) can0 167#80800009FFE00000
(1494968675.114063) can0 3AD#FFFFFFFFFFFFFFFF
(1494968675.114309) can0 332#0000000000000000
(1494968675.115692) can0 3BC#0C000C8901002700
(1494968675.117061) can0 33A#0000000000000000
(1494968675.117186) can0 33B#0000000000000000
(1494968675.118562) can0 3DE#0000000080000000
(1494968675.120059) can0 3E2#0000000080000000
(1494968675.120076) can0 42A#C10000E000000000
(1494968675.121437) can0 42C#0551F500323E4A40
(1494968675.122812) can0 42E#170000E0000F9C31
(1494968675.122937) can0 167#80800009FFE00000
(1494968675.124313) can0 51E#3B02000000000000
(1494968675.125813) can0 1E6#800CE2CE00000000
(1494968675.128438) can0 216#0000010082001950
(1494968675.132314) can0 167#80800009FFE00000
(1494968675.137440) can0 34E#0000000000000000
(1494968675.138814) can0 358#0000000000000000
(1494968675.142690) can0 167#80800009FFE00000
(1494968675.145437) can0 326#81A025E0F9D00166
(1494968675.149317) can0 216#0000010082001A55
(1494968675.153194) can0 167#80800009FFE00000
(1494968675.158321) can0 3A4#0000000000000000
(1494968675.158442) can0 083#0000000000017EFF
(1494968675.159817) can0 2FD#D400E30000000000
(1494968675.161316) can0 3A5#0000000000000000
(1494968675.161332) can0 3A6#0E400A045F700000
(1494968675.162692) can0 167#80800009FFE00000
(1494968675.164067) can0 3A7#0E400A045F700000
(1494968675.164192) can0 3AC#FFFFFFFFFFFFFFFF
(1494968675.165567) can0 3AD#FFFFFFFFFFFFFFFF
(1494968675.167068) can0 3BC#0C00088901002700
(1494968675.167084) can0 3BE#0001E7CE7C006000
(1494968675.168444) can0 42A#C10000E000000000
(1494968675.169818) can0 216#0000010082001B55
(1494968675.169943) can0 42C#0551D40032064A00
(1494968675.171318) can0 42E#130000E000039C00
(1494968675.172816) can0 167#80800009FFE00000
(1494968675.176695) can0 33B#0000000000000000
(1494968675.180570) can0 178#016C01F60E4EC64E
(1494968675.183197) can0 167#80800009FFE00000
(1494968675.188321) can0 216#0000010082001C00
(1494968675.193446) can0 167#80800009FFE00000
(1494968675.201200) can0 346#000000030300C000
(1494968675.201217) can0 348#0000000000000000
(1494968675.202572) can0 40A#C110418820250000
(1494968675.203947) can0 167#80800009FFE00000
(1494968675.204071) can0 333#0000000000000000
(1494968675.208193) can0 083#0000000000017F01
(1494968675.208445) can0 216#0000010082001D15
(1494968675.209822) can0 3A4#0000000000000000
(1494968675.211198) can0 3A5#0000000000000000
(1494968675.211445) can0 3AC#FFFFFFFFFFFFFFFF
(1494968675.212823) can0 167#80800009FFE00000
(1494968675.214321) can0 3AD#FFFFFFFFFFFFFFFF
(1494968675.214446) can0 332#0000000000000000
(1494968675.215829) can0 3BC#0C000C8901002700
(1494968675.217202) can0 33A#0000000000000000
(1494968675.217325) can0 42A#C10000E000000000
(1494968675.218700) can0 42C#0551F500323E4A40
(1494968675.220197) can0 42E#170000E0000F9C31
(1494968675.220214) can0 53B#5D12000000000000
(1494968675.222825) can0 167#80800009FFE00000
(1494968675.229202) can0 216#0000010082001E55
(1494968675.233077) can0 167#80800009FFE00000
(1494968675.236954) can0 33B#0000000000000000
