(1494968351.667071) can0 216#0000010082001041
(1494968351.669690) can0 167#80800009FFE00000
(1494968351.679807) can0 167#80800009FFE00000
(1494968351.680055) can0 33B#0000000000000000
(1494968351.681433) can0 3BE#0001E70E7C007E00
(1494968351.687806) can0 216#0000010082001146
(1494968351.689183) can0 167#80800009FFE00000
(1494968351.699308) can0 167#80800009FFE00000
(1494968351.700683) can0 346#000000030300C000
(1494968351.700931) can0 348#0000000000000000
(1494968351.702308) can0 3A4#0000000000000000
(1494968351.703683) can0 3A5#0000000000000000
(1494968351.703809) can0 3AC#FFFFFFFFFFFFFFFF
(1494968351.705183) can0 3AD#FFFFFFFFFFFFFFFF
(1494968351.707934) can0 216#0000010082001200
(1494968351.708184) can0 167#80800009FFE00000
(1494968351.710812) can0 083#0000000000017EFD
(1494968351.712188) can0 3BC#0C000C8901002700
(1494968351.712435) can0 178#013D01F60E4FC64E
(1494968351.713813) can0 326#81A02627F9D00164
(1494968351.715311) can0 3BE#0001E7C27C007E00
(1494968351.715323) can0 3C4#5759F8000000939E
(1494968351.716686) can0 42A#BA0000E000000000
(1494968351.718060) can0 42C#0551F5002D064E40
(1494968351.718186) can0 42E#130000E000079F81
(1494968351.720810) can0 167#80800009FFE00000
(1494968351.726062) can0 333#0000000000000000
(1494968351.727440) can0 216#0000010082001300
(1494968351.728814) can0 332#0000000000000000
(1494968351.728942) can0 167#80800009FFE00000
(1494968351.730314) can0 33A#0000000000000000
(1494968351.731690) can0 35D#0000000000000000
(1494968351.735695) can0 50B#1E12000000000000
(1494968351.739566) can0 167#80800009FFE00000
(1494968351.739692) can0 33B#0000000000000000
(1494968351.746068) can0 3B6#0800080000000000
(1494968351.746315) can0 3B7#0000020060C8022D
(1494968351.747692) can0 216#0000010082001454
(1494968351.749192) can0 167#80800009FFE00000
(1494968351.751817) can0 3A5#0000000000000000
(1494968351.751944) can0 3A4#0000000000000000
(1494968351.753318) can0 3AC#FFFFFFFFFFFFFFFF
(1494968351.753445) can0 3AD#FFFFFFFFFFFFFFFF
(1494968351.759820) can0 167#80800009FFE00000
(1494968351.761317) can0 083#0000000000017F01
(1494968351.761447) can0 3BC#0C00088901002700
(1494968351.762819) can0 42A#BA0000E000000000
(1494968351.764194) can0 42C#0551D4002D3E4E00
(1494968351.764321) can0 42E#170000E0000B9FB0
(1494968351.766945) can0 216#0000010082001551
(1494968351.769693) can0 167#80800009FFE00000
(1494968351.779825) can0 167#80800009FFE00000
(1494968351.787449) can0 216#0000010082001655
(1494968351.788823) can0 167#80800009FFE00000
(1494968351.797699) can0 40A#C1014C5534485233
(1494968351.799074) can0 167#80800009FFE00000
(1494968351.799322) can0 33B#0000000000000000
(1494968351.800699) can0 346#000000030300C000
(1494968351.802073) can0 348#0000000000000000
(1494968351.802321) can0 3A4#0000000000000000
(1494968351.803699) can0 3A5#0000000000000000
(1494968351.805197) can0 3A6#0E400A045F700000
(1494968351.805325) can0 3A7#0E400A045F700000
(1494968351.806701) can0 3AC#FFFFFFFFFFFFFFFF
(1494968351.808075) can0 216#0000010082001755
(1494968351.808202) can0 3AD#FFFFFFFFFFFFFFFF
(1494968351.810825) can0 167#80800009FFE00000
(1494968351.811072) can0 083#0000000000017F00
(1494968351.812450) can0 3BC#0C000C8901002700
(1494968351.812577) can0 178#013D01F60E4FC64E
(1494968351.813950) can0 2A0#FFFFFFFF00001E00
(1494968351.815325) can0 326#81A02627F9D00164
(1494968351.815452) can0 3BE#0001E7CE7C007E00
(1494968351.816948) can0 42A#BA0000E000000000
(1494968351.818326) can0 42C#0551F5002D064E40
(1494968351.818453) can0 42E#130000E000079F81
(1494968351.819826) can0 167#80800009FFE00000
(1494968351.826203) can0 333#0000000000000000
(1494968351.827577) can0 216#0000010082001854
(1494968351.827825) can0 332#0000000000000000
(1494968351.829202) can0 167#80800009FFE00000
(1494968351.830578) can0 33A#0000000000000000
(1494968351.830705) can0 51E#3B02000000000000
(1494968351.839580) can0 167#80800009FFE00000
(1494968351.847206) can0 216#0000010082001910
(1494968351.849953) can0 167#80800009FFE00000
(1494968351.851330) can0 3A5#0000000000000000
(1494968351.851456) can0 3A4#0000000000000000
(1494968351.852831) can0 3AC#FFFFFFFFFFFFFFFF
(1494968351.854206) can0 3AD#FFFFFFFFFFFFFFFF
(1494968351.859332) can0 167#80800009FFE00000
(1494968351.860830) can0 33B#0000000000000000
(1494968351.860842) can0 083#0000000000017F03
(1494968351.862207) can0 3BC#0C00088901002700
(1494968351.863581) can0 42A#BA0000E000000000
(1494968351.863708) can0 42C#0551D4002D3E4E00
(1494968351.865082) can0 42E#170000E0000B9FB0
(1494968351.867831) can0 216#0000010082001A55
(1494968351.869207) can0 167#80800009FFE00000
(1494968351.879335) can0 167#80800009FFE00000
(1494968351.886961) can0 216#0000010082001B55
(1494968351.889587) can0 167#80800009FFE00000
(1494968351.899833) can0 167#80800009FFE00000
(1494968351.899846) can0 346#000000030300C000
(1494968351.901211) can0 348#0000000000000000
(1494968351.902588) can0 3A4#0000000000000000
(1494968351.902713) can0 3A5#0000000000000000
(1494968351.904087) can0 3AC#FFFFFFFFFFFFFFFF
(1494968351.905587) can0 3AD#FFFFFFFFFFFFFFFF
(1494968351.908214) can0 216#0000010082001C00
(1494968351.908340) can0 167#80800009FFE00000
(1494968351.910964) can0 083#0000000000017EFD
(1494968351.912338) can0 3BC#0C000C8901002700
(1494968351.912588) can0 178#013D01F60E4FC64E
(1494968351.914085) can0 326#81A02627F9D00164
(1494968351.915463) can0 3BE#0001E7CE7C007E00
(1494968351.915590) can0 3C4#5759F8300000939E
(1494968351.916965) can0 42A#BA0000E000000000
(1494968351.918339) can0 42C#0551F5002D064E40
(1494968351.918467) can0 42E#130000E000079F81
(1494968351.919961) can0 167#80800009FFE00000
(1494968351.920212) can0 33B#0000000000000000
(1494968351.926592) can0 333#0000000000000000
(1494968351.926716) can0 216#0000010082001D15
(1494968351.928090) can0 332#0000000000000000
(1494968351.929464) can0 167#80800009FFE00000
(1494968351.929713) can0 33A#0000000000000000
(1494968351.931091) can0 53B#5D12000000000000
(1494968351.938717) can0 167#80800009FFE00000
(1494968351.947593) can0 216#0000010082001E55
(1494968351.948967) can0 167#80800009FFE00000
(1494968351.951592) can0 3A5#0000000000000000
(1494968351.951840) can0 3A4#0000000000000000
(1494968351.953218) can0 3AC#FFFFFFFFFFFFFFFF
(1494968351.953345) can0 3AD#FFFFFFFFFFFFFFFF
(1494968351.959719) can0 167#80800009FFE00000
(1494968351.961094) can0 083#0000000000017F01
(1494968351.961464) can0 3BC#0C00088901002700
(1494968351.962967) can0 42A#BA0000E000000000
(1494968351.964344) can0 42C#0551D4002D3E4E00
(1494968351.964470) can0 42E#170000E0000B9FB0
(1494968351.967095) can0 216#0000010082001F11
(1494968351.969716) can0 167#80800009FFE00000
(1494968351.979970) can0 167#80800009FFE00000
(1494968351.979983) can0 33B#0000000000000000
(1494968351.987599) can0 216#0000010082002051
(1494968351.988973) can0 167#80800009FFE00000
(1494968351.997972) can0 3B6#0800090000000000
(1494968351.997984) can0 3B7#0000030060C8017C
(1494968351.999471) can0 167#80800009FFE00000
(1494968352.000972) can0 346#000000030300C000
(1494968352.000984) can0 348#0000000000000000
(1494968352.002471) can0 3A4#0000000000000000
(1494968352.003972) can0 3A5#0000000000000000
(1494968352.003984) can0 3A6#0E400A045F700000
(1494968352.005474) can0 3A7#0E400A045F700000
(1494968352.005846) can0 3AC#FFFFFFFFFFFFFFFF
(1494968352.007225) can0 3AD#FFFFFFFFFFFFFFFF
(1494968352.008603) can0 216#0000010082002115
(1494968352.008727) can0 3EB#1F04140000200000
(1494968352.010100) can0 167#80800009FFE00000
(1494968352.011598) can0 40A#C1023130353736FF
(1494968352.011725) can0 083#0000000000017EFB
(1494968352.013101) can0 178#013D01F60E4FC64E
(1494968352.014476) can0 3BC#0C000C8901002700
(1494968352.014603) can0 326#81A02627F9D00164
(1494968352.015978) can0 3BE#0001E7CE7C007E01
(1494968352.017476) can0 42A#BA0000E000000000
(1494968352.017488) can0 42C#0551F5002D074F40
(1494968352.018851) can0 42E#130000E000079F81
(1494968352.020226) can0 167#80800009FFE00000
(1494968352.020353) can0 55D#0402000000000000
(1494968352.026728) can0 333#0000000000000000
(1494968352.026974) can0 216#0000010082002215
(1494968352.028352) can0 332#0000000000000000
(1494968352.029730) can0 167#80800009FFE00000
(1494968352.029855) can0 33A#0000000000000000
(1494968352.038732) can0 167#80800009FFE00000
(1494968352.040104) can0 33B#0000000000000000
(1494968352.045353) can0 3B4#401111FF23230000
(1494968352.046730) can0 216#0000010082002340
(1494968352.049354) can0 167#80800009FFE00000
(1494968352.050730) can0 3A4#0000000000000000
(1494968352.052105) can0 3A5#0000000000000000
(1494968352.052476) can0 3AC#FFFFFFFFFFFFFFFF
(1494968352.053855) can0 3AD#FFFFFFFFFFFFFFFF
(1494968352.058982) can0 167#80800009FFE00000
(1494968352.061611) can0 083#0000000000017F01
(1494968352.061736) can0 3BC#0C00088901002700
(1494968352.063106) can0 42A#BA0000E000000000
(1494968352.063354) can0 42C#0551D4002D3E4E00
(1494968352.064732) can0 42E#170000E0000B9FB0
(1494968352.067357) can0 216#0000010082000000
(1494968352.068732) can0 167#80800009FFE00000
(1494968352.078859) can0 167#80800009FFE00000
(1494968352.087736) can0 216#0000010082000100
(1494968352.089232) can0 167#80800009FFE00000
(1494968352.096862) can0 3B3#4148001210050222
(1494968352.096988) can0 3C3#4008000000004100
(1494968352.099611) can0 167#80800009FFE00000
(1494968352.099738) can0 33B#0000000000000000
(1494968352.101111) can0 3A4#0000000000000000
(1494968352.101486) can0 3A5#0000000000000000
(1494968352.102862) can0 3AC#FFFFFFFFFFFFFFFF
(1494968352.104237) can0 3AD#FFFFFFFFFFFFFFFF
(1494968352.106863) can0 346#000000030300C000
(1494968352.107109) can0 348#0000000000000000
(1494968352.109742) can0 216#00000100820002FA
(1494968352.109987) can0 167#80800009FFE00000
(1494968352.110113) can0 3E0#0000000080000000
(1494968352.112737) can0 083#0000000000017F01
(1494968352.112864) can0 3BC#0C000C8901002700
(1494968352.112989) can0 178#013D01F60E4FC64E
(1494968352.114486) can0 3BE#0001E7CE7C007E00
(1494968352.115987) can0 326#81A02627F9D00164
(1494968352.115998) can0 3C4#5759F8400000939E
(1494968352.117364) can0 3D5#4121094000000000
(1494968352.118740) can0 3E2#0000000080000000
(1494968352.118866) can0 167#80800009FFE00000
(1494968352.120239) can0 42A#BA0000E000000000
(1494968352.121738) can0 42C#0551F5002D064E40
(1494968352.121749) can0 42E#130000E000079F81
(1494968352.123114) can0 504#0512000000000000
(1494968352.125749) can0 1E6#800CE2CE00000000
(1494968352.125866) can0 333#0000000000000000
(1494968352.127239) can0 216#00000100820003B3
(1494968352.128739) can0 332#0000000000000000
(1494968352.128751) can0 167#80800009FFE00000
(1494968352.130115) can0 33A#0000000000000000
(1494968352.131490) can0 33C#2400000000000000
(1494968352.131737) can0 3DE#0000000080000000
(1494968352.135744) can0 3E7#0000000000000000
(1494968352.138365) can0 34E#0000000000000000
(1494968352.138492) can0 358#0000000000000000
(1494968352.139866) can0 167#80800009FFE00000
(1494968352.147493) can0 216#0000010082000448
(1494968352.148868) can0 167#80800009FFE00000
(1494968352.151618) can0 3A5#0000000000000000
(1494968352.151630) can0 3A4#0000000000000000
(1494968352.152994) can0 3AC#FFFFFFFFFFFFFFFF
(1494968352.154368) can0 3AD#FFFFFFFFFFFFFFFF
(1494968352.159495) can0 167#80800009FFE00000
(1494968352.160868) can0 33B#0000000000000000
(1494968352.161115) can0 083#0000000000017EFF
(1494968352.162617) can0 3BC#0C00088901002700
(1494968352.162992) can0 42A#BA0000E000000000
(1494968352.164491) can0 42C#0551D4002D3E4E00
(1494968352.165991) can0 42E#170000E0000B9FB0
(1494968352.167369) can0 216#0000010082000547
(1494968352.168867) can0 167#80800009FFE00000
(1494968352.178997) can0 167#80800009FFE00000
(1494968352.187873) can0 216#0000010082000639
(1494968352.189248) can0 167#80800009FFE00000
(1494968352.196874) can0 40A#C104010107CC70C1
(1494968352.199499) can0 167#80800009FFE00000
(1494968352.199747) can0 346#000000030300C000
(1494968352.201124) can0 348#0000000000000000
(1494968352.201371) can0 3A4#0000000000000000
(1494968352.202749) can0 3A5#0000000000000000
(1494968352.204124) can0 3A6#0E400A045F700000
(1494968352.204250) can0 3A7#0E400A045F700000
(1494968352.206998) can0 3AC#FFFFFFFFFFFFFFFF
(1494968352.207010) can0 3AD#FFFFFFFFFFFFFFFF
(1494968352.207248) can0 216#0000010082000743
(1494968352.209875) can0 167#80800009FFE00000
(1494968352.211249) can0 083#0000000000017EFD
(1494968352.212625) can0 2FD#D400E30000000000
(1494968352.212873) can0 178#013D01F60E4FC64E
(1494968352.214251) can0 3BC#0C000C8901002700
(1494968352.214499) can0 3BE#0001E7CE7C007E00
(1494968352.215879) can0 326#81A02627F9D00164
(1494968352.217247) can0 42A#BA0000E000000000
(1494968352.217493) can0 42C#0551F5002D064E40
(1494968352.218872) can0 42E#130000E000079F81
(1494968352.220247) can0 167#80800009FFE00000
(1494968352.220373) can0 33B#0000000000000000
(1494968352.221752) can0 505#0B12000000000000
(1494968352.226880) can0 333#0000000000000000
(1494968352.227123) can0 216#000001008200082D
(1494968352.228502) can0 332#0000000000000000
(1494968352.228749) can0 167#80800009FFE00000
(1494968352.230127) can0 33A#0000000000000000
(1494968352.239005) can0 167#80800009FFE00000
(1494968352.245504) can0 331#C000509B044A1004
(1494968352.247002) can0 3B6#08000A0000000000
(1494968352.247251) can0 216#0000010082000931
(1494968352.249880) can0 3B7#0000000060C801CE
(1494968352.250006) can0 167#80800009FFE00000
(1494968352.251380) can0 3A4#0000000000000000
(1494968352.251506) can0 3A5#0000000000000000
(1494968352.253002) can0 3AC#FFFFFFFFFFFFFFFF
(1494968352.254381) can0 3AD#FFFFFFFFFFFFFFFF
(1494968352.259507) can0 167#80800009FFE00000
(1494968352.260881) can0 083#0000000000017EFF
(1494968352.262256) can0 3BC#0C00088901002700
(1494968352.262383) can0 42A#BA0000E000000000
(1494968352.263881) can0 42C#0551D4002D3E4E00
(1494968352.265257) can0 42E#170000E0000B9FB0
(1494968352.267883) can0 216#0000010082000A34
(1494968352.269257) can0 167#80800009FFE00000
(1494968352.279385) can0 167#80800009FFE00000
(1494968352.279512) can0 33B#0000000000000000
(1494968352.287258) can0 216#0000010082000B43
(1494968352.289885) can0 167#80800009FFE00000
(1494968352.298762) can0 167#80800009FFE00000
(1494968352.300137) can0 346#000000030300C000
(1494968352.301519) can0 348#0000000000000000
(1494968352.301641) can0 3A4#0000000000000000
(1494968352.303134) can0 3A5#0000000000000000
(1494968352.304511) can0 3AC#FFFFFFFFFFFFFFFF
(1494968352.304640) can0 3AD#FFFFFFFFFFFFFFFF
(1494968352.308513) can0 216#0000010082000C36
(1494968352.308639) can0 167#80800009FFE00000
(1494968352.311262) can0 083#0000000000017F00
(1494968352.311634) can0 3BC#0C000C8901002700
(1494968352.313013) can0 178#013D01F60E4FC64E
(1494968352.314387) can0 3BE#0001E7CE7C007E00
(1494968352.314515) can0 3C4#5759F8000000939E
(1494968352.315889) can0 326#81A02627F9D00164
(1494968352.317387) can0 42A#BA0000E000000000
(1494968352.317399) can0 42C#0551F5002D064E40
(1494968352.318764) can0 42E#130000E000079F81
(1494968352.320139) can0 167#80800009FFE00000
(1494968352.325387) can0 50B#1E12000000000000
(1494968352.326888) can0 333#0000000000000000
(1494968352.327014) can0 216#0000010082000D30
(1494968352.328514) can0 332#0000000000000000
(1494968352.330013) can0 167#80800009FFE00000
(1494968352.330025) can0 33A#0000000000000000
(1494968352.331511) can0 33F#0200200000000000
(1494968352.339142) can0 167#80800009FFE00000
(1494968352.340638) can0 33B#0000000000000000
(1494968352.347018) can0 216#0000010082000E32
(1494968352.349648) can0 167#80800009FFE00000
(1494968352.351017) can0 3A5#0000000000000000
(1494968352.352393) can0 3A4#0000000000000000
(1494968352.352520) can0 3AC#FFFFFFFFFFFFFFFF
(1494968352.354017) can0 3AD#FFFFFFFFFFFFFFFF
(1494968352.359145) can0 167#80800009FFE00000
(1494968352.361770) can0 083#0000000000017EFC
(1494968352.361904) can0 3BC#0C00088901002700
(1494968352.363270) can0 42A#BA0000E000000000
(1494968352.363396) can0 42C#0551D4002D3E4E00
(1494968352.364892) can0 42E#170000E0000B9FB0
(1494968352.365266) can0 304#0800000000000000
(1494968352.367896) can0 216#0000010082000F2D
(1494968352.369269) can0 167#80800009FFE00000
(1494968352.379397) can0 167#80800009FFE00000
(1494968352.387024) can0 216#0000010082001041
(1494968352.389771) can0 167#80800009FFE00000
(1494968352.397399) can0 40A#C110418820250000
(1494968352.398774) can0 167#80800009FFE00000
(1494968352.400148) can0 346#000000030300C000
(1494968352.400396) can0 33B#0000000000000000
(1494968352.401774) can0 348#0000000000000000
(1494968352.403273) can0 3A4#0000000000000000
(1494968352.403400) can0 3A5#0000000000000000
(1494968352.404775) can0 3A6#0E400A045F700000
(1494968352.406150) can0 3A7#0E400A045F700000
(1494968352.406276) can0 3AC#FFFFFFFFFFFFFFFF
(1494968352.409023) can0 216#0000010082001146
(1494968352.409035) can0 3AD#FFFFFFFFFFFFFFFF
(1494968352.409152) can0 167#80800009FFE00000
(1494968352.411774) can0 51E#3B02000000000000
(1494968352.411901) can0 083#0000000000017F01
(1494968352.413274) can0 178#013D01F60E4FC64E
(1494968352.413530) can0 3BC#0C000C8901002700
(1494968352.414900) can0 3BE#0001E7CE7C007E00
(1494968352.416278) can0 42A#BA0000E000000000
(1494968352.416403) can0 326#81A02627F9D00164
(1494968352.417777) can0 42C#0551F5002D064E40
(1494968352.419151) can0 42E#130000E000079F81
(1494968352.419399) can0 167#80800009FFE00000
(1494968352.425783) can0 333#0000000000000000
(1494968352.427153) can0 216#0000010082001200
(1494968352.428528) can0 332#0000000000000000
(1494968352.428656) can0 167#80800009FFE00000
(1494968352.430027) can0 33A#0000000000000000
(1494968352.439029) can0 167#80800009FFE00000
(1494968352.447912) can0 216#0000010082001300
(1494968352.449286) can0 167#80800009FFE00000
(1494968352.451908) can0 3A4#0000000000000000
(1494968352.452036) can0 3A5#0000000000000000
(1494968352.453408) can0 3AC#FFFFFFFFFFFFFFFF
(1494968352.453663) can0 3AD#FFFFFFFFFFFFFFFF
(1494968352.458784) can0 167#80800009FFE00000
(1494968352.460158) can0 33B#0000000000000000
(1494968352.461542) can0 083#0000000000017EFE
(1494968352.461905) can0 3BC#0C00088901002700
(1494968352.463283) can0 42A#BA0000E000000000
(1494968352.464783) can0 42C#0551D4002D3E4E00
(1494968352.464800) can0 42E#170000E0000B9FB0
(1494968352.466164) can0 3E1#8000010701800000
(1494968352.467539) can0 216#0000010082001454
(1494968352.468913) can0 167#80800009FFE00000
(1494968352.479042) can0 167#80800009FFE00000
(1494968352.488040) can0 216#0000010082001551
(1494968352.488289) can0 167#80800009FFE00000
(1494968352.495919) can0 3B6#08000B0000000000
(1494968352.497292) can0 3B7#0000010060C80084
(1494968352.499918) can0 167#80800009FFE00000
(1494968352.500165) can0 346#000000030300C000
(1494968352.501545) can0 348#0000000000000000
(1494968352.501677) can0 3A4#0000000000000000
(1494968352.503043) can0 3A5#0000000000000000
(1494968352.504418) can0 3AC#FFFFFFFFFFFFFFFF
(1494968352.504552) can0 3AD#FFFFFFFFFFFFFFFF
(1494968352.508543) can0 216#0000010082001655
(1494968352.508560) can0 167#80800009FFE00000
(1494968352.509919) can0 53B#5D12000000000000
(1494968352.511294) can0 083#0000000000017EFC
(1494968352.512669) can0 3BC#0C000C8901002700
(1494968352.512798) can0 178#013D01F60E4FC64E
(1494968352.514293) can0 3BE#0001E7CE7C007E00
(1494968352.515676) can0 3C4#5759F8000000939E
(1494968352.515794) can0 42A#BA0000E000000000
(1494968352.517169) can0 326#81A02627F9D00164
(1494968352.518545) can0 42C#0551F5002D064E40
(1494968352.518678) can0 42E#130000E000079F81
(1494968352.520170) can0 167#80800009FFE00000
(1494968352.520418) can0 33B#0000000000000000
(1494968352.526797) can0 333#0000000000000000
(1494968352.526927) can0 216#0000010082001755
(1494968352.528296) can0 332#0000000000000000
(1494968352.529674) can0 167#80800009FFE00000
(1494968352.529922) can0 33A#0000000000000000
(1494968352.538799) can0 167#80800009FFE00000
(1494968352.547675) can0 216#0000010082001854
(1494968352.549048) can0 167#80800009FFE00000
(1494968352.551674) can0 3A5#0000000000000000
(1494968352.551804) can0 3A4#0000000000000000
(1494968352.553298) can0 3AC#FFFFFFFFFFFFFFFF
(1494968352.553548) can0 3AD#FFFFFFFFFFFFFFFF
(1494968352.559927) can0 167#80800009FFE00000
(1494968352.561300) can0 083#0000000000017EFF
(1494968352.561429) can0 3BC#0C00088901002700
(1494968352.562801) can0 42A#BA0000E000000000
(1494968352.564300) can0 42C#0551D4002D3E4E00
(1494968352.564318) can0 42E#170000E0000B9FB0
(1494968352.566927) can0 216#0000010082001910
(1494968352.569551) can0 167#80800009FFE00000
(1494968352.579679) can0 167#80800009FFE00000
(1494968352.579799) can0 33B#0000000000000000
(1494968352.587430) can0 216#0000010082001A55
(1494968352.588804) can0 167#80800009FFE00000
(1494968352.597684) can0 3B3#4148001210050222
(1494968352.597860) can0 40A#C000000337228E00
(1494968352.598178) can0 55D#0402000000000000
(1494968352.600929) can0 167#80800009FFE00000
(1494968352.600947) can0 346#000000030300C000
(1494968352.601076) can0 348#0000000000000000
(1494968352.602554) can0 3A4#0000000000000000
(1494968352.604055) can0 3A5#0000000000000000
(1494968352.604072) can0 3A6#0E400A045F700000
(1494968352.605687) can0 3A7#0E400A045F700000
(1494968352.606049) can0 3AC#FFFFFFFFFFFFFFFF
(1494968352.607550) can0 3AD#FFFFFFFFFFFFFFFF
(1494968352.609050) can0 216#0000010082001B55
(1494968352.609067) can0 167#80800009FFE00000
(1494968352.611677) can0 083#0000000000017EFE
(1494968352.611924) can0 3BC#0C000C8901002700
(1494968352.613302) can0 178#013D01F60E4FC24E
(1494968352.613480) can0 3BE#0001E7CE7C007E00
(1494968352.614804) can0 42A#BA0000E000000000
(1494968352.616178) can0 42C#0551F5002D064E40
(1494968352.616305) can0 42E#130000E000079F81
(1494968352.619054) can0 084#110000883B0B0C00
(1494968352.619070) can0 124#0202000000000000
(1494968352.619180) can0 167#80800009FFE00000
(1494968352.621807) can0 22C#000A000000000000
(1494968352.621931) can0 326#81A02627F9D00164
(1494968352.622055) can0 355#60071DA0008800E0
(1494968352.623552) can0 356#02BC373037300000
(1494968352.625053) can0 35E#00C0003896583000
(1494968352.625071) can0 3E7#0000000000000000
(1494968352.626552) can0 333#0000000000000000
(1494968352.628053) can0 216#0000010082001C00
(1494968352.628070) can0 332#0000000000000000
(1494968352.629555) can0 167#80800009FFE00000
(1494968352.631053) can0 33A#0000000000000000
(1494968352.631070) can0 41A#7700000000000000
(1494968352.639932) can0 167#80800009FFE00000
(1494968352.640059) can0 33B#0000000000000000
(1494968352.647687) can0 216#0000010082001D15
(1494968352.649186) can0 167#80800009FFE00000
(1494968352.651812) can0 3A5#0000000000000000
(1494968352.651941) can0 3A4#0000000000000000
(1494968352.653312) can0 3AC#FFFFFFFFFFFFFFFF
(1494968352.653569) can0 3AD#FFFFFFFFFFFFFFFF
(1494968352.660058) can0 167#80800009FFE00000
(1494968352.660310) can0 083#0000000000017F00
(1494968352.662934) can0 3BC#0C00088901002700
(1494968352.663062) can0 42A#BA0000E000000000
(1494968352.663185) can0 42C#0551D4002D3E4E00
(1494968352.665811) can0 42E#170000E0000B9FB0
(1494968352.666057) can0 331#C000509C044A1004
(1494968352.667434) can0 216#0000010082001E55
(1494968352.668810) can0 167#80800009FFE00000
(1494968352.678940) can0 167#80800009FFE00000
(1494968352.681682) can0 3BE#0001E70E7C008000
(1494968352.687938) can0 216#0000010082001F11
(1494968352.689436) can0 167#80800009FFE00000
(1494968352.697068) can0 504#0512000000000000
(1494968352.699693) can0 167#80800009FFE00000
(1494968352.699825) can0 33B#0000000000000000
(1494968352.701192) can0 346#000000030300C000
(1494968352.701441) can0 348#0000000000000000
(1494968352.702942) can0 3A4#0000000000000000
(1494968352.704318) can0 3A5#0000000000000000
(1494968352.704449) can0 3AC#FFFFFFFFFFFFFFFF
(1494968352.705819) can0 3AD#FFFFFFFFFFFFFFFF
(1494968352.708439) can0 216#0000010082002051
(1494968352.708567) can0 167#80800009FFE00000
(1494968352.711313) can0 083#0000000000017F01
(1494968352.711562) can0 3BC#0C000C8901002700
(1494968352.712940) can0 178#013D01F60E4FC64E
(1494968352.714315) can0 3BE#0001E7C27C008000
(1494968352.714443) can0 3C4#5759F8000000939E
(1494968352.715813) can0 42A#BA0000E000000000
(1494968352.717314) can0 42C#0551F5002D064E40
(1494968352.717332) can0 42E#130000E000079F81
(1494968352.719941) can0 326#81A02627F9D00164
(1494968352.720068) can0 167#80800009FFE00000
(1494968352.726442) can0 333#0000000000000000
(1494968352.726692) can0 216#0000010082002115
(1494968352.728191) can0 332#0000000000000000
(1494968352.729567) can0 167#80800009FFE00000
(1494968352.729694) can0 33A#0000000000000000
(1494968352.731067) can0 35D#0000000000000000
(1494968352.739948) can0 167#80800009FFE00000
(1494968352.745196) can0 3B6#080000003055BD91
(1494968352.747837) can0 3B7#0000020060C8022D
(1494968352.747946) can0 216#0000010082002215
(1494968352.749324) can0 167#80800009FFE00000
(1494968352.751945) can0 3A5#0000000000000000
(1494968352.752117) can0 3A4#0000000000000000
(1494968352.753572) can0 3AC#FFFFFFFFFFFFFFFF
(1494968352.753589) can0 3AD#FFFFFFFFFFFFFFFF
(1494968352.759947) can0 167#80800009FFE00000
(1494968352.760074) can0 33B#0000000000000000
(1494968352.761446) can0 083#0000000000017EFE
(1494968352.762821) can0 3BC#0C00088901002700
(1494968352.763070) can0 42A#BA0000E000000000
(1494968352.764447) can0 42C#0551D4002D3E4E00
(1494968352.764695) can0 42E#170000E0000B9FB0
(1494968352.767326) can0 216#0000010082002340
(1494968352.769953) can0 167#80800009FFE00000
(1494968352.778823) can0 167#80800009FFE00000
(1494968352.787828) can0 216#0000010082000000
(1494968352.789205) can0 167#80800009FFE00000
(1494968352.796826) can0 505#0B12000000000000
(1494968352.796953) can0 40A#C100334641365030
(1494968352.799577) can0 167#80800009FFE00000
(1494968352.799703) can0 346#000000030300C000
(1494968352.801199) can0 348#0000000000000000
(1494968352.801448) can0 3A4#0000000000000000
(1494968352.802826) can0 3A5#0000000000000000
(1494968352.804201) can0 3A6#0E400A045F700000
(1494968352.804328) can0 3A7#0E400A045F700000
(1494968352.806952) can0 3AC#FFFFFFFFFFFFFFFF
(1494968352.807201) can0 3AD#FFFFFFFFFFFFFFFF
(1494968352.807327) can0 216#0000010082000100
(1494968352.809952) can0 167#80800009FFE00000
(1494968352.811327) can0 083#0000000000017EFD
(1494968352.811454) can0 3BC#0C000C8901002700
(1494968352.812831) can0 178#013D01F60E4FC64E
(1494968352.814327) can0 3BE#0001E7CE7C008000
(1494968352.814454) can0 42A#BA0000E000000000
(1494968352.815831) can0 42C#0551F5002D064E40
(1494968352.817203) can0 42E#130000E000079F81
(1494968352.818578) can0 2A0#FFFFFFFF00001E00
(1494968352.819953) can0 167#80800009FFE00000
(1494968352.820080) can0 326#81A02627F9D00164
(1494968352.821453) can0 33B#0000000000000000
(1494968352.826584) can0 333#0000000000000000
(1494968352.826716) can0 216#00000100820002FA
(1494968352.828085) can0 332#0000000000000000
(1494968352.829592) can0 167#80800009FFE00000
(1494968352.829609) can0 33A#0000000000000000
(1494968352.839710) can0 167#80800009FFE00000
(1494968352.847332) can0 216#00000100820003B3
(1494968352.849958) can0 167#80800009FFE00000
(1494968352.851332) can0 3A5#0000000000000000
(1494968352.851704) can0 3A4#0000000000000000
(1494968352.853082) can0 3AC#FFFFFFFFFFFFFFFF
(1494968352.854459) can0 3AD#FFFFFFFFFFFFFFFF
(1494968352.859587) can0 167#80800009FFE00000
(1494968352.860958) can0 083#0000000000017EFC
(1494968352.861329) can0 3BC#0C00088901002700
(1494968352.864084) can0 42A#BA0000E000000000
(1494968352.864101) can0 42C#0551D4002D3E4E00
(1494968352.864229) can0 42E#170000E0000B9FB0
(1494968352.866834) can0 216#0000010082000448
(1494968352.869459) can0 167#80800009FFE00000
(1494968352.879591) can0 167#80800009FFE00000
(1494968352.879839) can0 33B#0000000000000000
(1494968352.887468) can0 216#0000010082000547
(1494968352.888841) can0 167#80800009FFE00000
(1494968352.896468) can0 50B#1E12000000000000
(1494968352.899093) can0 167#80800009FFE00000
(1494968352.900468) can0 346#000000030300C000
(1494968352.900716) can0 348#0000000000000000
(1494968352.902092) can0 3A4#0000000000000000
(1494968352.903467) can0 3A5#0000000000000000
(1494968352.903596) can0 3AC#FFFFFFFFFFFFFFFF
(1494968352.904969) can0 3AD#FFFFFFFFFFFFFFFF
(1494968352.908844) can0 216#0000010082000639
(1494968352.909092) can0 167#80800009FFE00000
(1494968352.911719) can0 083#0000000000017EFF
(1494968352.911849) can0 3BC#0C000C8901002700
(1494968352.913219) can0 178#013D01F60E4FC24E
(1494968352.913467) can0 3BE#0001E7CE7C008000
(1494968352.914844) can0 3C4#5759F8300000939E
(1494968352.916345) can0 42A#BA0000E000000000
(1494968352.916362) can0 42C#0551F5002D064E40
(1494968352.918970) can0 42E#130000E000079F81
(1494968352.919099) can0 167#80800009FFE00000
(1494968352.919344) can0 326#81A02627F9D00164
(1494968352.927094) can0 333#0000000000000000
(1494968352.927112) can0 216#0000010082000743
(1494968352.928471) can0 332#0000000000000000
(1494968352.928602) can0 167#80800009FFE00000
(1494968352.929971) can0 33A#0000000000000000
(1494968352.938849) can0 167#80800009FFE00000
(1494968352.940346) can0 33B#0000000000000000
(1494968352.947976) can0 216#000001008200082D
(1494968352.948222) can0 167#80800009FFE00000
(1494968352.950850) can0 3A5#0000000000000000
(1494968352.952224) can0 3A4#0000000000000000
(1494968352.953599) can0 3AC#FFFFFFFFFFFFFFFF
(1494968352.953848) can0 3AD#FFFFFFFFFFFFFFFF
(1494968352.958976) can0 167#80800009FFE00000
(1494968352.961603) can0 083#0000000000017F01
(1494968352.961724) can0 3BC#0C00088901002700
(1494968352.963100) can0 42A#BA0000E000000000
(1494968352.963229) can0 42C#0551D4002D3E4E00
(1494968352.964849) can0 42E#170000E0000B9FB0
(1494968352.967477) can0 216#0000010082000931
(1494968352.968847) can0 167#80800009FFE00000
(1494968352.978977) can0 167#80800009FFE00000
(1494968352.987855) can0 216#0000010082000A34
(1494968352.988226) can0 167#80800009FFE00000
(1494968352.990978) can0 51E#3B02000000000000
(1494968352.997477) can0 3B6#0800010030734849
(1494968352.998856) can0 3B7#0000030060C8017C
(1494968352.998984) can0 167#80800009FFE00000
(1494968353.000355) can0 346#000000030300C000
(1494968353.001729) can0 33B#0000000000000000
(1494968353.001979) can0 348#0000000000000000
(1494968353.003355) can0 3A4#0000000000000000
(1494968353.004731) can0 3A5#0000000000000000
(1494968353.004859) can0 3A6#0E400A045F700000
(1494968353.006235) can0 3A7#0E400A045F700000
(1494968353.007603) can0 3AC#FFFFFFFFFFFFFFFF
(1494968353.007851) can0 216#0000010082000B43
(1494968353.009227) can0 3AD#FFFFFFFFFFFFFFFF
(1494968353.010602) can0 167#80800009FFE00000
(1494968353.010729) can0 083#0000000000017EFE
(1494968353.012102) can0 3BC#0C000C8901002700
(1494968353.013603) can0 3BE#0001E7CE7C008001
(1494968353.013731) can0 3EB#1F04140000200000
(1494968353.015102) can0 40A#C1014C5534485233
(1494968353.016482) can0 178#013D01F60E4FC64E
(1494968353.016607) can0 42A#BA0000E000000000
(1494968353.017982) can0 42C#0551F5002D074F40
(1494968353.019482) can0 42E#130000E000079F81
(1494968353.019499) can0 167#80800009FFE00000
(1494968353.020858) can0 326#81A02627F9D00164
(1494968353.025985) can0 333#0000000000000000
(1494968353.027359) can0 216#0000010082000C36
(1494968353.027607) can0 332#0000000000000000
(1494968353.029107) can0 167#80800009FFE00000
(1494968353.030484) can0 33A#0000000000000000
(1494968353.039361) can0 167#80800009FFE00000
(1494968353.045859) can0 3B4#401111FF23230000
(1494968353.047236) can0 216#0000010082000D30
(1494968353.049862) can0 167#80800009FFE00000
(1494968353.051359) can0 3A5#0000000000000000
(1494968353.052736) can0 3A4#0000000000000000
(1494968353.052864) can0 3AC#FFFFFFFFFFFFFFFF
(1494968353.054238) can0 3AD#FFFFFFFFFFFFFFFF
(1494968353.059364) can0 167#80800009FFE00000
(1494968353.060738) can0 33B#0000000000000000
(1494968353.060987) can0 083#0000000000017EFD
(1494968353.062363) can0 3BC#0C00088901002700
(1494968353.063738) can0 42A#BA0000E000000000
(1494968353.063867) can0 42C#0551D4002D3E4E00
(1494968353.065238) can0 42E#170000E0000B9FB0
(1494968353.067865) can0 216#0000010082000E32
(1494968353.069363) can0 167#80800009FFE00000
(1494968353.079491) can0 167#80800009FFE00000
(1494968353.087117) can0 216#0000010082000F2D
(1494968353.089745) can0 167#80800009FFE00000
(1494968353.091116) can0 53B#5D12000000000000
(1494968353.096244) can0 3B3#4148001210050222
(1494968353.097741) can0 3C3#4008000000004100
(1494968353.099119) can0 167#80800009FFE00000
(1494968353.101747) can0 3A4#0000000000000000
(1494968353.101871) can0 3A5#0000000000000000
(1494968353.103243) can0 3AC#FFFFFFFFFFFFFFFF
(1494968353.104619) can0 3AD#FFFFFFFFFFFFFFFF
(1494968353.105994) can0 346#000000030300C000
(1494968353.107368) can0 348#0000000000000000
(1494968353.108744) can0 216#0000010082001041
(1494968353.108873) can0 167#80800009FFE00000
(1494968353.110244) can0 3E0#0000000080000000
(1494968353.111867) can0 083#0000000000017EFE
(1494968353.111996) can0 3BC#0C000C8901002700
(1494968353.113369) can0 178#013D01F60E4FC64E
(1494968353.114745) can0 3BE#0001E7CE7C008000
(1494968353.114873) can0 3C4#5759F8400000939E
(1494968353.116246) can0 3D5#4121094000000000
(1494968353.117748) can0 3E2#0000000080000000
(1494968353.117908) can0 42A#BA0000E000000000
(1494968353.119247) can0 167#80800009FFE00000
(1494968353.120621) can0 326#81A02627F9D00164
(1494968353.120748) can0 33B#0000000000000000
(1494968353.122120) can0 42C#0551F5002D064E40
(1494968353.123619) can0 42E#130000E000079F81
(1494968353.124996) can0 1E6#800CE2CE00000000
(1494968353.126372) can0 333#0000000000000000
(1494968353.126620) can0 216#0000010082001146
(1494968353.127996) can0 332#0000000000000000
(1494968353.129371) can0 167#80800009FFE00000
(1494968353.129619) can0 33A#0000000000000000
(1494968353.130996) can0 33C#2400000000000000
(1494968353.132371) can0 3DE#0000000080000000
(1494968353.138750) can0 34E#0000000000000000
(1494968353.138870) can0 167#80800009FFE00000
(1494968353.140247) can0 358#0000000000000000
(1494968353.141749) can0 3E7#0000000000000000
(1494968353.146874) can0 216#0000010082001200
(1494968353.148373) can0 167#80800009FFE00000
(1494968353.150999) can0 3A5#0000000000000000
(1494968353.152374) can0 3A4#0000000000000000
(1494968353.153752) can0 3AC#FFFFFFFFFFFFFFFF
(1494968353.153999) can0 3AD#FFFFFFFFFFFFFFFF
(1494968353.159126) can0 167#80800009FFE00000
(1494968353.161751) can0 083#0000000000017EFE
(1494968353.161879) can0 3BC#0C00088901002700
(1494968353.162247) can0 42A#BA0000E000000000
(1494968353.163749) can0 42C#0551D4002D3E4E00
(1494968353.164123) can0 42E#170000E0000B9FB0
(1494968353.168002) can0 216#0000010082001300
(1494968353.169376) can0 167#80800009FFE00000
(1494968353.179504) can0 167#80800009FFE00000
(1494968353.179624) can0 33B#0000000000000000
(1494968353.181125) can0 55D#0402000000000000
(1494968353.187504) can0 216#0000010082001454
(1494968353.188879) can0 167#80800009FFE00000
(1494968353.197760) can0 40A#C1023130353736FF
(1494968353.199131) can0 167#80800009FFE00000
(1494968353.199378) can0 346#000000030300C000
(1494968353.202129) can0 348#0000000000000000
(1494968353.202146) can0 3A4#0000000000000000
(1494968353.202380) can0 3A5#0000000000000000
(1494968353.205005) can0 3A6#0E400A045F700000
(1494968353.205135) can0 3A7#0E400A045F700000
(1494968353.205379) can0 3AC#FFFFFFFFFFFFFFFF
(1494968353.208126) can0 3AD#FFFFFFFFFFFFFFFF
(1494968353.208143) can0 216#0000010082001551
(1494968353.208271) can0 167#80800009FFE00000
(1494968353.210877) can0 083#0000000000017EFE
(1494968353.212254) can0 2FD#D400E30000000000
(1494968353.212379) can0 178#013D01F60E4FC64E
(1494968353.215126) can0 3BC#0C000C8901002700
(1494968353.215143) can0 3BE#0001E7CE7C008000
(1494968353.215272) can0 42A#BA0000E000000000
(1494968353.217884) can0 42C#0551F5002D064E40
(1494968353.218005) can0 42E#130000E000079F81
(1494968353.219383) can0 167#80800009FFE00000
(1494968353.220881) can0 326#81A02627F9D00164
(1494968353.226009) can0 333#0000000000000000
(1494968353.227383) can0 216#0000010082001655
(1494968353.227631) can0 332#0000000000000000
(1494968353.229009) can0 167#80800009FFE00000
(1494968353.230384) can0 33A#0000000000000000
(1494968353.239384) can0 167#80800009FFE00000
(1494968353.239757) can0 33B#0000000000000000
(1494968353.244885) can0 331#C000509C044A1004
(1494968353.247512) can0 3B6#0800020000000000
(1494968353.247634) can0 216#0000010082001755
(1494968353.249135) can0 3B7#0000000060C801CE
(1494968353.249265) can0 167#80800009FFE00000
(1494968353.251887) can0 3A5#0000000000000000
(1494968353.252015) can0 3A4#0000000000000000
(1494968353.253387) can0 3AC#FFFFFFFFFFFFFFFF
(1494968353.254763) can0 3AD#FFFFFFFFFFFFFFFF
(1494968353.260010) can0 167#80800009FFE00000
(1494968353.260261) can0 083#0000000000017EFF
(1494968353.262888) can0 3BC#0C00088901002700
(1494968353.263018) can0 42A#BA0000E000000000
(1494968353.263142) can0 42C#0551D4002D3E4E00
(1494968353.264637) can0 42E#170000E0000B9FB0
(1494968353.267387) can0 216#0000010082001854
(1494968353.270014) can0 167#80800009FFE00000
(1494968353.277648) can0 504#0512000000000000
(1494968353.279015) can0 167#80800009FFE00000
(1494968353.287893) can0 216#0000010082001910
(1494968353.289266) can0 167#80800009FFE00000
(1494968353.299517) can0 167#80800009FFE00000
(1494968353.299534) can0 346#000000030300C000
(1494968353.300894) can0 33B#0000000000000000
(1494968353.302268) can0 348#0000000000000000
(1494968353.302516) can0 3A4#0000000000000000
(1494968353.303893) can0 3A5#0000000000000000
(1494968353.305392) can0 3AC#FFFFFFFFFFFFFFFF
(1494968353.305520) can0 3AD#FFFFFFFFFFFFFFFF
(1494968353.308145) can0 216#0000010082001A55
(1494968353.308275) can0 167#80800009FFE00000
(1494968353.310895) can0 083#0000000000017F01
(1494968353.312270) can0 358#0020000000000000
(1494968353.312518) can0 3BC#0C000C8901002700
(1494968353.313894) can0 178#013D01F60E4FC64E
(1494968353.315269) can0 3BE#0001E7CE7C008000
(1494968353.315397) can0 3C4#5759F8000000939E
(1494968353.318021) can0 42A#BA0000E000000000
(1494968353.318150) can0 42C#0551F5002D064E40
(1494968353.318274) can0 42E#130000E000079F81
(1494968353.319769) can0 167#80800009FFE00000
(1494968353.321145) can0 326#81A02627F9D00164
(1494968353.326272) can0 333#0000000000000000
(1494968353.327646) can0 216#0000010082001B55
(1494968353.327774) can0 332#0000000000000000
(1494968353.329270) can0 167#80800009FFE00000
(1494968353.329646) can0 33A#0000000000000000
(1494968353.331022) can0 33F#0200200000000000
(1494968353.339899) can0 167#80800009FFE00000
(1494968353.347525) can0 216#0000010082001C00
(1494968353.349023) can0 167#80800009FFE00000
(1494968353.351649) can0 356#12BC363936390000
(1494968353.351777) can0 358#0000000000000000
(1494968353.353149) can0 3A4#0000000000000000
(1494968353.354524) can0 3A5#0000000000000000
(1494968353.354654) can0 3AC#FFFFFFFFFFFFFFFF
(1494968353.356148) can0 3AD#FFFFFFFFFFFFFFFF
(1494968353.360025) can0 167#80800009FFE00000
(1494968353.360154) can0 33B#0000000000000000
(1494968353.361654) can0 083#0000000000017F01
(1494968353.363150) can0 3BC#0C00088901002700
(1494968353.363167) can0 42A#BA0000E000000000
(1494968353.364649) can0 42C#0551D4002D3E4E00
(1494968353.365023) can0 42E#170000E0000B9FB0
(1494968353.367652) can0 304#0800000000000000
(1494968353.367782) can0 216#0000010082001D15
(1494968353.369151) can0 167#80800009FFE00000
(1494968353.376778) can0 505#0B12000000000000
(1494968353.379526) can0 167#80800009FFE00000
(1494968353.387155) can0 216#0000010082001E55
(1494968353.389782) can0 167#80800009FFE00000
(1494968353.391154) can0 356#02BC363936390000
(1494968353.397531) can0 40A#C104010107CC70C1
(1494968353.398905) can0 167#80800009FFE00000
(1494968353.400405) can0 346#000000030300C000
(1494968353.400422) can0 348#0000000000000000
(1494968353.403030) can0 3A4#0000000000000000
(1494968353.403159) can0 3A5#0000000000000000
(1494968353.403404) can0 3A6#0E400A045F700000
(1494968353.406032) can0 3A7#0E400A045F700000
(1494968353.406275) can0 3AC#FFFFFFFFFFFFFFFF
(1494968353.406291) can0 3AD#FFFFFFFFFFFFFFFF
(1494968353.408902) can0 216#0000010082001F11
(1494968353.409029) can0 167#80800009FFE00000
(1494968353.411652) can0 083#0000000000017EFC
(1494968353.411780) can0 3BC#0C000C8901002700
(1494968353.413276) can0 178#013D01F60E4FC64E
(1494968353.413402) can0 3BE#0001E7CE7C008000
(1494968353.416033) can0 42A#BA0000E000000000
(1494968353.416161) can0 42C#0551F5002D064E40
(1494968353.416285) can0 42E#130000E000079F81
(1494968353.418907) can0 167#80800009FFE00000
(1494968353.420406) can0 33B#0000000000000000
(1494968353.421786) can0 326#81A02627F9D00164
(1494968353.426908) can0 333#0000000000000000
(1494968353.427035) can0 216#0000010082002051
(1494968353.428407) can0 332#0000000000000000
(1494968353.428655) can0 167#80800009FFE00000
(1494968353.430032) can0 33A#0000000000000000
(1494968353.438912) can0 167#80800009FFE00000
(1494968353.447788) can0 216#0000010082002115
(1494968353.449162) can0 167#80800009FFE00000
(1494968353.451787) can0 3A5#0000000000000000
(1494968353.452034) can0 3A4#0000000000000000
(1494968353.453413) can0 3AC#FFFFFFFFFFFFFFFF
(1494968353.454788) can0 3AD#FFFFFFFFFFFFFFFF
(1494968353.459914) can0 167#80800009FFE00000
(1494968353.461288) can0 083#0000000000017F01
(1494968353.461417) can0 3BC#0C00088901002700
(1494968353.463037) can0 42A#BA0000E000000000
(1494968353.463166) can0 42C#0551D4002D3E4E00
(1494968353.464663) can0 42E#170000E0000B9FB0
(1494968353.467291) can0 216#0000010082002215
(1494968353.467412) can0 3E1#8000010701800000
(1494968353.470039) can0 167#80800009FFE00000
(1494968353.477791) can0 50B#1E12000000000000
(1494968353.479165) can0 167#80800009FFE00000
(1494968353.480540) can0 33B#0000000000000000
(1494968353.486917) can0 216#0000010082002340
(1494968353.489541) can0 167#80800009FFE00000
(1494968353.496040) can0 3B6#0800030000000000
(1494968353.497540) can0 3B7#0000010060C80084
(1494968353.498917) can0 167#80800009FFE00000
(1494968353.500292) can0 346#000000030300C000
(1494968353.500540) can0 348#0000000000000000
(1494968353.501921) can0 3A4#0000000000000000
(1494968353.503292) can0 3A5#0000000000000000
(1494968353.503542) can0 3AC#FFFFFFFFFFFFFFFF
(1494968353.504918) can0 3AD#FFFFFFFFFFFFFFFF
(1494968353.508795) can0 216#0000010082000000
(1494968353.508924) can0 167#80800009FFE00000
(1494968353.511544) can0 083#0000000000017F01
(1494968353.511673) can0 3BC#0C000C8901002700
(1494968353.513168) can0 178#013D01F60E4FC64E
(1494968353.513297) can0 3BE#0001E7CE7C008000
(1494968353.515921) can0 3C4#5759F8000000939E
(1494968353.516053) can0 42A#BA0000E000000000
(1494968353.516165) can0 42C#0551F5002D064E40
(1494968353.517796) can0 42E#130000E000079F81
(1494968353.519171) can0 167#80800009FFE00000
(1494968353.523045) can0 326#81A02627F9D00164
(1494968353.523175) can0 35E#00C0004096583000
(1494968353.527047) can0 333#0000000000000000
(1494968353.527177) can0 216#0000010082000100
(1494968353.528672) can0 332#0000000000000000
(1494968353.528690) can0 167#80800009FFE00000
(1494968353.530047) can0 33A#0000000000000000
(1494968353.538924) can0 167#80800009FFE00000
(1494968353.540297) can0 33B#0000000000000000
(1494968353.547925) can0 216#00000100820002FA
(1494968353.548297) can0 167#80800009FFE00000
(1494968353.550924) can0 3A5#0000000000000000
(1494968353.552300) can0 3A4#0000000000000000
(1494968353.553677) can0 3AC#FFFFFFFFFFFFFFFF
(1494968353.553921) can0 3AD#FFFFFFFFFFFFFFFF
(1494968353.559051) can0 167#80800009FFE00000
(1494968353.561800) can0 083#0000000000017EFF
(1494968353.561817) can0 3BC#0C00088901002700
(1494968353.562174) can0 42A#BA0000E000000000
(1494968353.563673) can0 42C#0551D4002D3E4E00
(1494968353.565173) can0 42E#170000E0000B9FB0
(1494968353.567802) can0 216#00000100820003B3
(1494968353.569300) can0 167#80800009FFE00000
(1494968353.571926) can0 51E#3B02000000000000
(1494968353.579554) can0 167#80800009FFE00000
(1494968353.587180) can0 216#0000010082000448
(1494968353.589807) can0 167#80800009FFE00000
(1494968353.597430) can0 3B3#4148001210050222
(1494968353.597686) can0 40A#C110418820250000
(1494968353.599055) can0 167#80800009FFE00000
(1494968353.600430) can0 346#000000030300C000
(1494968353.600559) can0 33B#0000000000000000
(1494968353.601930) can0 348#0000000000000000
(1494968353.603305) can0 3A4#0000000000000000
(1494968353.603554) can0 3A5#0000000000000000
(1494968353.604931) can0 3A6#0E400A045F700000
(1494968353.606306) can0 3A7#0E400A045F700000
(1494968353.606428) can0 3AC#FFFFFFFFFFFFFFFF
(1494968353.609051) can0 216#0000010082000547
(1494968353.609179) can0 167#80800009FFE00000
(1494968353.609304) can0 3AD#FFFFFFFFFFFFFFFF
(1494968353.611927) can0 083#0000000000017F01
(1494968353.612054) can0 3BC#0C000C8901002700
(1494968353.612424) can0 3BE#0001E7CE7C008000
(1494968353.615052) can0 178#013D01F60E4FC64E
(1494968353.615302) can0 42A#BA0000E000000000
(1494968353.615318) can0 42C#0551F5002D064E40
(1494968353.616806) can0 42E#130000E000079F81
(1494968353.617179) can0 084#110000883B0C0C00
(1494968353.619807) can0 167#80800009FFE00000
(1494968353.622432) can0 124#0202000000000000
(1494968353.623933) can0 22C#000A000000000000
(1494968353.623950) can0 326#81A02627F9D00164
(1494968353.625308) can0 355#60071DA0008800E0
(1494968353.626685) can0 333#0000000000000000
(1494968353.626814) can0 216#0000010082000639
(1494968353.628183) can0 332#0000000000000000
(1494968353.629692) can0 167#80800009FFE00000
(1494968353.629813) can0 33A#0000000000000000
(1494968353.631184) can0 356#02BC363936390000
(1494968353.632559) can0 35E#00C0004096583000
(1494968353.632713) can0 3E7#0000000000000000
(1494968353.634060) can0 41A#7700000000000000
(1494968353.639308) can0 167#80800009FFE00000
(1494968353.646938) can0 216#0000010082000743
(1494968353.649561) can0 167#80800009FFE00000
(1494968353.650936) can0 3A5#0000000000000000
(1494968353.652311) can0 3A4#0000000000000000
(1494968353.653689) can0 3AC#FFFFFFFFFFFFFFFF
(1494968353.653936) can0 3AD#FFFFFFFFFFFFFFFF
(1494968353.659064) can0 167#80800009FFE00000
(1494968353.660561) can0 083#0000000000017F00
(1494968353.662063) can0 33B#0000000000000000
(1494968353.662192) can0 3BC#0C00088901002700
(1494968353.663686) can0 42A#BA0000E000000000
(1494968353.665187) can0 42C#0551D4002D3E4E00
(1494968353.665204) can0 42E#170000E0000B9FB0
(1494968353.666565) can0 331#C000509D044A1004
(1494968353.667941) can0 216#000001008200082D
(1494968353.669313) can0 167#80800009FFE00000
(1494968353.671940) can0 53B#5D12000000000000
(1494968353.679690) can0 167#80800009FFE00000
(1494968353.687318) can0 216#0000010082000931
(1494968353.689941) can0 167#80800009FFE00000
(1494968353.700071) can0 167#80800009FFE00000
(1494968353.700190) can0 346#000000030300C000
(1494968353.700565) can0 348#0000000000000000
(1494968353.701942) can0 3A4#0000000000000000
(1494968353.703318) can0 3A5#0000000000000000
(1494968353.703445) can0 3AC#FFFFFFFFFFFFFFFF
(1494968353.706070) can0 3AD#FFFFFFFFFFFFFFFF
(1494968353.707563) can0 216#0000010082000A34
(1494968353.709186) can0 167#80800009FFE00000
(1494968353.711815) can0 083#0000000000017EFD
(1494968353.711942) can0 3BC#0C000C8901002700
(1494968353.713315) can0 178#013D01F60E4FC64E
(1494968353.713442) can0 3BE#0001E7CE7C008000
(1494968353.714938) can0 3C4#5759F8000000939E
(1494968353.715313) can0 42A#BA0000E000000000
(1494968353.716813) can0 42C#0551F5002D064E40
(1494968353.717187) can0 42E#130000E000079F81
(1494968353.719815) can0 167#80800009FFE00000
(1494968353.719943) can0 33B#0000000000000000
(1494968353.723816) can0 326#81A02627F9D00164
(1494968353.726572) can0 333#0000000000000000
(1494968353.726694) can0 216#0000010082000B43
(1494968353.728070) can0 332#0000000000000000
(1494968353.729446) can0 167#80800009FFE00000
(1494968353.729575) can0 33A#0000000000000000
(1494968353.730946) can0 35D#0000000000000000
(1494968353.739946) can0 167#80800009FFE00000
(1494968353.745196) can0 3B6#0800040000000000
(1494968353.747825) can0 3B7#0000020060C8022D
(1494968353.747944) can0 216#0000010082000C36
(1494968353.748197) can0 167#80800009FFE00000
(1494968353.752074) can0 3A5#0000000000000000
(1494968353.752323) can0 3A4#0000000000000000
(1494968353.753699) can0 3AC#FFFFFFFFFFFFFFFF
(1494968353.753947) can0 3AD#FFFFFFFFFFFFFFFF
(1494968353.759076) can0 167#80800009FFE00000
(1494968353.761703) can0 083#0000000000017F02
(1494968353.761824) can0 3BC#0C00088901002700
(1494968353.762198) can0 42A#BA0000E000000000
(1494968353.763698) can0 42C#0551D4002D3E4E00
(1494968353.765200) can0 42E#170000E0000B9FB0
(1494968353.765217) can0 55D#0402000000000000
(1494968353.767829) can0 216#0000010082000D30
(1494968353.769323) can0 167#80800009FFE00000
(1494968353.779455) can0 167#80800009FFE00000
(1494968353.780828) can0 33B#0000000000000000
(1494968353.787205) can0 216#0000010082000E32
(1494968353.788702) can0 167#80800009FFE00000
(1494968353.797582) can0 40A#C000000337229A00
(1494968353.799080) can0 167#80800009FFE00000
(1494968353.799452) can0 346#000000030300C000
(1494968353.802080) can0 348#0000000000000000
(1494968353.802209) can0 3A4#0000000000000000
(1494968353.802453) can0 3A5#0000000000000000
(1494968353.805082) can0 3A6#0E400A045F700000
(1494968353.805330) can0 3A7#0E400A045F700000
(1494968353.805346) can0 3AC#FFFFFFFFFFFFFFFF
(1494968353.807958) can0 3AD#FFFFFFFFFFFFFFFF
(1494968353.808078) can0 216#0000010082000F2D
(1494968353.808324) can0 167#80800009FFE00000
(1494968353.810953) can0 083#0000000000017EFC
(1494968353.812452) can0 3BC#0C000C8901002700
(1494968353.812469) can0 178#013D01F60E4FC64E
(1494968353.815079) can0 3BE#0001E7CE7C008000
(1494968353.815205) can0 42A#BA0000E000000000
(1494968353.815221) can0 42C#0551F5002D064E40
(1494968353.816709) can0 42E#130000E000079F81
(1494968353.819456) can0 167#80800009FFE00000
(1494968353.823333) can0 2A0#FFFFFFFF00001E00
(1494968353.824709) can0 326#81A02627F9D00164
(1494968353.826084) can0 333#0000000000000000
(1494968353.827459) can0 216#0000010082001041
(1494968353.827588) can0 332#0000000000000000
(1494968353.829083) can0 167#80800009FFE00000
(1494968353.830459) can0 33A#0000000000000000
(1494968353.839337) can0 167#80800009FFE00000
(1494968353.840711) can0 33B#0000000000000000
(1494968353.847087) can0 216#0000010082001146
(1494968353.849712) can0 167#80800009FFE00000
(1494968353.851211) can0 3A4#0000000000000000
(1494968353.852586) can0 3A5#0000000000000000
(1494968353.853966) can0 3AC#FFFFFFFFFFFFFFFF
(1494968353.854083) can0 3AD#FFFFFFFFFFFFFFFF
(1494968353.857964) can0 504#0512000000000000
(1494968353.859338) can0 167#80800009FFE00000
(1494968353.860836) can0 083#0000000000017F01
(1494968353.861086) can0 3BC#0C00088901002700
(1494968353.862463) can0 42A#BA0000E000000000
(1494968353.863838) can0 42C#0551D4002D3E4E00
(1494968353.863966) can0 42E#170000E0000B9FB0
(1494968353.867961) can0 216#0000010082001200
(1494968353.868335) can0 167#80800009FFE00000
(1494968353.879717) can0 167#80800009FFE00000
(1494968353.887342) can0 216#0000010082001300
(1494968353.889966) can0 167#80800009FFE00000
(1494968353.900094) can0 167#80800009FFE00000
(1494968353.900342) can0 346#000000030300C000
(1494968353.900467) can0 33B#0000000000000000
(1494968353.903093) can0 348#0000000000000000
(1494968353.903223) can0 3A4#0000000000000000
(1494968353.903465) can0 3A5#0000000000000000
(1494968353.906094) can0 3AC#FFFFFFFFFFFFFFFF
(1494968353.906342) can0 3AD#FFFFFFFFFFFFFFFF
(1494968353.907842) can0 216#0000010082001454
(1494968353.908216) can0 167#80800009FFE00000
(1494968353.912093) can0 083#0000000000017EFF
(1494968353.912222) can0 3BC#0C000C8901002700
(1494968353.912346) can0 3BE#0001E7CE7C008000
(1494968353.913967) can0 178#013D01F60E4FC64E
(1494968353.914217) can0 3C4#5759F8300000939E
(1494968353.915725) can0 42A#BA0000E000000000
(1494968353.917219) can0 42C#0551F5002D064E40
(1494968353.917236) can0 42E#130000E000079F81
(1494968353.919845) can0 167#80800009FFE00000
(1494968353.925095) can0 326#81A02627F9D00164
(1494968353.926472) can0 333#0000000000000000
(1494968353.926602) can0 216#0000010082001551
(1494968353.927971) can0 332#0000000000000000
(1494968353.929346) can0 167#80800009FFE00000
(1494968353.929593) can0 33A#0000000000000000
(1494968353.939847) can0 167#80800009FFE00000
(1494968353.947475) can0 216#0000010082001655
(1494968353.948972) can0 167#80800009FFE00000
(1494968353.951599) can0 3A5#0000000000000000
(1494968353.952974) can0 3A4#0000000000000000
(1494968353.953102) can0 3AC#FFFFFFFFFFFFFFFF
(1494968353.954600) can0 3AD#FFFFFFFFFFFFFFFF
(1494968353.955975) can0 505#0B12000000000000
(1494968353.959850) can0 167#80800009FFE00000
(1494968353.960222) can0 083#0000000000017EFA
(1494968353.961723) can0 33B#0000000000000000
(1494968353.963224) can0 3BC#0C00088901002700
(1494968353.963242) can0 42A#BA0000E000000000
(1494968353.964601) can0 42C#0551D4002D3E4E00
(1494968353.965980) can0 42E#170000E0000B9FB0
(1494968353.967351) can0 216#0000010082001755
(1494968353.969977) can0 167#80800009FFE00000
(1494968353.980226) can0 167#80800009FFE00000
(1494968353.987854) can0 216#0000010082001854
(1494968353.988350) can0 167#80800009FFE00000
(1494968353.997231) can0 3B6#0800050000000000
(1494968353.998605) can0 3B7#0000030060C8017C
(1494968353.998855) can0 346#000000030300C000
(1494968354.000353) can0 167#80800009FFE00000
(1494968354.001732) can0 348#0000000000000000
(1494968354.001865) can0 3A4#0000000000000000
(1494968354.003230) can0 3A5#0000000000000000
(1494968354.004605) can0 3A6#0E400A045F700000
(1494968354.004734) can0 3A7#0E400A045F700000
(1494968354.006226) can0 3AC#FFFFFFFFFFFFFFFF
(1494968354.007604) can0 3AD#FFFFFFFFFFFFFFFF
(1494968354.007728) can0 216#0000010082001910
(1494968354.009102) can0 3EB#1F04140000200000
(1494968354.010477) can0 167#80800009FFE00000
(1494968354.010604) can0 083#0000000000017F01
(1494968354.012101) can0 3BC#0C000C8901002700
(1494968354.013477) can0 178#013D01F60E4FC64E
(1494968354.013605) can0 3BE#0001E7CE7C008001
(1494968354.014978) can0 40A#C100334641365030
(1494968354.016357) can0 42A#BA0000E000000000
(1494968354.016489) can0 42C#0551F5002D074F40
(1494968354.019232) can0 42E#130000E000079F81
(1494968354.019249) can0 167#80800009FFE00000
(1494968354.020608) can0 33B#0000000000000000
(1494968354.024483) can0 326#81A02627F9D00164
(1494968354.027110) can0 333#0000000000000000
(1494968354.027239) can0 216#0000010082001A55
(1494968354.027605) can0 332#0000000000000000
(1494968354.028984) can0 167#80800009FFE00000
(1494968354.030359) can0 33A#0000000000000000
(1494968354.039236) can0 167#80800009FFE00000
(1494968354.046864) can0 3B4#401111FF23230000
(1494968354.047108) can0 216#0000010082001B55
(1494968354.049739) can0 167#80800009FFE00000
(1494968354.051110) can0 3A4#0000000000000000
(1494968354.052487) can0 3A5#0000000000000000
(1494968354.053865) can0 3AC#FFFFFFFFFFFFFFFF
(1494968354.053993) can0 3AD#FFFFFFFFFFFFFFFF
(1494968354.059236) can0 50B#1E12000000000000
(1494968354.059254) can0 167#80800009FFE00000
(1494968354.060736) can0 083#0000000000017EFD
(1494968354.062236) can0 3BC#0C00088901002700
(1494968354.062253) can0 42A#BA0000E000000000
(1494968354.063613) can0 42C#0551D4002D3E4E00
(1494968354.065112) can0 42E#170000E0000B9FB0
(1494968354.067739) can0 216#0000010082001C00
(1494968354.069237) can0 167#80800009FFE00000
(1494968354.079367) can0 167#80800009FFE00000
(1494968354.080741) can0 33B#0000000000000000
(1494968354.087117) can0 216#0000010082001D15
(1494968354.088741) can0 167#80800009FFE00000
(1494968354.097618) can0 3B3#4148001210050222
(1494968354.097743) can0 3C3#4008000000004100
(1494968354.099118) can0 167#80800009FFE00000
(1494968354.101744) can0 3A5#0000000000000000
(1494968354.102114) can0 3A4#0000000000000000
(1494968354.103616) can0 3AC#FFFFFFFFFFFFFFFF
(1494968354.104993) can0 3AD#FFFFFFFFFFFFFFFF
(1494968354.105124) can0 346#000000030300C000
(1494968354.106494) can0 348#0000000000000000
(1494968354.107869) can0 3E0#0000000080000000
(1494968354.108116) can0 216#0000010082001E55
(1494968354.109618) can0 167#80800009FFE00000
(1494968354.110995) can0 3E2#0000000080000000
(1494968354.112369) can0 083#0000000000017F01
(1494968354.113746) can0 178#013D01F60E4FC64E
(1494968354.113879) can0 3BC#0C000C8901002700
(1494968354.115244) can0 3BE#0001E7CE7C008000
(1494968354.116747) can0 3C4#5759F8400000939E
(1494968354.116764) can0 3D5#4121094000000000
(1494968354.118120) can0 42A#BA0000E000000000
(1494968354.118492) can0 42C#0551F5002D064E40
(1494968354.121121) can0 167#80800009FFE00000
(1494968354.121250) can0 42E#130000E000079F81
(1494968354.125122) can0 1E6#800CE2CE00000000
(1494968354.125368) can0 326#81A02627F9D00164
(1494968354.126873) can0 333#0000000000000000
(1494968354.127244) can0 216#0000010082001F11
(1494968354.128745) can0 332#0000000000000000
(1494968354.130370) can0 167#80800009FFE00000
(1494968354.130387) can0 33A#0000000000000000
(1494968354.131871) can0 33C#2400000000000000
(1494968354.132243) can0 3DE#0000000080000000
(1494968354.136123) can0 3E7#0000000000000000
(1494968354.137497) can0 34E#0000000000000000
(1494968354.138996) can0 358#0000000000000000
(1494968354.139013) can0 167#80800009FFE00000
(1494968354.140375) can0 33B#0000000000000000
(1494968354.148000) can0 216#0000010082002051
(1494968354.148247) can0 167#80800009FFE00000
(1494968354.150876) can0 51E#3B02000000000000
(1494968354.151122) can0 3A4#0000000000000000
(1494968354.152499) can0 3A5#0000000000000000
(1494968354.153874) can0 3AC#FFFFFFFFFFFFFFFF
(1494968354.154122) can0 3AD#FFFFFFFFFFFFFFFF
(1494968354.159251) can0 167#80800009FFE00000
(1494968354.160748) can0 083#0000000000017F02
(1494968354.162249) can0 3BC#0C00088901002700
(1494968354.162266) can0 42A#BA0000E000000000
(1494968354.163626) can0 42C#0551D4002D3E4E00
(1494968354.165001) can0 42E#170000E0000B9FB0
(1494968354.167627) can0 216#0000010082002115
(1494968354.169002) can0 167#80800009FFE00000
(1494968354.179251) can0 167#80800009FFE00000
(1494968354.188131) can0 216#0000010082002215
(1494968354.188252) can0 167#80800009FFE00000
(1494968354.197131) can0 40A#C1014C5534485233
(1494968354.199756) can0 346#000000030300C000
(1494968354.199885) can0 167#80800009FFE00000
(1494968354.201381) can0 33B#0000000000000000
(1494968354.201398) can0 348#0000000000000000
(1494968354.204006) can0 3A4#0000000000000000
(1494968354.204135) can0 3A5#0000000000000000
(1494968354.204379) can0 3A6#0E400A045F700000
(1494968354.205880) can0 3A7#0E400A045F700000
(1494968354.206249) can0 3AC#FFFFFFFFFFFFFFFF
(1494968354.207750) can0 216#0000010082002340
(1494968354.209251) can0 3AD#FFFFFFFFFFFFFFFF
(1494968354.209268) can0 167#80800009FFE00000
(1494968354.211878) can0 083#0000000000017EFF
(1494968354.212125) can0 2FD#D400E30000000000
(1494968354.212253) can0 3BC#0C000C8901002700
(1494968354.213753) can0 178#013D01F60E4FC64E
(1494968354.215252) can0 3BE#0001E7CE7C008000
(1494968354.215269) can0 42A#BA0000E000000000
(1494968354.216633) can0 42C#0551F5002D064E40
(1494968354.218130) can0 42E#130000E000079F81
(1494968354.218505) can0 167#80800009FFE00000
(1494968354.226135) can0 326#81A02627F9D00164
(1494968354.226265) can0 333#0000000000000000
(1494968354.227633) can0 216#0000010082000000
(1494968354.227881) can0 332#0000000000000000
(1494968354.229381) can0 167#80800009FFE00000
(1494968354.230759) can0 33A#0000000000000000
(1494968354.232257) can0 53B#5D12000000000000
(1494968354.239886) can0 167#80800009FFE00000
(1494968354.245012) can0 331#C000509D044A1004
(1494968354.246510) can0 3B6#0800060000000000
(1494968354.248135) can0 216#0000010082000100
(1494968354.248263) can0 3B7#0000000060C801CE
(1494968354.249760) can0 167#80800009FFE00000
(1494968354.251136) can0 3A5#0000000000000000
(1494968354.252512) can0 3A4#0000000000000000
(1494968354.253891) can0 3AC#FFFFFFFFFFFFFFFF
(1494968354.254136) can0 3AD#FFFFFFFFFFFFFFFF
(1494968354.259264) can0 167#80800009FFE00000
(1494968354.260638) can0 083#0000000000017EFF
(1494968354.262013) can0 33B#0000000000000000
(1494968354.262141) can0 3BC#0C00088901002700
(1494968354.263513) can0 42A#BA0000E000000000
(1494968354.265013) can0 42C#0551D4002D3E4E00
(1494968354.265036) can0 42E#170000E0000B9FB0
(1494968354.267640) can0 216#00000100820002FA
(1494968354.269138) can0 167#80800009FFE00000
(1494968354.279266) can0 167#80800009FFE00000
(1494968354.288143) can0 216#00000100820003B3
(1494968354.288391) can0 167#80800009FFE00000
(1494968354.299769) can0 167#80800009FFE00000
(1494968354.299899) can0 346#000000030300C000
(1494968354.301268) can0 348#0000000000000000
(1494968354.301515) can0 3A4#0000000000000000
(1494968354.304268) can0 3A5#0000000000000000
(1494968354.304286) can0 3AC#FFFFFFFFFFFFFFFF
(1494968354.304414) can0 3AD#FFFFFFFFFFFFFFFF
(1494968354.307266) can0 216#0000010082000448
(1494968354.308767) can0 167#80800009FFE00000
(1494968354.311395) can0 083#0000000000017F01
(1494968354.311641) can0 3BC#0C000C8901002700
(1494968354.313144) can0 178#013D01F60E4FC64E
(1494968354.313273) can0 3BE#0001E7CE7C008000
(1494968354.314768) can0 3C4#5759F8000000939E
(1494968354.316146) can0 42A#BA0000E000000000
(1494968354.316276) can0 42C#0551F5002D064E40
(1494968354.317776) can0 42E#130000E000079F81
(1494968354.319145) can0 167#80800009FFE00000
(1494968354.320520) can0 33B#0000000000000000
(1494968354.326899) can0 326#81A02627F9D00164
(1494968354.327017) can0 332#0000000000000000
(1494968354.327393) can0 216#0000010082000547
(1494968354.330145) can0 333#0000000000000000
(1494968354.330162) can0 167#80800009FFE00000
(1494968354.330291) can0 33A#0000000000000000
(1494968354.331770) can0 55D#0402000000000000
(1494968354.333270) can0 33F#0200200000000000
(1494968354.339650) can0 167#80800009FFE00000
(1494968354.347398) can0 216#0000010082000639
(1494968354.348896) can0 167#80800009FFE00000
(1494968354.351524) can0 3A5#0000000000000000
(1494968354.352899) can0 3A4#0000000000000000
(1494968354.353148) can0 3AC#FFFFFFFFFFFFFFFF
(1494968354.354524) can0 3AD#FFFFFFFFFFFFFFFF
(1494968354.359774) can0 167#80800009FFE00000
(1494968354.361274) can0 083#0000000000017F01
(1494968354.361291) can0 3BC#0C00088901002700
(1494968354.362652) can0 42A#BA0000E000000000
(1494968354.364026) can0 42C#0551D4002D3E4E00
(1494968354.364156) can0 42E#170000E0000B9FB0
(1494968354.368151) can0 216#0000010082000743
(1494968354.368168) can0 304#0800000000000000
(1494968354.369527) can0 167#80800009FFE00000
(1494968354.379653) can0 167#80800009FFE00000
(1494968354.381028) can0 33B#0000000000000000
(1494968354.387404) can0 216#000001008200082D
(1494968354.388901) can0 167#80800009FFE00000
(1494968354.397788) can0 40A#C1023130353736FF
(1494968354.399280) can0 346#000000030300C000
(1494968354.399297) can0 167#80800009FFE00000
(1494968354.400779) can0 348#0000000000000000
(1494968354.402403) can0 3A4#0000000000000000
(1494968354.402421) can0 3A5#0000000000000000
(1494968354.403907) can0 3A6#0E400A045F700000
(1494968354.404277) can0 3A7#0E400A045F700000
(1494968354.405780) can0 3AC#FFFFFFFFFFFFFFFF
(1494968354.407275) can0 3AD#FFFFFFFFFFFFFFFF
(1494968354.407401) can0 216#0000010082000931
(1494968354.408904) can0 167#80800009FFE00000
(1494968354.411527) can0 083#0000000000017EFD
(1494968354.411654) can0 3BC#0C000C8901002700
(1494968354.413152) can0 3BE#0001E7CE7C008000
(1494968354.413278) can0 178#013D01F60E4FC64E
(1494968354.414777) can0 42A#BA0000E000000000
(1494968354.416157) can0 42C#0551F5002D064E40
(1494968354.416286) can0 42E#130000E000079F81
(1494968354.420157) can0 167#80800009FFE00000
(1494968354.426534) can0 333#0000000000000000
(1494968354.426662) can0 216#0000010082000A34
(1494968354.428157) can0 326#81A02627F9D00164
(1494968354.428529) can0 167#80800009FFE00000
(1494968354.431161) can0 332#0000000000000000
(1494968354.431285) can0 33A#0000000000000000
(1494968354.431532) can0 504#0512000000000000
(1494968354.439162) can0 167#80800009FFE00000
(1494968354.440658) can0 33B#0000000000000000
(1494968354.447038) can0 216#0000010082000B43
(1494968354.449661) can0 167#80800009FFE00000
(1494968354.451036) can0 3A5#0000000000000000
(1494968354.452412) can0 3A4#0000000000000000
(1494968354.453789) can0 3AC#FFFFFFFFFFFFFFFF
(1494968354.454161) can0 3AD#FFFFFFFFFFFFFFFF
(1494968354.459289) can0 167#80800009FFE00000
(1494968354.460664) can0 083#0000000000017EFD
(1494968354.461036) can0 3BC#0C00088901002700
(1494968354.462414) can0 42A#BA0000E000000000
(1494968354.463788) can0 42C#0551D4002D3E4E00
(1494968354.464037) can0 42E#170000E0000B9FB0
(1494968354.467915) can0 216#0000010082000C36
(1494968354.468161) can0 3E1#8000010701800000
(1494968354.469539) can0 167#80800009FFE00000
(1494968354.479666) can0 167#80800009FFE00000
(1494968354.487413) can0 216#0000010082000D30
(1494968354.488918) can0 167#80800009FFE00000
(1494968354.496666) can0 3B6#0800070000000000
(1494968354.498166) can0 3B7#0000010060C80084
(1494968354.498541) can0 167#80800009FFE00000
(1494968354.501168) can0 346#000000030300C000
(1494968354.501417) can0 33B#0000000000000000
(1494968354.501543) can0 348#0000000000000000
(1494968354.504168) can0 3A4#0000000000000000
(1494968354.504297) can0 3A5#0000000000000000
(1494968354.504422) can0 3AC#FFFFFFFFFFFFFFFF
(1494968354.507045) can0 3AD#FFFFFFFFFFFFFFFF
(1494968354.507292) can0 216#0000010082000E32
(1494968354.508792) can0 167#80800009FFE00000
(1494968354.511419) can0 083#0000000000017F01
(1494968354.511550) can0 3BC#0C000C8901002700
(1494968354.513043) can0 3BE#0001E7CE7C008000
(1494968354.513292) can0 178#013D01F60E4FC64E
(1494968354.514792) can0 3C4#5759F8000000939E
(1494968354.516171) can0 42A#BA0000E000000000
(1494968354.516301) can0 42C#0551F5002D064E40
(1494968354.517670) can0 42E#130000E000079F81
(1494968354.519046) can0 167#80800009FFE00000
(1494968354.526672) can0 333#0000000000000000
(1494968354.526922) can0 216#0000010082000F2D
(1494968354.528297) can0 326#81A02627F9D00164
(1494968354.528424) can0 167#80800009FFE00000
(1494968354.531047) can0 332#0000000000000000
(1494968354.531176) can0 505#0B12000000000000
(1494968354.531419) can0 33A#0000000000000000
(1494968354.539170) can0 167#80800009FFE00000
(1494968354.548050) can0 216#0000010082001041
(1494968354.549424) can0 167#80800009FFE00000
(1494968354.552173) can0 3A4#0000000000000000
(1494968354.552190) can0 3A5#0000000000000000
(1494968354.553551) can0 3AC#FFFFFFFFFFFFFFFF
(1494968354.555049) can0 3AD#FFFFFFFFFFFFFFFF
(1494968354.560177) can0 167#80800009FFE00000
(1494968354.560297) can0 083#0000000000017EFB
(1494968354.561675) can0 33B#0000000000000000
(1494968354.563051) can0 3BC#0C00088901002700
(1494968354.563297) can0 42A#BA0000E000000000
(1494968354.564676) can0 42C#0551D4002D3E4E00
(1494968354.564924) can0 42E#170000E0000B9FB0
(1494968354.567552) can0 216#0000010082001146
(1494968354.570176) can0 167#80800009FFE00000
(1494968354.579054) can0 167#80800009FFE00000
(1494968354.588051) can0 216#0000010082001200
(1494968354.588302) can0 167#80800009FFE00000
(1494968354.597181) can0 3B3#4148001210050222
(1494968354.597429) can0 40A#C104010107CC70C1
(1494968354.600055) can0 346#000000030300C000
(1494968354.600184) can0 167#80800009FFE00000
(1494968354.600552) can0 348#0000000000000000
(1494968354.603181) can0 3A4#0000000000000000
(1494968354.603310) can0 3A5#0000000000000000
(1494968354.603433) can0 3A6#0E400A045F700000
(1494968354.604930) can0 3A7#0E400A045F700000
(1494968354.605303) can0 3AC#FFFFFFFFFFFFFFFF
(1494968354.606926) can0 3AD#FFFFFFFFFFFFFFFF
(1494968354.607299) can0 216#0000010082001300
(1494968354.608801) can0 167#80800009FFE00000
(1494968354.610425) can0 083#0000000000017F01
(1494968354.611926) can0 3BC#0C000C8901002700
(1494968354.612299) can0 178#013D01F60E4FC64E
(1494968354.613803) can0 3BE#0001E7CE7C008000
(1494968354.615302) can0 42A#BA0000E000000000
(1494968354.615318) can0 42C#0551F5002D064E40
(1494968354.616684) can0 084#110000883B0D0C00
(1494968354.618058) can0 42E#130000E000079F81
(1494968354.619433) can0 167#80800009FFE00000
(1494968354.620931) can0 33B#0000000000000000
(1494968354.626061) can0 333#0000000000000000
(1494968354.627435) can0 216#0000010082001454
(1494968354.627563) can0 124#0202000000000000
(1494968354.630184) can0 167#80800009FFE00000
(1494968354.630313) can0 22C#000A000000000000
(1494968354.630437) can0 326#81A02627F9D00164
(1494968354.633060) can0 332#0000000000000000
(1494968354.633188) can0 355#60071DA0008800E0
(1494968354.633311) can0 33A#0000000000000000
(1494968354.634807) can0 356#02BC363936390000
(1494968354.636185) can0 35E#00C0004096583000
(1494968354.636314) can0 3E7#0000000000000000
(1494968354.637685) can0 41A#7700000000000000
(1494968354.639060) can0 50B#1E12000000000000
(1494968354.639189) can0 167#80800009FFE00000
(1494968354.648064) can0 216#0000010082001551
(1494968354.649558) can0 167#80800009FFE00000
(1494968354.652311) can0 3A5#0000000000000000
(1494968354.652329) can0 3A4#0000000000000000
(1494968354.653818) can0 3AC#FFFFFFFFFFFFFFFF
(1494968354.655187) can0 3AD#FFFFFFFFFFFFFFFF
(1494968354.659064) can0 167#80800009FFE00000
(1494968354.660560) can0 083#0000000000017F01
(1494968354.661942) can0 3BC#0C00088901002700
(1494968354.662060) can0 42A#BA0000E000000000
(1494968354.663438) can0 42C#0551D4002D3E4E00
(1494968354.664815) can0 42E#170000E0000B9FB0
(1494968354.666308) can0 331#C000509E044A1004
(1494968354.666559) can0 216#0000010082001655
(1494968354.669306) can0 167#80800009FFE00000
(1494968354.679441) can0 167#80800009FFE00000
(1494968354.680818) can0 3BE#0001E70E7C008100
(1494968354.681187) can0 33B#0000000000000000
(1494968354.687568) can0 216#0000010082001755
(1494968354.689065) can0 167#80800009FFE00000
(1494968354.699194) can0 167#80800009FFE00000
(1494968354.699440) can0 346#000000030300C000
(1494968354.702070) can0 348#0000000000000000
(1494968354.702199) can0 3A4#0000000000000000
(1494968354.702441) can0 3A5#0000000000000000
(1494968354.705193) can0 3AC#FFFFFFFFFFFFFFFF
(1494968354.705210) can0 3AD#FFFFFFFFFFFFFFFF
(1494968354.707937) can0 216#0000010082001854
(1494968354.708310) can0 167#80800009FFE00000
(1494968354.711064) can0 083#0000000000017F01
(1494968354.711312) can0 3BC#0C000C8901002700
(1494968354.712816) can0 178#013D01F60E4FC64E
(1494968354.714314) can0 3BE#0001E7C27C008100
(1494968354.714331) can0 3C4#5759F8000000939E
(1494968354.715761) can0 42A#BA0000E000000000
(1494968354.717067) can0 42C#0551F5002D064E40
(1494968354.717193) can0 42E#130000E000079F81
(1494968354.719940) can0 167#80800009FFE00000
(1494968354.726321) can0 333#0000000000000000
(1494968354.726568) can0 216#0000010082001910
(1494968354.729196) can0 326#81A02627F9D00164
(1494968354.729324) can0 332#0000000000000000
(1494968354.729569) can0 167#80800009FFE00000
(1494968354.732197) can0 33A#0000000000000000
(1494968354.732325) can0 35D#0000000000000000
(1494968354.732448) can0 51E#3B02000000000000
(1494968354.740074) can0 167#80800009FFE00000
(1494968354.740321) can0 33B#0000000000000000
(1494968354.745571) can0 3B6#0800080000000000
(1494968354.747068) can0 3B7#0000020060C8022D
(1494968354.747195) can0 216#0000010082001A55
(1494968354.748691) can0 167#80800009FFE00000
(1494968354.751441) can0 3A5#0000000000000000
(1494968354.752942) can0 3A4#0000000000000000
(1494968354.753316) can0 3AC#FFFFFFFFFFFFFFFF
(1494968354.754694) can0 3AD#FFFFFFFFFFFFFFFF
(1494968354.759826) can0 167#80800009FFE00000
(1494968354.760074) can0 083#0000000000017EFD
(1494968354.761450) can0 3BC#0C00088901002700
(1494968354.762825) can0 42A#BA0000E000000000
(1494968354.763074) can0 42C#0551D4002D3E4E00
(1494968354.764450) can0 42E#170000E0000B9FB0
(1494968354.767078) can0 216#0000010082001B55
(1494968354.769701) can0 167#80800009FFE00000
(1494968354.779825) can0 167#80800009FFE00000
(1494968354.787450) can0 216#0000010082001C00
(1494968354.788948) can0 167#80800009FFE00000
(1494968354.797840) can0 40A#C110418820250000
(1494968354.799329) can0 346#000000030300C000
(1494968354.799347) can0 167#80800009FFE00000
(1494968354.800705) can0 348#0000000000000000
(1494968354.802081) can0 33B#0000000000000000
(1494968354.802330) can0 3A4#0000000000000000
(1494968354.803705) can0 3A5#0000000000000000
(1494968354.805080) can0 3A6#0E400A045F700000
(1494968354.805202) can0 3A7#0E400A045F700000
(1494968354.806582) can0 3AC#FFFFFFFFFFFFFFFF
(1494968354.807952) can0 3AD#FFFFFFFFFFFFFFFF
(1494968354.808200) can0 216#0000010082001D15
(1494968354.809577) can0 167#80800009FFE00000
(1494968354.811076) can0 083#0000000000017EFD
(1494968354.811324) can0 3BC#0C000C8901002700
(1494968354.812824) can0 3BE#0001E7CE7C008100
(1494968354.814326) can0 178#013D01F60E4FC64E
(1494968354.814343) can0 42A#BA0000E000000000
(1494968354.815746) can0 42C#0551F5002D064E40
(1494968354.817083) can0 42E#130000E000079F81
(1494968354.819709) can0 167#80800009FFE00000
(1494968354.826085) can0 333#0000000000000000
(1494968354.827578) can0 216#0000010082001E55
(1494968354.827595) can0 332#0000000000000000
(1494968354.830205) can0 167#80800009FFE00000
(1494968354.830332) can0 2A0#FFFFFFFF00001E00
(1494968354.830349) can0 326#81A02627F9D00164
(1494968354.831829) can0 33A#0000000000000000
(1494968354.833451) can0 53B#5D12000000000000
(1494968354.839836) can0 167#80800009FFE00000
(1494968354.847462) can0 216#0000010082001F11
(1494968354.850088) can0 167#80800009FFE00000
(1494968354.851584) can0 3A5#0000000000000000
(1494968354.853085) can0 3A4#0000000000000000
(1494968354.853335) can0 3AC#FFFFFFFFFFFFFFFF
(1494968354.854835) can0 3AD#FFFFFFFFFFFFFFFF
(1494968354.859964) can0 167#80800009FFE00000
(1494968354.860085) can0 083#0000000000017EFF
(1494968354.861462) can0 3BC#0C00088901002700
(1494968354.862838) can0 33B#0000000000000000
(1494968354.863087) can0 42A#BA0000E000000000
(1494968354.864463) can0 42C#0551D4002D3E4E00
(1494968354.864835) can0 42E#170000E0000B9FB0
(1494968354.867464) can0 216#0000010082002051
(1494968354.868834) can0 167#80800009FFE00000
(1494968354.880213) can0 167#80800009FFE00000
(1494968354.887961) can0 216#0000010082002115
(1494968354.888334) can0 167#80800009FFE00000
(1494968354.899718) can0 167#80800009FFE00000
(1494968354.899842) can0 346#000000030300C000
(1494968354.901218) can0 348#0000000000000000
(1494968354.901466) can0 3A4#0000000000000000
(1494968354.904218) can0 3A5#0000000000000000
(1494968354.904236) can0 3AC#FFFFFFFFFFFFFFFF
(1494968354.904468) can0 3AD#FFFFFFFFFFFFFFFF
(1494968354.907094) can0 216#0000010082002215
(1494968354.908586) can0 167#80800009FFE00000
(1494968354.911339) can0 083#0000000000017F02
(1494968354.911467) can0 3BC#0C000C8901002700
(1494968354.912962) can0 3BE#0001E7CE7C008100
(1494968354.913212) can0 178#013D01F60E4FC64E
(1494968354.914589) can0 3C4#5759F8300000939E
(1494968354.915970) can0 42A#BA0000E000000000
(1494968354.916217) can0 42C#0551F5002D064E40
(1494968354.917595) can0 42E#130000E000079F81
(1494968354.920220) can0 167#80800009FFE00000
(1494968354.920467) can0 33B#0000000000000000
