(1494966948.185016) can0 216#00000000820002FA
(1494966948.188884) can0 083#0000000000017EFE
(1494966948.189006) can0 167#80800009FFE00000
(1494966948.190382) can0 3BC#0C00088901002700
(1494966948.190643) can0 42A#B90000E000000000
(1494966948.192009) can0 42C#055154002D066C00
(1494966948.193510) can0 42E#130000E00003A2C0
(1494966948.198756) can0 167#80800009FFE00000
(1494966948.202633) can0 326#81A02625F9D00179
(1494966948.204130) can0 216#00000000820003B3
(1494966948.207009) can0 333#0000000000000000
(1494966948.208512) can0 167#80800009FFE00000
(1494966948.215008) can0 33B#0000000000000000
(1494966948.215021) can0 3A4#0000000000000000
(1494966948.216387) can0 3A5#0000000000000000
(1494966948.216509) can0 3AC#FFFFFFFFFFFFFFFF
(1494966948.217885) can0 3AD#FFFFFFFFFFFFFFFF
(1494966948.219383) can0 167#80800009FFE00000
(1494966948.219394) can0 332#0000000000000000
(1494966948.220763) can0 346#000000030300C000
(1494966948.222134) can0 33A#0000000000000000
(1494966948.222260) can0 348#0000000000000000
(1494966948.224885) can0 3B3#4588C00C10040222
(1494966948.225134) can0 216#0000000082000448
(1494966948.225146) can0 3C3#5CC8000000000100
(1494966948.229017) can0 167#80800009FFE00000
(1494966948.232891) can0 178#012901E20E4DC64D
(1494966948.238139) can0 167#80800009FFE00000
(1494966948.239638) can0 083#0000000000017F01
(1494966948.240012) can0 3BC#0C000C8901002700
(1494966948.241390) can0 3BE#0001E7CE7C064800
(1494966948.242766) can0 42A#B90000E000000000
(1494966948.242891) can0 42C#055175002D3E6C40
(1494966948.244266) can0 42E#170000E0000FA2F1
(1494966948.245672) can0 216#0000000082000547
(1494966948.245889) can0 51E#3B02000000000000
(1494966948.248516) can0 167#80800009FFE00000
(1494966948.258766) can0 167#80800009FFE00000
(1494966948.264016) can0 216#0000000082000639
(1494966948.265517) can0 3A4#0000000000000000
(1494966948.267017) can0 3A5#0000000000000000
(1494966948.267143) can0 3AC#FFFFFFFFFFFFFFFF
(1494966948.268646) can0 167#80800009FFE00000
(1494966948.268893) can0 3AD#FFFFFFFFFFFFFFFF
(1494966948.274020) can0 33B#0000000000000000
(1494966948.279152) can0 167#80800009FFE00000
(1494966948.284390) can0 216#0000000082000743
(1494966948.288394) can0 083#0000000000017EFC
(1494966948.288520) can0 167#80800009FFE00000
(1494966948.289893) can0 3BC#0C00088901002700
(1494966948.291268) can0 42A#B90000E000000000
(1494966948.291394) can0 42C#055154002D066C00
(1494966948.292769) can0 42E#130000E00003A2C0
(1494966948.298023) can0 167#80800009FFE00000
(1494966948.302021) can0 124#0202000000000000
(1494966948.303522) can0 22C#000A000000000000
(1494966948.304900) can0 326#81A02625F9D00179
(1494966948.305024) can0 216#000000008200082D
(1494966948.306521) can0 355#60071DA0008800E0
(1494966948.306772) can0 356#02BC373037300000
(1494966948.308149) can0 167#80800009FFE00000
(1494966948.309524) can0 333#0000000000000000
(1494966948.309772) can0 35E#00C0003896683000
(1494966948.311150) can0 3E7#0000000000000000
(1494966948.312647) can0 41A#7600000000000000
(1494966948.315274) can0 3A4#0000000000000000
(1494966948.315400) can0 3A5#0000000000000000
(1494966948.316780) can0 3A6#0E400A045F700000
(1494966948.318150) can0 3A7#0E400A045F700000
(1494966948.318398) can0 167#80800009FFE00000
(1494966948.319899) can0 332#0000000000000000
(1494966948.321278) can0 346#000000030300C000
(1494966948.321401) can0 33A#0000000000000000
(1494966948.322776) can0 348#0000000000000000
(1494966948.324152) can0 3AC#FFFFFFFFFFFFFFFF
(1494966948.324276) can0 216#0000000082000931
(1494966948.327025) can0 3AD#FFFFFFFFFFFFFFFF
(1494966948.327037) can0 40A#C1014C5534485233
(1494966948.329652) can0 167#80800009FFE00000
(1494966948.333527) can0 178#012901E20E4DC64D
(1494966948.333654) can0 33B#0000000000000000
(1494966948.335028) can0 53B#5D12000000000000
(1494966948.339028) can0 083#0000000000017EFF
(1494966948.339040) can0 167#80800009FFE00000
(1494966948.340406) can0 3BC#0C000C8901002700
(1494966948.341779) can0 3BE#0001E7CE7C064800
(1494966948.341905) can0 3C4#5754F8000000939E
(1494966948.343279) can0 42A#B90000E000000000
(1494966948.344780) can0 42C#055175002D3E6C40
(1494966948.344792) can0 216#0000000082000A34
(1494966948.346157) can0 42E#170000E0000FA2F1
(1494966948.348782) can0 167#80800009FFE00000
(1494966948.359026) can0 167#80800009FFE00000
(1494966948.364276) can0 216#0000000082000B43
(1494966948.365784) can0 3A4#0000000000000000
(1494966948.365908) can0 331#C0004B99044A1002
(1494966948.367284) can0 3A5#0000000000000000
(1494966948.368663) can0 3AC#FFFFFFFFFFFFFFFF
(1494966948.368905) can0 167#80800009FFE00000
(1494966948.370280) can0 3AD#FFFFFFFFFFFFFFFF
(1494966948.371655) can0 3B6#0800040000000000
(1494966948.371779) can0 3B7#0000020060C8022D
(1494966948.379407) can0 167#80800009FFE00000
(1494966948.384533) can0 216#0000000082000C36
(1494966948.388413) can0 083#0000000000017F07
(1494966948.388661) can0 167#80800009FFE00000
(1494966948.390032) can0 3BC#0C00088901002700
(1494966948.391408) can0 42A#B90000E000000000
(1494966948.391534) can0 42C#055154002D066C00
(1494966948.392907) can0 42E#130000E00003A2C0
(1494966948.394282) can0 33B#0000000000000000
(1494966948.397031) can0 331#C0004B9A044A1002
(1494966948.398409) can0 3BE#0001E7067C064900
(1494966948.399783) can0 167#80800009FFE00000
(1494966948.403659) can0 326#81A02625F9D00179
(1494966948.403907) can0 216#0000000082000D30
(1494966948.407913) can0 333#0000000000000000
(1494966948.408038) can0 167#80800009FFE00000
(1494966948.415671) can0 3A4#0000000000000000
(1494966948.415790) can0 3A5#0000000000000000
(1494966948.417165) can0 3AC#FFFFFFFFFFFFFFFF
(1494966948.417413) can0 3AD#FFFFFFFFFFFFFFFF
(1494966948.418790) can0 167#80800009FFE00000
(1494966948.420289) can0 332#0000000000000000
(1494966948.420413) can0 346#000000030300C000
(1494966948.421792) can0 33A#0000000000000000
(1494966948.423165) can0 348#0000000000000000
(1494966948.424541) can0 216#0000000082000E32
(1494966948.425917) can0 304#0800000000000000
(1494966948.429915) can0 167#80800009FFE00000
(1494966948.433793) can0 178#012901E20E4DC64D
(1494966948.433917) can0 55D#0402000000000000
(1494966948.438040) can0 167#80800009FFE00000
(1494966948.439542) can0 083#0000000000017F01
(1494966948.440917) can0 3BC#0C000C8901002700
(1494966948.441166) can0 3BE#0001E7CE7C064900
(1494966948.442542) can0 42A#B90000E000000000
(1494966948.442791) can0 42C#055175002D3E6C40
(1494966948.444167) can0 42E#170000E0000FA2F1
(1494966948.445543) can0 216#0000000082000F2D
(1494966948.448169) can0 167#80800009FFE00000
(1494966948.454668) can0 33B#0000000000000000
(1494966948.458668) can0 167#80800009FFE00000
(1494966948.461291) can0 35D#0000000000000000
(1494966948.463917) can0 216#0000000082001041
(1494966948.465292) can0 3A4#0000000000000000
(1494966948.466791) can0 3A5#0000000000000000
(1494966948.466917) can0 3AC#FFFFFFFFFFFFFFFF
(1494966948.468293) can0 167#80800009FFE00000
(1494966948.469668) can0 3AD#FFFFFFFFFFFFFFFF
(1494966948.478671) can0 167#80800009FFE00000
(1494966948.483798) can0 216#0000000082001146
(1494966948.489048) can0 083#0000000000017EFD
(1494966948.489060) can0 167#80800009FFE00000
(1494966948.490424) can0 3BC#0C00088901002700
(1494966948.490549) can0 42A#B90000E000000000
(1494966948.491923) can0 42C#055154002D066C00
(1494966948.493299) can0 42E#130000E00003A2C0
(1494966948.498548) can0 167#80800009FFE00000
(1494966948.503799) can0 2A0#FFFFFFFF00001E00
(1494966948.503924) can0 216#0000000082001200
(1494966948.505300) can0 326#81A02625F9D00179
(1494966948.508050) can0 333#0000000000000000
(1494966948.508062) can0 167#80800009FFE00000
(1494966948.514551) can0 33B#0000000000000000
(1494966948.514676) can0 3A5#0000000000000000
(1494966948.516053) can0 3A4#0000000000000000
(1494966948.517427) can0 3A6#0E400A045F700000
(1494966948.517553) can0 3A7#0E400A045F700000
(1494966948.518927) can0 167#80800009FFE00000
(1494966948.520426) can0 332#0000000000000000
(1494966948.520550) can0 346#000000030300C000
(1494966948.521927) can0 33A#0000000000000000
(1494966948.523303) can0 348#0000000000000000
(1494966948.523430) can0 3AC#FFFFFFFFFFFFFFFF
(1494966948.524807) can0 216#0000000082001300
(1494966948.526303) can0 3AD#FFFFFFFFFFFFFFFF
(1494966948.526427) can0 3E1#8000010701800000
(1494966948.527803) can0 40A#C1023130353736FF
(1494966948.529179) can0 167#80800009FFE00000
(1494966948.529303) can0 504#0512000000000000
(1494966948.533179) can0 178#012901E20E4DC64D
(1494966948.538430) can0 083#0000000000017F03
(1494966948.539806) can0 167#80800009FFE00000
(1494966948.539930) can0 3BC#0C000C8901002700
(1494966948.541305) can0 3BE#0001E7CE7C064900
(1494966948.542681) can0 3C4#5754F8300000939E
(1494966948.542927) can0 42A#B90000E000000000
(1494966948.544306) can0 42C#055175002D3E6C40
(1494966948.545688) can0 216#0000000082001454
(1494966948.545806) can0 42E#170000E0000FA2F1
(1494966948.548431) can0 167#80800009FFE00000
(1494966948.558680) can0 167#80800009FFE00000
(1494966948.563931) can0 216#0000000082001551
(1494966948.565308) can0 3A4#0000000000000000
(1494966948.566685) can0 3A5#0000000000000000
(1494966948.566931) can0 3AC#FFFFFFFFFFFFFFFF
(1494966948.568308) can0 167#80800009FFE00000
(1494966948.569685) can0 3AD#FFFFFFFFFFFFFFFF
(1494966948.574932) can0 33B#0000000000000000
(1494966948.578811) can0 167#80800009FFE00000
(1494966948.583936) can0 216#0000000082001655
(1494966948.587813) can0 083#0000000000017F02
(1494966948.589186) can0 167#80800009FFE00000
(1494966948.589434) can0 3BC#0C00088901002700
(1494966948.590935) can0 42A#B90000E000000000
(1494966948.592312) can0 42C#055154002D066C00
(1494966948.592437) can0 42E#130000E00003A2C0
(1494966948.596314) can0 084#11000088232F0C00
(1494966948.599061) can0 167#80800009FFE00000
(1494966948.604189) can0 326#81A02625F9D00179
(1494966948.604437) can0 216#0000000082001755
(1494966948.607186) can0 333#0000000000000000
(1494966948.608566) can0 167#80800009FFE00000
(1494966948.609939) can0 33C#2400000000000000
(1494966948.615064) can0 3A4#0000000000000000
(1494966948.616441) can0 3A5#0000000000000000
(1494966948.616689) can0 3AC#FFFFFFFFFFFFFFFF
(1494966948.618065) can0 3AD#FFFFFFFFFFFFFFFF
(1494966948.619440) can0 167#80800009FFE00000
(1494966948.619565) can0 332#0000000000000000
(1494966948.620940) can0 3B6#0800050000000000
(1494966948.622318) can0 33A#0000000000000000
(1494966948.622565) can0 3B7#0000030060C8017C
(1494966948.623941) can0 3DE#0000000080000000
(1494966948.625316) can0 216#0000000082001854
(1494966948.625440) can0 346#000000030300C000
(1494966948.626818) can0 348#0000000000000000
(1494966948.628191) can0 3E0#0000000080000000
(1494966948.628317) can0 505#0B12000000000000
(1494966948.630942) can0 167#80800009FFE00000
(1494966948.633568) can0 178#012901E20E4DC24D
(1494966948.633692) can0 33B#0000000000000000
(1494966948.638942) can0 167#80800009FFE00000
(1494966948.639067) can0 083#0000000000017EFE
(1494966948.640446) can0 3BC#0C000C8901002700
(1494966948.641818) can0 3BE#0001E7CE7C064900
(1494966948.641943) can0 42A#B90000E000000000
(1494966948.643319) can0 42C#055175002D3E6C40
(1494966948.644697) can0 42E#170000E0000FA2F1
(1494966948.644941) can0 216#0000000082001910
(1494966948.648821) can0 167#80800009FFE00000
(1494966948.653945) can0 3E7#0000000000000000
(1494966948.657943) can0 167#80800009FFE00000
(1494966948.664322) can0 216#0000000082001A55
(1494966948.665702) can0 3A4#0000000000000000
(1494966948.666069) can0 3A5#0000000000000000
(1494966948.667447) can0 3AC#FFFFFFFFFFFFFFFF
(1494966948.668826) can0 167#80800009FFE00000
(1494966948.668947) can0 3AD#FFFFFFFFFFFFFFFF
(1494966948.679075) can0 167#80800009FFE00000
(1494966948.684199) can0 216#0000000082001B55
(1494966948.688199) can0 083#0000000000017F02
(1494966948.688448) can0 167#80800009FFE00000
(1494966948.689825) can0 3BC#0C00088901002700
(1494966948.691200) can0 42A#B90000E000000000
(1494966948.691326) can0 42C#055154002D066C00
(1494966948.693950) can0 42E#130000E00003A2C0
(1494966948.694199) can0 33B#0000000000000000
(1494966948.698198) can0 167#80800009FFE00000
(1494966948.704578) can0 216#0000000082001C00
(1494966948.704825) can0 326#81A02625F9D00179
(1494966948.707570) can0 333#0000000000000000
(1494966948.708949) can0 167#80800009FFE00000
(1494966948.715447) can0 3A4#0000000000000000
(1494966948.715572) can0 3A5#0000000000000000
(1494966948.716954) can0 3A6#0E400A045F700000
(1494966948.718328) can0 3A7#0E400A045F700000
(1494966948.718453) can0 167#80800009FFE00000
(1494966948.719827) can0 332#0000000000000000
(1494966948.721327) can0 346#000000030300C000
(1494966948.721451) can0 33A#0000000000000000
(1494966948.722827) can0 348#0000000000000000
(1494966948.724203) can0 3AC#FFFFFFFFFFFFFFFF
(1494966948.724328) can0 216#0000000082001D15
(1494966948.727079) can0 3AD#FFFFFFFFFFFFFFFF
(1494966948.727091) can0 3B3#4588C00C10040222
(1494966948.727203) can0 40A#C104010107CC70C1
(1494966948.729829) can0 50B#1E12000000000000
(1494966948.729954) can0 167#80800009FFE00000
(1494966948.733830) can0 178#012901E20E4DC64D
(1494966948.739080) can0 083#0000000000017F01
(1494966948.739093) can0 167#80800009FFE00000
(1494966948.740456) can0 3BC#0C000C8901002700
(1494966948.740828) can0 3BE#0001E7CE7C064900
(1494966948.742206) can0 3C4#5754F8400000939E
(1494966948.743583) can0 42A#B90000E000000000
(1494966948.743830) can0 42C#055175002D3E6C40
(1494966948.745206) can0 216#0000000082001E55
(1494966948.746583) can0 42E#170000E0000FA2F1
(1494966948.747956) can0 167#80800009FFE00000
(1494966948.754333) can0 33B#0000000000000000
(1494966948.758210) can0 167#80800009FFE00000
(1494966948.764712) can0 216#0000000082001F11
(1494966948.764957) can0 3A4#0000000000000000
(1494966948.766335) can0 3A5#0000000000000000
(1494966948.767709) can0 3AC#FFFFFFFFFFFFFFFF
(1494966948.767957) can0 167#80800009FFE00000
(1494966948.769334) can0 3AD#FFFFFFFFFFFFFFFF
(1494966948.779585) can0 167#80800009FFE00000
(1494966948.784714) can0 216#0000000082002051
(1494966948.788589) can0 083#0000000000017EFE
(1494966948.788716) can0 167#80800009FFE00000
(1494966948.790087) can0 3BC#0C00088901002700
(1494966948.791463) can0 42A#B90000E000000000
(1494966948.791714) can0 42C#055154002D066C00
(1494966948.793087) can0 42E#130000E00003A2C0
(1494966948.798336) can0 167#80800009FFE00000
(1494966948.804718) can0 216#0000000082002115
(1494966948.804839) can0 326#81A02625F9D00179
(1494966948.807465) can0 333#0000000000000000
(1494966948.808963) can0 167#80800009FFE00000
(1494966948.814090) can0 33B#0000000000000000
(1494966948.815465) can0 3A4#0000000000000000
(1494966948.815590) can0 3A5#0000000000000000
(1494966948.816967) can0 3AC#FFFFFFFFFFFFFFFF
(1494966948.818465) can0 3AD#FFFFFFFFFFFFFFFF
(1494966948.818589) can0 167#80800009FFE00000
(1494966948.819966) can0 332#0000000000000000
(1494966948.821341) can0 346#000000030300C000
(1494966948.821467) can0 33A#0000000000000000
(1494966948.822841) can0 348#0000000000000000
(1494966948.824340) can0 33F#0200200000000000
(1494966948.824465) can0 216#0000000082002215
(1494966948.825843) can0 51E#3B02000000000000
(1494966948.829719) can0 167#80800009FFE00000
(1494966948.833593) can0 178#012901E20E4DC64D
(1494966948.838720) can0 083#0000000000017F03
(1494966948.838966) can0 167#80800009FFE00000
(1494966948.840343) can0 3BC#0C000C8901002700
(1494966948.841719) can0 3BE#0001E7CE7C064900
(1494966948.841844) can0 42A#B90000E000000000
(1494966948.843219) can0 42C#055175002D3E6C40
(1494966948.844601) can0 42E#170000E0000FA2F1
(1494966948.844845) can0 216#0000000082002340
(1494966948.848723) can0 167#80800009FFE00000
(1494966948.858848) can0 167#80800009FFE00000
(1494966948.863971) can0 216#0000000082000000
(1494966948.865347) can0 3A4#0000000000000000
(1494966948.866723) can0 3A5#0000000000000000
(1494966948.866971) can0 3AC#FFFFFFFFFFFFFFFF
(1494966948.868348) can0 3AD#FFFFFFFFFFFFFFFF
(1494966948.869724) can0 167#80800009FFE00000
(1494966948.869969) can0 3B6#0800060000000000
(1494966948.871348) can0 3B7#0000000060C801CE
(1494966948.873975) can0 33B#0000000000000000
(1494966948.877972) can0 167#80800009FFE00000
(1494966948.884349) can0 216#0000000082000100
(1494966948.888226) can0 083#0000000000017F01
(1494966948.888474) can0 167#80800009FFE00000
(1494966948.889851) can0 3BC#0C00088901002700
(1494966948.891225) can0 42A#B90000E000000000
(1494966948.891474) can0 42C#055154002D066C00
(1494966948.892854) can0 42E#130000E00003A2C0
(1494966948.897978) can0 167#80800009FFE00000
(1494966948.904353) can0 216#00000000820002FA
(1494966948.905733) can0 326#81A02625F9D00179
(1494966948.907102) can0 333#0000000000000000
(1494966948.908477) can0 167#80800009FFE00000
(1494966948.914854) can0 53B#5D12000000000000
(1494966948.916229) can0 3A4#0000000000000000
(1494966948.916354) can0 3A5#0000000000000000
(1494966948.918979) can0 3A6#0E400A045F700000
(1494966948.919228) can0 332#0000000000000000
(1494966948.919240) can0 167#80800009FFE00000
(1494966948.920728) can0 33A#0000000000000000
(1494966948.921103) can0 346#000000030300C000
(1494966948.922602) can0 348#0000000000000000
(1494966948.924104) can0 3A7#0E400A045F700000
(1494966948.924229) can0 216#00000000820003B3
(1494966948.925736) can0 3AC#FFFFFFFFFFFFFFFF
(1494966948.925978) can0 3AD#FFFFFFFFFFFFFFFF
(1494966948.927355) can0 40A#C110418820250000
(1494966948.929981) can0 167#80800009FFE00000
(1494966948.933856) can0 178#012901E20E4DC64D
(1494966948.934104) can0 33B#0000000000000000
(1494966948.937984) can0 083#0000000000017F01
(1494966948.939357) can0 167#80800009FFE00000
(1494966948.940737) can0 3BC#0C000C8901002700
(1494966948.940861) can0 3BE#0001E7CE7C064900
(1494966948.942232) can0 3C4#5754F8000000939E
(1494966948.943731) can0 3D5#4121094000000000
(1494966948.943743) can0 42A#B90000E000000000
(1494966948.945107) can0 216#0000000082000448
(1494966948.946484) can0 42C#055175002D3E6C40
(1494966948.946608) can0 42E#170000E0000FA2F1
(1494966948.947983) can0 167#80800009FFE00000
(1494966948.958233) can0 167#80800009FFE00000
(1494966948.964612) can0 216#0000000082000547
(1494966948.965986) can0 3A4#0000000000000000
(1494966948.966110) can0 3A5#0000000000000000
(1494966948.967485) can0 3AC#FFFFFFFFFFFFFFFF
(1494966948.968861) can0 167#80800009FFE00000
(1494966948.969109) can0 3AD#FFFFFFFFFFFFFFFF
(1494966948.979239) can0 167#80800009FFE00000
(1494966948.984362) can0 216#0000000082000639
(1494966948.988239) can0 083#0000000000017F02
(1494966948.988486) can0 167#80800009FFE00000
(1494966948.989863) can0 3BC#0C00088901002700
(1494966948.991364) can0 42A#B90000E000000000
(1494966948.991375) can0 42C#055154002D066C00
(1494966948.993989) can0 42E#130000E00003A2C0
(1494966948.994116) can0 33B#0000000000000000
(1494966948.997991) can0 167#80800009FFE00000
(1494966949.004487) can0 216#0000000082000743
(1494966949.005867) can0 326#81A02625F9D00179
(1494966949.007240) can0 333#0000000000000000
(1494966949.008617) can0 167#80800009FFE00000
(1494966949.014991) can0 3A4#0000000000000000
(1494966949.016368) can0 3A5#0000000000000000
(1494966949.016740) can0 3AC#FFFFFFFFFFFFFFFF
(1494966949.018117) can0 3AD#FFFFFFFFFFFFFFFF
(1494966949.019492) can0 167#80800009FFE00000
(1494966949.019617) can0 332#0000000000000000
(1494966949.020993) can0 346#000000030300C000
(1494966949.022367) can0 33A#0000000000000000
(1494966949.022616) can0 348#0000000000000000
(1494966949.023993) can0 55D#0402000000000000
(1494966949.025367) can0 216#000000008200082D
(1494966949.029245) can0 167#80800009FFE00000
(1494966949.033120) can0 178#012901E20E4DC64D
(1494966949.038368) can0 083#0000000000017F02
(1494966949.039870) can0 167#80800009FFE00000
(1494966949.039994) can0 2FD#D400E30000000000
(1494966949.041370) can0 3BC#0C000C8901002700
(1494966949.042745) can0 3BE#0001E7CE7C064900
(1494966949.042871) can0 42A#B90000E000000000
(1494966949.044245) can0 42C#055175002D3E6C40
(1494966949.045751) can0 216#0000000082000931
(1494966949.045763) can0 42E#170000E0000FA2F1
(1494966949.048371) can0 167#80800009FFE00000
(1494966949.054746) can0 33B#0000000000000000
(1494966949.058623) can0 167#80800009FFE00000
(1494966949.064998) can0 216#0000000082000A34
(1494966949.065247) can0 3A4#0000000000000000
(1494966949.066624) can0 3A5#0000000000000000
(1494966949.066996) can0 3AC#FFFFFFFFFFFFFFFF
(1494966949.068373) can0 167#80800009FFE00000
(1494966949.069750) can0 3AD#FFFFFFFFFFFFFFFF
(1494966949.078626) can0 167#80800009FFE00000
(1494966949.078997) can0 1E6#800CE2CE00000000
(1494966949.084126) can0 216#0000000082000B43
(1494966949.088003) can0 083#0000000000017EFD
(1494966949.089377) can0 167#80800009FFE00000
(1494966949.089501) can0 3BC#0C00088901002700
(1494966949.090999) can0 42A#B90000E000000000
(1494966949.092376) can0 42C#055154002D066C00
(1494966949.092502) can0 42E#130000E00003A2C0
(1494966949.096378) can0 34E#0000000000000000
(1494966949.096624) can0 358#0000000000000000
(1494966949.098002) can0 167#80800009FFE00000
(1494966949.104501) can0 216#0000000082000C36
(1494966949.105880) can0 326#81A02625F9D00179
(1494966949.107253) can0 333#0000000000000000
(1494966949.108630) can0 167#80800009FFE00000
(1494966949.115005) can0 33B#0000000000000000
(1494966949.115129) can0 3A4#0000000000000000
(1494966949.116636) can0 3A5#0000000000000000
(1494966949.116648) can0 3A6#0E400A045F700000
(1494966949.118005) can0 3A7#0E400A045F700000
(1494966949.119379) can0 332#0000000000000000
(1494966949.119628) can0 3AC#FFFFFFFFFFFFFFFF
(1494966949.121005) can0 33A#0000000000000000
(1494966949.122506) can0 3AD#FFFFFFFFFFFFFFFF
(1494966949.122517) can0 3B6#0800070000000000
(1494966949.123882) can0 3B7#0000010060C80084
(1494966949.125256) can0 167#80800009FFE00000
(1494966949.125504) can0 216#0000000082000D30
(1494966949.126883) can0 346#000000030300C000
(1494966949.128381) can0 348#0000000000000000
(1494966949.128505) can0 3E2#0000000080000000
(1494966949.129882) can0 167#80800009FFE00000
(1494966949.131257) can0 3EB#1F04140000200000
(1494966949.131382) can0 40A#C000000336EBBC00
(1494966949.134007) can0 504#0512000000000000
(1494966949.134256) can0 178#012901E20E4DC64D
(1494966949.138135) can0 083#0000000000017F01
(1494966949.139508) can0 167#80800009FFE00000
(1494966949.139756) can0 3BC#0C000C8901002700
(1494966949.141133) can0 3BE#0001E7CE7C064901
(1494966949.142508) can0 3C4#5754F8000000939E
(1494966949.142757) can0 42A#B90000E000000000
(1494966949.144134) can0 42C#055175002D3F6D40
(1494966949.145509) can0 216#0000000082000E32
(1494966949.145676) can0 42E#170000E0000FA2F1
(1494966949.148260) can0 167#80800009FFE00000
(1494966949.158387) can0 167#80800009FFE00000
(1494966949.164767) can0 216#0000000082000F2D
(1494966949.164891) can0 3A4#0000000000000000
(1494966949.166263) can0 3A5#0000000000000000
(1494966949.167637) can0 3AC#FFFFFFFFFFFFFFFF
(1494966949.167885) can0 3AD#FFFFFFFFFFFFFFFF
(1494966949.169384) can0 167#80800009FFE00000
(1494966949.170762) can0 3B4#401111FF23230000
(1494966949.174637) can0 33B#0000000000000000
(1494966949.177264) can0 35E#00C0003896673000
(1494966949.179888) can0 167#80800009FFE00000
(1494966949.185015) can0 216#0000000082001041
(1494966949.189013) can0 083#0000000000017EFE
(1494966949.189025) can0 167#80800009FFE00000
(1494966949.190389) can0 3BC#0C00088901002700
(1494966949.190515) can0 42A#B90000E000000000
(1494966949.191890) can0 42C#055154002D066C00
(1494966949.193265) can0 42E#130000E00003A2C0
(1494966949.198515) can0 167#80800009FFE00000
(1494966949.204892) can0 216#0000000082001146
(1494966949.207517) can0 326#81A02625F9D00178
(1494966949.207643) can0 333#0000000000000000
(1494966949.209017) can0 167#80800009FFE00000
(1494966949.215393) can0 3A4#0000000000000000
(1494966949.215767) can0 3A5#0000000000000000
(1494966949.217144) can0 3AC#FFFFFFFFFFFFFFFF
(1494966949.218518) can0 3AD#FFFFFFFFFFFFFFFF
(1494966949.218643) can0 167#80800009FFE00000
(1494966949.220018) can0 332#0000000000000000
(1494966949.221393) can0 346#000000030300C000
(1494966949.221645) can0 33A#0000000000000000
(1494966949.223018) can0 348#0000000000000000
(1494966949.224394) can0 3B3#4588C00C10040222
(1494966949.224519) can0 216#0000000082001200
(1494966949.225895) can0 3C3#5CC8000000000100
(1494966949.227269) can0 505#0B12000000000000
(1494966949.230019) can0 167#80800009FFE00000
(1494966949.233895) can0 178#012901E20E4DC64D
(1494966949.234020) can0 33B#0000000000000000
(1494966949.237898) can0 083#0000000000017EFE
(1494966949.239271) can0 167#80800009FFE00000
(1494966949.240646) can0 3BC#0C000C8901002700
(1494966949.240897) can0 3BE#0001E7CE7C064900
(1494966949.242271) can0 42A#B90000E000000000
(1494966949.243646) can0 42C#055175002D3E6C40
(1494966949.243772) can0 42E#170000E0000FA2F1
(1494966949.245146) can0 216#0000000082001300
(1494966949.249144) can0 167#80800009FFE00000
(1494966949.258025) can0 167#80800009FFE00000
(1494966949.264399) can0 216#0000000082001454
(1494966949.265780) can0 3A4#0000000000000000
(1494966949.266021) can0 3A5#0000000000000000
(1494966949.267400) can0 3AC#FFFFFFFFFFFFFFFF
(1494966949.268899) can0 167#80800009FFE00000
(1494966949.268911) can0 3AD#FFFFFFFFFFFFFFFF
(1494966949.279027) can0 167#80800009FFE00000
(1494966949.284151) can0 216#0000000082001551
(1494966949.288029) can0 083#0000000000017F01
(1494966949.289402) can0 167#80800009FFE00000
(1494966949.289650) can0 3BC#0C00088901002700
(1494966949.291028) can0 42A#B90000E000000000
(1494966949.291276) can0 42C#055154002D066C00
(1494966949.292781) can0 42E#130000E00003A2C0
(1494966949.294153) can0 33B#0000000000000000
(1494966949.298030) can0 167#80800009FFE00000
(1494966949.304527) can0 216#0000000082001655
(1494966949.307155) can0 124#0202000000000000
(1494966949.308530) can0 167#80800009FFE00000
(1494966949.308907) can0 22C#000A000000000000
(1494966949.310280) can0 326#81A02625F9D00178
(1494966949.311655) can0 333#0000000000000000
(1494966949.311904) can0 355#60071DA0008800E0
(1494966949.313280) can0 356#02BC373037300000
(1494966949.314655) can0 35E#00C0003896673000
(1494966949.314781) can0 3A4#0000000000000000
(1494966949.316158) can0 3A5#0000000000000000
(1494966949.317532) can0 3A6#0E400A045F700000
(1494966949.317782) can0 3A7#0E400A045F700000
(1494966949.319156) can0 167#80800009FFE00000
(1494966949.320531) can0 332#0000000000000000
(1494966949.320657) can0 346#000000030300C000
(1494966949.322031) can0 33A#0000000000000000
(1494966949.323407) can0 348#0000000000000000
(1494966949.323657) can0 3AC#FFFFFFFFFFFFFFFF
(1494966949.325033) can0 216#0000000082001755
(1494966949.326409) can0 3AD#FFFFFFFFFFFFFFFF
(1494966949.326532) can0 3E7#0000000000000000
(1494966949.327907) can0 40A#C100334641365030
(1494966949.329407) can0 41A#7600000000000000
(1494966949.329419) can0 167#80800009FFE00000
(1494966949.332033) can0 50B#1E12000000000000
(1494966949.333408) can0 178#012901E20E4DC64D
(1494966949.338537) can0 083#0000000000017F01
(1494966949.338783) can0 167#80800009FFE00000
(1494966949.340282) can0 3BC#0C000C8901002700
(1494966949.341660) can0 3BE#0001E7CE7C064900
(1494966949.341786) can0 3C4#5754F8000000939E
(1494966949.343160) can0 42A#B90000E000000000
(1494966949.344535) can0 42C#055175002D3E6C40
(1494966949.344662) can0 216#0000000082001854
(1494966949.346158) can0 42E#170000E0000FA2F1
(1494966949.348789) can0 167#80800009FFE00000
(1494966949.353911) can0 33B#0000000000000000
(1494966949.359038) can0 167#80800009FFE00000
(1494966949.364163) can0 216#0000000082001910
(1494966949.365538) can0 3A4#0000000000000000
(1494966949.367037) can0 331#C0004B9A044A1002
(1494966949.367048) can0 3A5#0000000000000000
(1494966949.368413) can0 3AC#FFFFFFFFFFFFFFFF
(1494966949.369789) can0 167#80800009FFE00000
(1494966949.369913) can0 3AD#FFFFFFFFFFFFFFFF
(1494966949.371289) can0 3B6#0800080000000000
(1494966949.372790) can0 3B7#0000020060C8022D
(1494966949.379167) can0 167#80800009FFE00000
(1494966949.384291) can0 216#0000000082001A55
(1494966949.388167) can0 083#0000000000017F00
(1494966949.388291) can0 167#80800009FFE00000
(1494966949.389792) can0 3BC#0C00088901002700
(1494966949.390166) can0 42A#B90000E000000000
(1494966949.391664) can0 42C#055154002D066C00
(1494966949.393164) can0 42E#130000E00003A2C0
(1494966949.397043) can0 331#C0004B9B044A1002
(1494966949.398417) can0 167#80800009FFE00000
(1494966949.404799) can0 216#0000000082001B55
(1494966949.407543) can0 333#0000000000000000
(1494966949.407916) can0 167#80800009FFE00000
(1494966949.409295) can0 326#81A02625F9D00178
(1494966949.414420) can0 33B#0000000000000000
(1494966949.415805) can0 3A4#0000000000000000
(1494966949.415921) can0 3A5#0000000000000000
(1494966949.417296) can0 3AC#FFFFFFFFFFFFFFFF
(1494966949.418670) can0 3AD#FFFFFFFFFFFFFFFF
(1494966949.418796) can0 167#80800009FFE00000
(1494966949.420170) can0 332#0000000000000000
(1494966949.421547) can0 346#000000030300C000
(1494966949.421795) can0 33A#0000000000000000
(1494966949.423171) can0 348#0000000000000000
(1494966949.424546) can0 51E#3B02000000000000
(1494966949.424674) can0 216#0000000082001C00
(1494966949.427298) can0 304#0800000000000000
(1494966949.429923) can0 167#80800009FFE00000
(1494966949.433921) can0 178#012901E20E4DC64D
(1494966949.439049) can0 083#0000000000017F01
(1494966949.439173) can0 167#80800009FFE00000
(1494966949.440548) can0 3BC#0C000C8901002700
(1494966949.440800) can0 3BE#0001E7CE7C064900
(1494966949.442173) can0 42A#B90000E000000000
(1494966949.443673) can0 42C#055175002D3E6C40
(1494966949.443685) can0 42E#170000E0000FA2F1
(1494966949.445049) can0 216#0000000082001D15
(1494966949.448925) can0 167#80800009FFE00000
(1494966949.459052) can0 167#80800009FFE00000
(1494966949.460426) can0 35D#0000000000000000
(1494966949.464424) can0 216#0000000082001E55
(1494966949.465807) can0 3A4#0000000000000000
(1494966949.465927) can0 3A5#0000000000000000
(1494966949.467302) can0 3AC#FFFFFFFFFFFFFFFF
(1494966949.468684) can0 167#80800009FFE00000
(1494966949.468929) can0 3AD#FFFFFFFFFFFFFFFF
(1494966949.474176) can0 33B#0000000000000000
(1494966949.478301) can0 167#80800009FFE00000
(1494966949.484686) can0 216#0000000082001F11
(1494966949.487428) can0 083#0000000000017EFE
(1494966949.488928) can0 167#80800009FFE00000
(1494966949.489177) can0 3BC#0C00088901002700
(1494966949.490678) can0 42A#B90000E000000000
(1494966949.492056) can0 42C#055154002D066C00
(1494966949.492180) can0 42E#130000E00003A2C0
(1494966949.498558) can0 167#80800009FFE00000
(1494966949.504932) can0 216#0000000082002051
(1494966949.507558) can0 333#0000000000000000
(1494966949.507929) can0 167#80800009FFE00000
(1494966949.509308) can0 2A0#FFFFFFFF00001E00
(1494966949.510683) can0 326#81A02625F9D00178
(1494966949.515810) can0 53B#5D12000000000000
(1494966949.515934) can0 3A4#0000000000000000
(1494966949.517431) can0 3A5#0000000000000000
(1494966949.517681) can0 3A6#0E400A045F700000
(1494966949.519059) can0 167#80800009FFE00000
(1494966949.520433) can0 332#0000000000000000
(1494966949.520683) can0 346#000000030300C000
(1494966949.522058) can0 33A#0000000000000000
(1494966949.523558) can0 348#0000000000000000
(1494966949.523570) can0 3A7#0E400A045F700000
(1494966949.524935) can0 216#0000000082002115
(1494966949.526310) can0 3AC#FFFFFFFFFFFFFFFF
(1494966949.526557) can0 3AD#FFFFFFFFFFFFFFFF
(1494966949.527935) can0 3E1#8000010701800000
(1494966949.529434) can0 40A#C1014C5534485233
(1494966949.529446) can0 167#80800009FFE00000
(1494966949.533310) can0 178#012901E20E4DC64D
(1494966949.534685) can0 33B#0000000000000000
(1494966949.538563) can0 083#0000000000017F01
(1494966949.538687) can0 167#80800009FFE00000
(1494966949.540185) can0 3BC#0C000C8901002700
(1494966949.541561) can0 3BE#0001E7CE7C064900
(1494966949.541687) can0 3C4#5754F8300000939E
(1494966949.543061) can0 42A#B90000E000000000
(1494966949.544437) can0 42C#055175002D3E6C40
(1494966949.544562) can0 216#0000000082002215
(1494966949.546061) can0 42E#170000E0000FA2F1
(1494966949.548695) can0 167#80800009FFE00000
(1494966949.558938) can0 167#80800009FFE00000
(1494966949.564064) can0 216#0000000082002340
(1494966949.565439) can0 3A4#0000000000000000
(1494966949.566816) can0 3A5#0000000000000000
(1494966949.567065) can0 3AC#FFFFFFFFFFFFFFFF
(1494966949.568440) can0 167#80800009FFE00000
(1494966949.569815) can0 3AD#FFFFFFFFFFFFFFFF
(1494966949.578815) can0 167#80800009FFE00000
(1494966949.583942) can0 216#0000000082000000
(1494966949.589069) can0 083#0000000000017F02
(1494966949.589317) can0 167#80800009FFE00000
(1494966949.589328) can0 3BC#0C00088901002700
(1494966949.590816) can0 42A#B90000E000000000
(1494966949.591191) can0 42C#055154002D066C00
(1494966949.592691) can0 42E#130000E00003A2C0
(1494966949.594190) can0 33B#0000000000000000
(1494966949.596823) can0 084#1100008823300C00
(1494966949.598194) can0 167#80800009FFE00000
(1494966949.599568) can0 55D#0402000000000000
(1494966949.604697) can0 216#0000000082000100
(1494966949.607321) can0 333#0000000000000000
(1494966949.608819) can0 167#80800009FFE00000
(1494966949.608830) can0 326#81A02625F9D00178
(1494966949.610195) can0 33C#2400000000000000
(1494966949.615321) can0 3A4#0000000000000000
(1494966949.616699) can0 3A5#0000000000000000
(1494966949.616825) can0 3AC#FFFFFFFFFFFFFFFF
(1494966949.618320) can0 3AD#FFFFFFFFFFFFFFFF
(1494966949.619697) can0 167#80800009FFE00000
(1494966949.619822) can0 332#0000000000000000
(1494966949.621198) can0 3B6#0800090000000000
(1494966949.622574) can0 33A#0000000000000000
(1494966949.622697) can0 3B7#0000030060C8017C
(1494966949.624196) can0 346#000000030300C000
(1494966949.625572) can0 216#00000000820002FA
(1494966949.625703) can0 348#0000000000000000
(1494966949.627069) can0 3DE#0000000080000000
(1494966949.628444) can0 3E0#0000000080000000
(1494966949.628700) can0 167#80800009FFE00000
(1494966949.633943) can0 178#012901E20E4DC64D
(1494966949.639075) can0 083#0000000000017F00
(1494966949.639200) can0 167#80800009FFE00000
(1494966949.640577) can0 3BC#0C000C8901002700
(1494966949.640700) can0 3BE#0001E7CE7C064900
(1494966949.642074) can0 42A#B90000E000000000
(1494966949.643573) can0 42C#055175002D3E6C40
(1494966949.643698) can0 42E#170000E0000FA2F1
(1494966949.645075) can0 216#00000000820003B3
(1494966949.648952) can0 167#80800009FFE00000
(1494966949.654199) can0 33B#0000000000000000
(1494966949.658078) can0 167#80800009FFE00000
(1494966949.659576) can0 3E7#0000000000000000
(1494966949.664704) can0 216#0000000082000448
(1494966949.664951) can0 3A4#0000000000000000
(1494966949.666329) can0 3A5#0000000000000000
(1494966949.667703) can0 3AC#FFFFFFFFFFFFFFFF
(1494966949.667950) can0 167#80800009FFE00000
(1494966949.669328) can0 3AD#FFFFFFFFFFFFFFFF
(1494966949.678329) can0 167#80800009FFE00000
(1494966949.684706) can0 216#0000000082000547
(1494966949.687454) can0 083#0000000000017EFE
(1494966949.688955) can0 167#80800009FFE00000
(1494966949.689328) can0 3BC#0C00088901002700
(1494966949.690828) can0 42A#B90000E000000000
(1494966949.691079) can0 42C#055154002D066C00
(1494966949.692456) can0 42E#130000E00003A2C0
(1494966949.698833) can0 167#80800009FFE00000
(1494966949.699079) can0 504#0512000000000000
(1494966949.704331) can0 216#0000000082000639
(1494966949.706959) can0 333#0000000000000000
(1494966949.708329) can0 167#80800009FFE00000
(1494966949.709704) can0 326#81A02625F9D00178
(1494966949.714830) can0 33B#0000000000000000
(1494966949.714955) can0 3A4#0000000000000000
(1494966949.716458) can0 3A5#0000000000000000
(1494966949.717835) can0 3A6#0E400A045F700000
(1494966949.717960) can0 3A7#0E400A045F700000
(1494966949.719334) can0 167#80800009FFE00000
(1494966949.720709) can0 332#0000000000000000
(1494966949.720834) can0 346#000000030300C000
(1494966949.722333) can0 33A#0000000000000000
(1494966949.723709) can0 348#0000000000000000
(1494966949.723835) can0 3AC#FFFFFFFFFFFFFFFF
(1494966949.725210) can0 216#0000000082000743
(1494966949.726587) can0 3AD#FFFFFFFFFFFFFFFF
(1494966949.726710) can0 3B3#4588C00C10040222
(1494966949.728209) can0 40A#C1023130353736FF
(1494966949.728582) can0 167#80800009FFE00000
(1494966949.733712) can0 178#012901E20E4DC64D
(1494966949.738839) can0 083#0000000000017EFB
(1494966949.738962) can0 167#80800009FFE00000
(1494966949.740337) can0 3BC#0C000C8901002700
(1494966949.740586) can0 3BE#0001E7CE7C064900
(1494966949.741963) can0 3C4#5754F8400000939E
(1494966949.743337) can0 42A#B90000E000000000
(1494966949.743462) can0 42C#055175002D3E6C40
(1494966949.746088) can0 216#000000008200082D
(1494966949.746212) can0 42E#170000E0000FA2F1
(1494966949.748963) can0 167#80800009FFE00000
(1494966949.759091) can0 167#80800009FFE00000
(1494966949.764215) can0 216#0000000082000931
(1494966949.765590) can0 3A4#0000000000000000
(1494966949.766966) can0 3A5#0000000000000000
(1494966949.767213) can0 3AC#FFFFFFFFFFFFFFFF
(1494966949.768590) can0 167#80800009FFE00000
(1494966949.768963) can0 3AD#FFFFFFFFFFFFFFFF
(1494966949.774092) can0 33B#0000000000000000
(1494966949.778215) can0 167#80800009FFE00000
(1494966949.784593) can0 216#0000000082000A34
(1494966949.787466) can0 083#0000000000017F01
(1494966949.788971) can0 167#80800009FFE00000
(1494966949.789092) can0 3BC#0C00088901002700
(1494966949.790468) can0 42A#B90000E000000000
(1494966949.791843) can0 42C#055154002D066C00
(1494966949.791968) can0 42E#130000E00003A2C0
(1494966949.797217) can0 505#0B12000000000000
(1494966949.798595) can0 167#80800009FFE00000
(1494966949.804973) can0 216#0000000082000B43
(1494966949.807597) can0 333#0000000000000000
(1494966949.807844) can0 167#80800009FFE00000
(1494966949.810471) can0 326#81A02625F9D00178
(1494966949.815727) can0 3A4#0000000000000000
(1494966949.815969) can0 3A5#0000000000000000
(1494966949.817347) can0 3AC#FFFFFFFFFFFFFFFF
(1494966949.818722) can0 3AD#FFFFFFFFFFFFFFFF
(1494966949.818847) can0 167#80800009FFE00000
(1494966949.820222) can0 332#0000000000000000
(1494966949.821722) can0 346#000000030300C000
(1494966949.821847) can0 33A#0000000000000000
(1494966949.823222) can0 348#0000000000000000
(1494966949.824597) can0 33F#0200200000000000
(1494966949.824724) can0 216#0000000082000C36
(1494966949.828724) can0 167#80800009FFE00000
(1494966949.833977) can0 178#012901E20E4DC64D
(1494966949.833988) can0 33B#0000000000000000
(1494966949.839100) can0 083#0000000000017F02
(1494966949.839225) can0 167#80800009FFE00000
(1494966949.840600) can0 3BC#0C000C8901002700
(1494966949.840727) can0 3BE#0001E7CE7C064900
(1494966949.842224) can0 42A#B90000E000000000
(1494966949.842598) can0 42C#055175002D3E6C40
(1494966949.843975) can0 42E#170000E0000FA2F1
(1494966949.845351) can0 216#0000000082000D30
(1494966949.847977) can0 167#80800009FFE00000
(1494966949.858224) can0 167#80800009FFE00000
(1494966949.864603) can0 216#0000000082000E32
(1494966949.865979) can0 3A4#0000000000000000
(1494966949.866104) can0 3A5#0000000000000000
(1494966949.867478) can0 3AC#FFFFFFFFFFFFFFFF
(1494966949.868858) can0 3AD#FFFFFFFFFFFFFFFF
(1494966949.869101) can0 167#80800009FFE00000
(1494966949.870478) can0 3B6#08000A0000000000
(1494966949.871854) can0 3B7#0000000060C801CE
(1494966949.878354) can0 167#80800009FFE00000
(1494966949.884738) can0 216#0000000082000F2D
(1494966949.887479) can0 083#0000000000017F00
(1494966949.888981) can0 167#80800009FFE00000
(1494966949.889105) can0 3BC#0C00088901002700
(1494966949.890481) can0 42A#B90000E000000000
(1494966949.891856) can0 42C#055154002D066C00
(1494966949.891982) can0 42E#130000E00003A2C0
(1494966949.894607) can0 33B#0000000000000000
(1494966949.898608) can0 50B#1E12000000000000
(1494966949.898620) can0 167#80800009FFE00000
(1494966949.904984) can0 216#0000000082001041
(1494966949.907609) can0 333#0000000000000000
(1494966949.907856) can0 167#80800009FFE00000
(1494966949.910484) can0 326#81A02625F9D00178
(1494966949.915739) can0 3A4#0000000000000000
(1494966949.915982) can0 3A5#0000000000000000
(1494966949.917360) can0 3A6#0E400A045F700000
(1494966949.918735) can0 3A7#0E400A045F700000
(1494966949.918860) can0 167#80800009FFE00000
(1494966949.920235) can0 332#0000000000000000
(1494966949.921735) can0 346#000000030300C000
(1494966949.921859) can0 33A#0000000000000000
(1494966949.923235) can0 348#0000000000000000
(1494966949.924611) can0 3AC#FFFFFFFFFFFFFFFF
(1494966949.924737) can0 216#0000000082001146
(1494966949.926112) can0 3AD#FFFFFFFFFFFFFFFF
(1494966949.927610) can0 40A#C104010107CC70C1
(1494966949.928986) can0 167#80800009FFE00000
(1494966949.934113) can0 178#012901E20E4DC64D
(1494966949.937990) can0 083#0000000000017F02
(1494966949.939363) can0 167#80800009FFE00000
(1494966949.939489) can0 3BC#0C000C8901002700
(1494966949.942114) can0 3BE#0001E7CE7C064900
(1494966949.942239) can0 3C4#5754F8000000939E
(1494966949.942250) can0 3D5#4121094000000000
(1494966949.943739) can0 42A#B90000E000000000
(1494966949.945239) can0 216#0000000082001200
(1494966949.945362) can0 42C#055175002D3E6C40
(1494966949.946740) can0 42E#170000E0000FA2F1
(1494966949.948114) can0 167#80800009FFE00000
(1494966949.954615) can0 33B#0000000000000000
(1494966949.958496) can0 167#80800009FFE00000
(1494966949.964870) can0 216#0000000082001300
(1494966949.965111) can0 3A4#0000000000000000
(1494966949.966490) can0 3A5#0000000000000000
(1494966949.967864) can0 3AC#FFFFFFFFFFFFFFFF
(1494966949.967989) can0 167#80800009FFE00000
(1494966949.969364) can0 3AD#FFFFFFFFFFFFFFFF
(1494966949.979504) can0 167#80800009FFE00000
(1494966949.984742) can0 216#0000000082001454
(1494966949.987490) can0 083#0000000000017EFD
(1494966949.988990) can0 167#80800009FFE00000
(1494966949.989115) can0 3BC#0C00088901002700
(1494966949.990492) can0 42A#B90000E000000000
(1494966949.991869) can0 42C#055154002D066C00
(1494966949.992115) can0 42E#130000E00003A2C0
(1494966949.997371) can0 51E#3B02000000000000
(1494966949.998869) can0 167#80800009FFE00000
(1494966950.003997) can0 216#0000000082001551
(1494966950.007878) can0 333#0000000000000000
(1494966950.007998) can0 167#80800009FFE00000
(1494966950.011996) can0 326#81A02625F9D00178
(1494966950.014624) can0 33B#0000000000000000
(1494966950.014996) can0 3A4#0000000000000000
(1494966950.016374) can0 3A5#0000000000000000
(1494966950.017749) can0 3AC#FFFFFFFFFFFFFFFF
(1494966950.017996) can0 332#0000000000000000
(1494966950.019498) can0 167#80800009FFE00000
(1494966950.020876) can0 33A#0000000000000000
(1494966950.020998) can0 346#000000030300C000
(1494966950.022374) can0 348#0000000000000000
(1494966950.023751) can0 3AD#FFFFFFFFFFFFFFFF
(1494966950.023997) can0 216#0000000082001655
(1494966950.029250) can0 167#80800009FFE00000
(1494966950.033126) can0 178#012901E20E4DC64D
(1494966950.038252) can0 083#0000000000017EFE
(1494966950.039627) can0 167#80800009FFE00000
(1494966950.039753) can0 2FD#D400E30000000000
(1494966950.041249) can0 3BC#0C000C8901002700
(1494966950.041623) can0 3BE#0001E7CE7C064900
(1494966950.043002) can0 42A#B90000E000000000
(1494966950.044377) can0 42C#055175002D3E6C40
(1494966950.044503) can0 216#0000000082001755
(1494966950.047128) can0 42E#170000E0000FA2F1
(1494966950.048625) can0 167#80800009FFE00000
(1494966950.058752) can0 167#80800009FFE00000
(1494966950.065127) can0 216#0000000082001854
(1494966950.065254) can0 3A4#0000000000000000
(1494966950.066628) can0 3A5#0000000000000000
(1494966950.067001) can0 3AC#FFFFFFFFFFFFFFFF
(1494966950.068500) can0 167#80800009FFE00000
(1494966950.069878) can0 3AD#FFFFFFFFFFFFFFFF
(1494966950.071252) can0 358#001C000000000000
(1494966950.075128) can0 33B#0000000000000000
(1494966950.079005) can0 167#80800009FFE00000
(1494966950.080379) can0 1E6#800CE2CE00000000
(1494966950.084377) can0 216#0000000082001910
(1494966950.087007) can0 083#0000000000017F02
(1494966950.088384) can0 167#80800009FFE00000
(1494966950.089758) can0 3BC#0C00088901002700
(1494966950.090006) can0 42A#B90000E000000000
(1494966950.091383) can0 42C#055154002D066C00
(1494966950.092886) can0 42E#130000E00003A2C0
(1494966950.095632) can0 53B#5D12000000000000
(1494966950.097132) can0 34E#0000000000000000
(1494966950.098510) can0 167#80800009FFE00000
(1494966950.101135) can0 358#001C000000000000
(1494966950.105010) can0 216#0000000082001A55
(1494966950.107759) can0 333#0000000000000000
(1494966950.107885) can0 167#80800009FFE00000
(1494966950.111761) can0 326#81A02625F9D00178
(1494966950.111886) can0 356#12BC373137310000
(1494966950.115768) can0 3A4#0000000000000000
(1494966950.116010) can0 3A5#0000000000000000
(1494966950.117510) can0 3A6#0E400A045F700000
(1494966950.118886) can0 3A7#0E400A045F700000
(1494966950.119012) can0 332#0000000000000000
(1494966950.120387) can0 3AC#FFFFFFFFFFFFFFFF
(1494966950.121762) can0 33A#0000000000000000
(1494966950.122009) can0 3AD#FFFFFFFFFFFFFFFF
(1494966950.123387) can0 3B6#08000B0000000000
(1494966950.124769) can0 3B7#0000010060C80084
(1494966950.124890) can0 167#80800009FFE00000
(1494966950.126263) can0 216#0000000082001B55
(1494966950.127638) can0 346#000000030300C000
(1494966950.127886) can0 348#0000000000000000
(1494966950.129263) can0 3E2#0000000080000000
(1494966950.130638) can0 167#80800009FFE00000
(1494966950.130763) can0 3EB#1F04140000200000
(1494966950.132139) can0 358#0000000000000000
(1494966950.133513) can0 40A#C110418820250000
(1494966950.133762) can0 178#012901E20E4DC64D
(1494966950.135139) can0 33B#0000000000000000
(1494966950.139017) can0 083#0000000000017F05
(1494966950.139140) can0 167#80800009FFE00000
(1494966950.140515) can0 3BC#0C000C8901002700
(1494966950.140640) can0 3BE#0001E7CE7C064901
(1494966950.142138) can0 3C4#5754F8000000939E
(1494966950.142513) can0 42A#B90000E000000000
(1494966950.145140) can0 42C#055175002D3F6D40
(1494966950.145266) can0 216#0000000082001C00
(1494966950.145388) can0 42E#170000E0000FA2F1
(1494966950.148017) can0 167#80800009FFE00000
(1494966950.158264) can0 167#80800009FFE00000
(1494966950.164642) can0 216#0000000082001D15
(1494966950.164891) can0 3B4#401111FF23230000
(1494966950.166266) can0 3A4#0000000000000000
(1494966950.167644) can0 3A5#0000000000000000
(1494966950.167894) can0 167#80800009FFE00000
(1494966950.169392) can0 3AC#FFFFFFFFFFFFFFFF
(1494966950.170769) can0 3AD#FFFFFFFFFFFFFFFF
(1494966950.172268) can0 356#02BC373137310000
(1494966950.178644) can0 167#80800009FFE00000
(1494966950.182517) can0 55D#0402000000000000
(1494966950.185142) can0 216#0000000082001E55
(1494966950.187896) can0 083#0000000000017F01
(1494966950.188021) can0 167#80800009FFE00000
(1494966950.189396) can0 3BC#0C00088901002700
(1494966950.190771) can0 42A#B90000E000000000
(1494966950.190896) can0 42C#055154002D066C00
(1494966950.192271) can0 42E#130000E00003A2C0
(1494966950.194897) can0 33B#0000000000000000
(1494966950.198774) can0 167#80800009FFE00000
(1494966950.205148) can0 216#0000000082001F11
(1494966950.207775) can0 333#0000000000000000
(1494966950.207899) can0 167#80800009FFE00000
(1494966950.213149) can0 326#81A02625F9D00178
(1494966950.215782) can0 3A4#0000000000000000
(1494966950.216023) can0 3A5#0000000000000000
(1494966950.217399) can0 3AC#FFFFFFFFFFFFFFFF
(1494966950.218775) can0 332#0000000000000000
(1494966950.219023) can0 167#80800009FFE00000
(1494966950.220522) can0 33A#0000000000000000
(1494966950.221902) can0 346#000000030300C000
(1494966950.222026) can0 3AD#FFFFFFFFFFFFFFFF
(1494966950.223400) can0 348#0000000000000000
(1494966950.224777) can0 3B3#4588C00C10040222
(1494966950.224904) can0 216#0000000082002051
(1494966950.226399) can0 3C3#5CC8000000000100
(1494966950.229148) can0 167#80800009FFE00000
(1494966950.233027) can0 178#012901E20E4DC64D
(1494966950.238154) can0 083#0000000000017F00
(1494966950.239527) can0 167#80800009FFE00000
(1494966950.239652) can0 3BC#0C000C8901002700
(1494966950.241152) can0 3BE#0001E7CE7C064900
(1494966950.242527) can0 42A#B90000E000000000
(1494966950.242653) can0 42C#055175002D3E6C40
(1494966950.244028) can0 42E#170000E0000FA2F1
(1494966950.245403) can0 216#0000000082002115
(1494966950.248030) can0 167#80800009FFE00000
(1494966950.255778) can0 33B#0000000000000000
(1494966950.258409) can0 167#80800009FFE00000
(1494966950.264778) can0 216#0000000082002215
(1494966950.265025) can0 3A4#0000000000000000
(1494966950.266405) can0 3A5#0000000000000000
(1494966950.267778) can0 3AC#FFFFFFFFFFFFFFFF
(1494966950.268029) can0 167#80800009FFE00000
(1494966950.269405) can0 3AD#FFFFFFFFFFFFFFFF
(1494966950.278281) can0 504#0512000000000000
(1494966950.279658) can0 167#80800009FFE00000
(1494966950.284791) can0 216#0000000082002340
(1494966950.287410) can0 083#0000000000017F01
(1494966950.288912) can0 167#80800009FFE00000
(1494966950.289034) can0 3BC#0C00088901002700
(1494966950.290410) can0 42A#B90000E000000000
(1494966950.291784) can0 42C#055154002D066C00
(1494966950.291910) can0 42E#130000E00003A2C0
(1494966950.298408) can0 167#80800009FFE00000
(1494966950.304788) can0 216#0000000082000000
(1494966950.307412) can0 333#0000000000000000
(1494966950.308789) can0 167#80800009FFE00000
(1494966950.312663) can0 124#0202000000000000
(1494966950.312910) can0 22C#000A000000000000
(1494966950.314410) can0 326#81A02625F9D00178
(1494966950.315793) can0 33B#0000000000000000
(1494966950.315913) can0 355#60071DA0008800E0
(1494966950.317288) can0 356#02BC373137310000
(1494966950.318663) can0 35E#00C0003896673000
(1494966950.318788) can0 167#80800009FFE00000
(1494966950.320286) can0 332#0000000000000000
(1494966950.320661) can0 346#000000030300C000
(1494966950.322038) can0 33A#0000000000000000
(1494966950.323414) can0 348#0000000000000000
(1494966950.323661) can0 3A4#0000000000000000
(1494966950.325041) can0 216#0000000082000100
(1494966950.326539) can0 3A5#0000000000000000
(1494966950.326551) can0 3A6#0E400A045F700000
(1494966950.329164) can0 3A7#0E400A045F700000
(1494966950.329290) can0 3AC#FFFFFFFFFFFFFFFF
(1494966950.329537) can0 167#80800009FFE00000
(1494966950.332166) can0 3AD#FFFFFFFFFFFFFFFF
(1494966950.332414) can0 3E7#0000000000000000
(1494966950.332425) can0 40A#C000000336EBC800
(1494966950.335040) can0 178#012901E20E4DC64D
(1494966950.335165) can0 41A#7600000000000000
(1494966950.339044) can0 083#0000000000017EFC
(1494966950.339167) can0 167#80800009FFE00000
(1494966950.340665) can0 3BC#0C000C8901002700
(1494966950.340677) can0 3BE#0001E7CE7C064900
(1494966950.342042) can0 3C4#5754F8000000939E
(1494966950.343417) can0 42A#B90000E000000000
(1494966950.343541) can0 42C#055175002D3E6C40
(1494966950.345043) can0 216#00000000820002FA
(1494966950.345291) can0 42E#170000E0000FA2F1
(1494966950.349169) can0 167#80800009FFE00000
(1494966950.358045) can0 167#80800009FFE00000
(1494966950.364420) can0 216#00000000820003B3
(1494966950.365801) can0 331#C0004B9B044A1002
(1494966950.366042) can0 3A4#0000000000000000
(1494966950.367419) can0 3A5#0000000000000000
(1494966950.368797) can0 3AC#FFFFFFFFFFFFFFFF
(1494966950.368924) can0 167#80800009FFE00000
(1494966950.370295) can0 3AD#FFFFFFFFFFFFFFFF
(1494966950.371670) can0 3B6#080000003055BD91
(1494966950.371918) can0 3B7#0000020060C8022D
(1494966950.374546) can0 33B#0000000000000000
(1494966950.377172) can0 505#0B12000000000000
(1494966950.378670) can0 167#80800009FFE00000
(1494966950.385047) can0 216#0000000082000448
(1494966950.387673) can0 083#0000000000017F01
(1494966950.389172) can0 167#80800009FFE00000
(1494966950.389184) can0 3BC#0C00088901002700
(1494966950.390547) can0 42A#B90000E000000000
(1494966950.391926) can0 42C#055154002D066C00
(1494966950.392048) can0 42E#130000E00003A2C0
(1494966950.397174) can0 331#C0004B9C044A1002
(1494966950.399921) can0 167#80800009FFE00000
(1494966950.405051) can0 216#0000000082000547
(1494966950.407677) can0 333#0000000000000000
(1494966950.407927) can0 167#80800009FFE00000
(1494966950.413055) can0 326#81A02625F9D00178
(1494966950.415682) can0 3A4#0000000000000000
(1494966950.417176) can0 3A5#0000000000000000
(1494966950.417188) can0 3AC#FFFFFFFFFFFFFFFF
(1494966950.418552) can0 167#80800009FFE00000
(1494966950.419926) can0 332#0000000000000000
(1494966950.420052) can0 346#000000030300C000
(1494966950.421427) can0 33A#0000000000000000
(1494966950.422926) can0 348#0000000000000000
(1494966950.423051) can0 3AD#FFFFFFFFFFFFFFFF
(1494966950.424428) can0 216#0000000082000639
(1494966950.428426) can0 167#80800009FFE00000
(1494966950.429928) can0 304#0800000000000000
(1494966950.433805) can0 178#012901E20E4DC64D
(1494966950.434053) can0 33B#0000000000000000
(1494966950.439181) can0 083#0000000000017F03
(1494966950.439304) can0 167#80800009FFE00000
(1494966950.439676) can0 3BC#0C000C8901002700
(1494966950.441055) can0 3BE#0001E7CE7C064900
(1494966950.442430) can0 42A#B90000E000000000
(1494966950.442555) can0 42C#055175002D3E6C40
(1494966950.445181) can0 42E#170000E0000FA2F1
(1494966950.445305) can0 216#0000000082000743
(1494966950.449182) can0 167#80800009FFE00000
(1494966950.458058) can0 167#80800009FFE00000
(1494966950.460812) can0 35D#0000000000000000
(1494966950.464683) can0 216#000000008200082D
(1494966950.466059) can0 3A4#0000000000000000
(1494966950.466182) can0 3A5#0000000000000000
(1494966950.467558) can0 3AC#FFFFFFFFFFFFFFFF
(1494966950.468937) can0 167#80800009FFE00000
(1494966950.469181) can0 3AD#FFFFFFFFFFFFFFFF
(1494966950.478061) can0 167#80800009FFE00000
(1494966950.479435) can0 50B#1E12000000000000
(1494966950.484560) can0 216#0000000082000931
(1494966950.487187) can0 083#0000000000017F02
(1494966950.488561) can0 3BC#0C00088901002700
(1494966950.490060) can0 167#80800009FFE00000
(1494966950.490072) can0 42A#B90000E000000000
(1494966950.491436) can0 42C#055154002D066C00
(1494966950.492818) can0 42E#130000E00003A2C0
(1494966950.494186) can0 33B#0000000000000000
(1494966950.498064) can0 167#80800009FFE00000
(1494966950.504561) can0 216#0000000082000A34
(1494966950.507188) can0 333#0000000000000000
(1494966950.508563) can0 167#80800009FFE00000
(1494966950.513689) can0 2A0#FFFFFFFF00001E00
(1494966950.513937) can0 326#81A02625F9D00178
(1494966950.515314) can0 3A4#0000000000000000
(1494966950.516815) can0 3A5#0000000000000000
(1494966950.517062) can0 3A6#0E400A045F700000
(1494966950.518439) can0 332#0000000000000000
(1494966950.519816) can0 167#80800009FFE00000
(1494966950.520064) can0 33A#0000000000000000
(1494966950.521440) can0 346#000000030300C000
(1494966950.522939) can0 348#0000000000000000
(1494966950.522951) can0 3A7#0E400A045F700000
(1494966950.524316) can0 3AC#FFFFFFFFFFFFFFFF
(1494966950.525696) can0 216#0000000082000B43
(1494966950.525940) can0 3AD#FFFFFFFFFFFFFFFF
(1494966950.527315) can0 40A#C100334641365030
(1494966950.530065) can0 3E1#8000010701800000
(1494966950.530077) can0 167#80800009FFE00000
(1494966950.533943) can0 178#012901E20E4DC64D
(1494966950.539070) can0 083#0000000000017F01
(1494966950.539196) can0 167#80800009FFE00000
(1494966950.539564) can0 3BC#0C000C8901002700
(1494966950.542193) can0 3BE#0001E7CE7C064900
(1494966950.542318) can0 3C4#5754F8300000939E
(1494966950.542330) can0 42A#B90000E000000000
(1494966950.543816) can0 42C#055175002D3E6C40
(1494966950.545317) can0 216#0000000082000C36
(1494966950.545442) can0 42E#170000E0000FA2F1
(1494966950.548070) can0 167#80800009FFE00000
(1494966950.555701) can0 33B#0000000000000000
(1494966950.558322) can0 167#80800009FFE00000
(1494966950.564696) can0 216#0000000082000D30
(1494966950.566072) can0 3A5#0000000000000000
(1494966950.566318) can0 3A4#0000000000000000
(1494966950.567696) can0 3AC#FFFFFFFFFFFFFFFF
(1494966950.569072) can0 167#80800009FFE00000
(1494966950.569196) can0 3AD#FFFFFFFFFFFFFFFF
(1494966950.578197) can0 51E#3B02000000000000
(1494966950.578322) can0 167#80800009FFE00000
(1494966950.584822) can0 216#0000000082000E32
(1494966950.587449) can0 083#0000000000017F00
(1494966950.588832) can0 167#80800009FFE00000
(1494966950.589075) can0 3BC#0C00088901002700
(1494966950.590449) can0 42A#B90000E000000000
(1494966950.591824) can0 42C#055154002D066C00
(1494966950.592073) can0 42E#130000E00003A2C0
(1494966950.597201) can0 084#1100008823310C00
(1494966950.598575) can0 167#80800009FFE00000
(1494966950.604955) can0 216#0000000082000F2D
(1494966950.607577) can0 333#0000000000000000
(1494966950.607949) can0 33C#2400000000000000
(1494966950.609451) can0 167#80800009FFE00000
(1494966950.614578) can0 326#81A02625F9D00178
(1494966950.614703) can0 33B#0000000000000000
(1494966950.616079) can0 3A4#0000000000000000
(1494966950.617452) can0 3A5#0000000000000000
(1494966950.617578) can0 3AC#FFFFFFFFFFFFFFFF
(1494966950.620329) can0 167#80800009FFE00000
(1494966950.620340) can0 332#0000000000000000
(1494966950.620452) can0 3AD#FFFFFFFFFFFFFFFF
(1494966950.621953) can0 33A#0000000000000000
(1494966950.622326) can0 3B6#0800010030734849
(1494966950.623950) can0 3B7#0000030060C8017C
(1494966950.624325) can0 346#000000030300C000
(1494966950.625826) can0 216#0000000082001041
(1494966950.627328) can0 348#0000000000000000
(1494966950.627340) can0 3DE#0000000080000000
(1494966950.628704) can0 167#80800009FFE00000
(1494966950.630202) can0 3E0#0000000080000000
(1494966950.634080) can0 178#012901E20E4DC64D
(1494966950.639207) can0 083#0000000000017F02
(1494966950.639331) can0 167#80800009FFE00000
(1494966950.639578) can0 3BC#0C000C8901002700
(1494966950.642206) can0 3BE#0001E7CE7C064900
(1494966950.642454) can0 42A#B90000E000000000
(1494966950.642466) can0 42C#055175002D3E6C40
(1494966950.645082) can0 42E#170000E0000FA2F1
(1494966950.645206) can0 216#0000000082001146
(1494966950.649084) can0 167#80800009FFE00000
(1494966950.654208) can0 3E7#0000000000000000
(1494966950.658207) can0 167#80800009FFE00000
(1494966950.664583) can0 216#0000000082001200
(1494966950.665961) can0 3A4#0000000000000000
(1494966950.666207) can0 3A5#0000000000000000
(1494966950.667585) can0 3AC#FFFFFFFFFFFFFFFF
(1494966950.668962) can0 167#80800009FFE00000
(1494966950.669208) can0 3AD#FFFFFFFFFFFFFFFF
(1494966950.674335) can0 33B#0000000000000000
(1494966950.676966) can0 53B#5D12000000000000
(1494966950.678336) can0 167#80800009FFE00000
(1494966950.684711) can0 216#0000000082001300
(1494966950.687338) can0 083#0000000000017F02
(1494966950.688838) can0 3BC#0C00088901002700
(1494966950.688964) can0 167#80800009FFE00000
(1494966950.690337) can0 42A#B90000E000000000
(1494966950.691712) can0 42C#055154002D066C00
(1494966950.691838) can0 42E#130000E00003A2C0
(1494966950.698215) can0 167#80800009FFE00000
(1494966950.704713) can0 216#0000000082001454
(1494966950.707341) can0 333#0000000000000000
(1494966950.708711) can0 167#80800009FFE00000
(1494966950.715087) can0 326#81A02625F9D00178
(1494966950.715212) can0 3A4#0000000000000000
(1494966950.716591) can0 3A5#0000000000000000
(1494966950.717967) can0 3A6#0E400A045F700000
(1494966950.718090) can0 332#0000000000000000
(1494966950.719465) can0 167#80800009FFE00000
(1494966950.720841) can0 33A#0000000000000000
(1494966950.721088) can0 346#000000030300C000
(1494966950.722587) can0 3A7#0E400A045F700000
(1494966950.723965) can0 348#0000000000000000
(1494966950.724091) can0 3AC#FFFFFFFFFFFFFFFF
(1494966950.725466) can0 216#0000000082001551
(1494966950.726848) can0 3AD#FFFFFFFFFFFFFFFF
(1494966950.726968) can0 3B3#4588C00C10040222
(1494966950.728465) can0 40A#C1014C5534485233
(1494966950.728839) can0 167#80800009FFE00000
(1494966950.733970) can0 178#012901E20E4DC64D
(1494966950.734341) can0 33B#0000000000000000
(1494966950.738221) can0 083#0000000000017EFF
(1494966950.738467) can0 167#80800009FFE00000
(1494966950.741218) can0 3BC#0C000C8901002700
(1494966950.741230) can0 3BE#0001E7CE7C064900
(1494966950.741343) can0 3C4#5754F8400000939E
(1494966950.742842) can0 42A#B90000E000000000
(1494966950.744343) can0 42C#055175002D3E6C40
(1494966950.744355) can0 216#0000000082001655
(1494966950.745843) can0 42E#170000E0000FA2F1
(1494966950.748469) can0 167#80800009FFE00000
(1494966950.758598) can0 167#80800009FFE00000
(1494966950.764974) can0 216#0000000082001755
(1494966950.765100) can0 55D#0402000000000000
(1494966950.766473) can0 3A4#0000000000000000
(1494966950.767972) can0 3A5#0000000000000000
(1494966950.767985) can0 167#80800009FFE00000
(1494966950.769348) can0 3AC#FFFFFFFFFFFFFFFF
(1494966950.770723) can0 3AD#FFFFFFFFFFFFFFFF
(1494966950.778350) can0 167#80800009FFE00000
(1494966950.784725) can0 216#0000000082001854
(1494966950.787474) can0 083#0000000000017EFC
(1494966950.788852) can0 3BC#0C00088901002700
(1494966950.788979) can0 167#80800009FFE00000
(1494966950.790350) can0 42A#B90000E000000000
(1494966950.791726) can0 42C#055154002D066C00
(1494966950.791852) can0 42E#130000E00003A2C0
(1494966950.794600) can0 33B#0000000000000000
(1494966950.798599) can0 167#80800009FFE00000
(1494966950.804980) can0 216#0000000082001910
(1494966950.807603) can0 333#0000000000000000
(1494966950.807978) can0 167#80800009FFE00000
(1494966950.815733) can0 326#81A02625F9D00178
(1494966950.815745) can0 3A4#0000000000000000
(1494966950.817104) can0 3A5#0000000000000000
(1494966950.818479) can0 3AC#FFFFFFFFFFFFFFFF
(1494966950.818604) can0 167#80800009FFE00000
(1494966950.821229) can0 332#0000000000000000
(1494966950.821479) can0 346#000000030300C000
(1494966950.821490) can0 33A#0000000000000000
(1494966950.822978) can0 348#0000000000000000
(1494966950.823353) can0 33F#0200200000000000
(1494966950.824852) can0 216#0000000082001A55
(1494966950.826353) can0 3AD#FFFFFFFFFFFFFFFF
(1494966950.830353) can0 167#80800009FFE00000
(1494966950.834231) can0 178#012901E20E4DC64D
(1494966950.838108) can0 083#0000000000017F02
(1494966950.838479) can0 167#80800009FFE00000
(1494966950.839983) can0 3BC#0C000C8901002700
(1494966950.840355) can0 3BE#0001E7CE7C064900
(1494966950.841855) can0 42A#B90000E000000000
(1494966950.843232) can0 42C#055175002D3E6C40
(1494966950.843357) can0 42E#170000E0000FA2F1
(1494966950.844732) can0 216#0000000082001B55
(1494966950.848610) can0 167#80800009FFE00000
(1494966950.856235) can0 33B#0000000000000000
(1494966950.858983) can0 504#0512000000000000
(1494966950.858995) can0 167#80800009FFE00000
(1494966950.864110) can0 216#0000000082001C00
(1494966950.865485) can0 3B6#0800020000000000
(1494966950.866861) can0 3A4#0000000000000000
(1494966950.866985) can0 3A5#0000000000000000
(1494966950.868484) can0 3AC#FFFFFFFFFFFFFFFF
(1494966950.869861) can0 167#80800009FFE00000
(1494966950.869987) can0 3AD#FFFFFFFFFFFFFFFF
(1494966950.871361) can0 3B7#0000000060C801CE
(1494966950.878988) can0 167#80800009FFE00000
(1494966950.884112) can0 216#0000000082001D15
(1494966950.888112) can0 083#0000000000017F00
(1494966950.888124) can0 3BC#0C00088901002700
(1494966950.889488) can0 167#80800009FFE00000
(1494966950.890863) can0 42A#B90000E000000000
(1494966950.890989) can0 42C#055154002D066C00
(1494966950.892486) can0 42E#130000E00003A2C0
(1494966950.898865) can0 167#80800009FFE00000
(1494966950.905240) can0 216#0000000082001E55
(1494966950.907866) can0 333#0000000000000000
(1494966950.907992) can0 167#80800009FFE00000
(1494966950.914489) can0 33B#0000000000000000
(1494966950.915990) can0 326#81A02625F9D00178
(1494966950.916239) can0 3A4#0000000000000000
(1494966950.917617) can0 3A5#0000000000000000
(1494966950.918992) can0 332#0000000000000000
(1494966950.919117) can0 167#80800009FFE00000
(1494966950.920492) can0 33A#0000000000000000
(1494966950.921991) can0 346#000000030300C000
(1494966950.922116) can0 348#0000000000000000
(1494966950.923493) can0 3A6#0E400A045F700000
(1494966950.924875) can0 3A7#0E400A045F700000
(1494966950.924996) can0 216#0000000082001F11
(1494966950.926370) can0 3AC#FFFFFFFFFFFFFFFF
(1494966950.927868) can0 3AD#FFFFFFFFFFFFFFFF
(1494966950.927992) can0 40A#C1023130353736FF
(1494966950.929369) can0 167#80800009FFE00000
(1494966950.933244) can0 178#012901E20E4DC64D
(1494966950.937367) can0 083#0000000000017F00
(1494966950.938867) can0 167#80800009FFE00000
(1494966950.940369) can0 3BC#0C000C8901002700
(1494966950.940380) can0 3BE#0001E7CE7C064900
(1494966950.941746) can0 3C4#5754F8000000939E
(1494966950.942118) can0 3D5#4121094000000000
(1494966950.943499) can0 42A#B90000E000000000
(1494966950.944872) can0 42C#055175002D3E6C40
(1494966950.945119) can0 216#0000000082002051
(1494966950.946497) can0 42E#170000E0000FA2F1
(1494966950.949122) can0 167#80800009FFE00000
(1494966950.958000) can0 505#0B12000000000000
(1494966950.958123) can0 167#80800009FFE00000
(1494966950.964499) can0 216#0000000082002115
(1494966950.965999) can0 3A5#0000000000000000
(1494966950.966495) can0 3A4#0000000000000000
(1494966950.968000) can0 3AC#FFFFFFFFFFFFFFFF
(1494966950.968372) can0 167#80800009FFE00000
(1494966950.969872) can0 3AD#FFFFFFFFFFFFFFFF
(1494966950.975122) can0 33B#0000000000000000
(1494966950.979001) can0 167#80800009FFE00000
(1494966950.984126) can0 216#0000000082002215
(1494966950.988002) can0 083#0000000000017F01
(1494966950.988249) can0 167#80800009FFE00000
(1494966950.989626) can0 3BC#0C00088901002700
(1494966950.991125) can0 42A#B90000E000000000
(1494966950.991136) can0 42C#055154002D066C00
(1494966950.992501) can0 42E#130000E00003A2C0
(1494966950.998879) can0 167#80800009FFE00000
(1494966951.005253) can0 216#0000000082002340
(1494966951.007880) can0 333#0000000000000000
(1494966951.008126) can0 167#80800009FFE00000
(1494966951.015879) can0 3A4#0000000000000000
(1494966951.016253) can0 326#81A02625F9D00178
(1494966951.017629) can0 3A5#0000000000000000
(1494966951.019005) can0 332#0000000000000000
(1494966951.019133) can0 167#80800009FFE00000
(1494966951.020628) can0 33A#0000000000000000
(1494966951.022006) can0 346#000000030300C000
(1494966951.022131) can0 348#0000000000000000
(1494966951.023506) can0 3AC#FFFFFFFFFFFFFFFF
(1494966951.024882) can0 216#0000000082000000
(1494966951.025129) can0 3AD#FFFFFFFFFFFFFFFF
(1494966951.029255) can0 167#80800009FFE00000
(1494966951.033132) can0 178#012901E20E4DC64D
(1494966951.034630) can0 33B#0000000000000000
(1494966951.038509) can0 083#0000000000017F01
(1494966951.038633) can0 167#80800009FFE00000
(1494966951.041258) can0 2FD#D400E30000000000
(1494966951.041507) can0 3BC#0C000C8901002700
(1494966951.041519) can0 3BE#0001E7CE7C064900
(1494966951.043007) can0 42A#B90000E000000000
(1494966951.043381) can0 42C#055175002D3E6C40
(1494966951.044883) can0 216#0000000082000100
(1494966951.046260) can0 42E#170000E0000FA2F1
(1494966951.049008) can0 167#80800009FFE00000
(1494966951.059137) can0 167#80800009FFE00000
(1494966951.059261) can0 50B#1E12000000000000
(1494966951.064386) can0 216#00000000820002FA
(1494966951.065884) can0 3A4#0000000000000000
(1494966951.067384) can0 3A5#0000000000000000
(1494966951.067512) can0 3AC#FFFFFFFFFFFFFFFF
(1494966951.068894) can0 167#80800009FFE00000
(1494966951.070261) can0 3AD#FFFFFFFFFFFFFFFF
(1494966951.079140) can0 167#80800009FFE00000
(1494966951.079264) can0 1E6#800CE2CE00000000
(1494966951.084511) can0 216#00000000820003B3
(1494966951.087140) can0 083#0000000000017EFF
(1494966951.088514) can0 3BC#0C00088901002700
(1494966951.089890) can0 167#80800009FFE00000
(1494966951.090014) can0 42A#B90000E000000000
(1494966951.091389) can0 42C#055154002D066C00
(1494966951.092890) can0 42E#130000E00003A2C0
(1494966951.094388) can0 33B#0000000000000000
(1494966951.097016) can0 34E#0000000000000000
(1494966951.097140) can0 358#0000000000000000
(1494966951.098515) can0 167#80800009FFE00000
(1494966951.104893) can0 216#0000000082000448
(1494966951.107640) can0 333#0000000000000000
(1494966951.107889) can0 167#80800009FFE00000
(1494966951.115707) can0 3A4#0000000000000000
(1494966951.117023) can0 326#81A02625F9D00178
(1494966951.117266) can0 3A5#0000000000000000
(1494966951.118643) can0 332#0000000000000000
(1494966951.120142) can0 3A6#0E400A045F700000
(1494966951.120154) can0 33A#0000000000000000
(1494966951.121519) can0 3A7#0E400A045F700000
(1494966951.122894) can0 3AC#FFFFFFFFFFFFFFFF
(1494966951.123142) can0 3AD#FFFFFFFFFFFFFFFF
(1494966951.124519) can0 3B6#0800030000000000
(1494966951.126019) can0 3B7#0000010060C80084
(1494966951.126031) can0 167#80800009FFE00000
(1494966951.127394) can0 216#0000000082000547
(1494966951.128769) can0 346#000000030300C000
(1494966951.129017) can0 348#0000000000000000
(1494966951.130395) can0 167#80800009FFE00000
(1494966951.131893) can0 3E2#0000000080000000
(1494966951.132019) can0 3EB#1F04140000200000
(1494966951.133395) can0 178#012901E20E4DC64D
(1494966951.134770) can0 40A#C104010107CC70C1
(1494966951.137398) can0 083#0000000000017F02
(1494966951.138771) can0 3BC#0C000C8901002700
(1494966951.140271) can0 167#80800009FFE00000
(1494966951.140282) can0 3BE#0001E7CE7C064901
(1494966951.141646) can0 3C4#5754F8000000939E
(1494966951.143022) can0 42A#B90000E000000000
(1494966951.143147) can0 42C#055175002D3F6D40
(1494966951.144644) can0 42E#170000E0000FA2F1
(1494966951.144895) can0 216#0000000082000639
(1494966951.148773) can0 167#80800009FFE00000
(1494966951.155149) can0 33B#0000000000000000
(1494966951.157774) can0 51E#3B02000000000000
(1494966951.159149) can0 167#80800009FFE00000
(1494966951.164397) can0 216#0000000082000743
(1494966951.165780) can0 3B4#401111FF23230000
(1494966951.165899) can0 3A4#0000000000000000
(1494966951.167275) can0 3A5#0000000000000000
(1494966951.168652) can0 3AC#FFFFFFFFFFFFFFFF
(1494966951.168900) can0 167#80800009FFE00000
(1494966951.170398) can0 3AD#FFFFFFFFFFFFFFFF
(1494966951.179278) can0 167#80800009FFE00000
(1494966951.184401) can0 216#000000008200082D
(1494966951.188278) can0 083#0000000000017F03
(1494966951.188403) can0 3BC#0C00088901002700
(1494966951.189778) can0 167#80800009FFE00000
(1494966951.190027) can0 42A#B90000E000000000
(1494966951.191403) can0 42C#055154002D066C00
(1494966951.192778) can0 42E#130000E00003A2C0
(1494966951.199156) can0 167#80800009FFE00000
(1494966951.204280) can0 216#0000000082000931
(1494966951.208157) can0 333#0000000000000000
(1494966951.208403) can0 167#80800009FFE00000
(1494966951.214904) can0 33B#0000000000000000
(1494966951.216406) can0 3A4#0000000000000000
(1494966951.216418) can0 3A5#0000000000000000
(1494966951.217904) can0 326#81A02625F9D00178
(1494966951.219404) can0 167#80800009FFE00000
(1494966951.219531) can0 332#0000000000000000
(1494966951.220908) can0 346#000000030300C000
(1494966951.222282) can0 33A#0000000000000000
(1494966951.222407) can0 348#0000000000000000
(1494966951.223783) can0 3AC#FFFFFFFFFFFFFFFF
(1494966951.225157) can0 216#0000000082000A34
(1494966951.225409) can0 3AD#FFFFFFFFFFFFFFFF
(1494966951.226784) can0 3B3#4588C00C10040222
(1494966951.228157) can0 3C3#5CC8000000000100
(1494966951.228282) can0 167#80800009FFE00000
(1494966951.233409) can0 178#012901E20E4DC64D
(1494966951.237407) can0 083#0000000000017F02
(1494966951.238906) can0 3BC#0C000C8901002700
(1494966951.240284) can0 167#80800009FFE00000
(1494966951.240410) can0 3BE#0001E7CE7C064900
(1494966951.241784) can0 42A#B90000E000000000
(1494966951.243159) can0 42C#055175002D3E6C40
(1494966951.243409) can0 42E#170000E0000FA2F1
(1494966951.244785) can0 216#0000000082000B43
(1494966951.248662) can0 167#80800009FFE00000
(1494966951.256287) can0 53B#5D12000000000000
(1494966951.258912) can0 167#80800009FFE00000
(1494966951.265288) can0 216#0000000082000C36
(1494966951.265535) can0 3A4#0000000000000000
(1494966951.267035) can0 3A5#0000000000000000
(1494966951.267410) can0 3AC#FFFFFFFFFFFFFFFF
(1494966951.268913) can0 167#80800009FFE00000
(1494966951.270288) can0 3AD#FFFFFFFFFFFFFFFF
(1494966951.274536) can0 33B#0000000000000000
(1494966951.278538) can0 167#80800009FFE00000
(1494966951.284917) can0 216#0000000082000D30
(1494966951.287542) can0 083#0000000000017F02
(1494966951.288916) can0 3BC#0C00088901002700
(1494966951.289042) can0 167#80800009FFE00000
(1494966951.290415) can0 42A#B90000E000000000
(1494966951.291914) can0 42C#055154002D066C00
(1494966951.291926) can0 42E#130000E00003A2C0
(1494966951.298293) can0 167#80800009FFE00000
(1494966951.304668) can0 216#0000000082000E32
(1494966951.307294) can0 333#0000000000000000
(1494966951.308668) can0 167#80800009FFE00000
(1494966951.316418) can0 3A4#0000000000000000
(1494966951.316430) can0 3A5#0000000000000000
(1494966951.317918) can0 124#0202000000000000
(1494966951.319419) can0 167#80800009FFE00000
(1494966951.319430) can0 22C#000A000000000000
(1494966951.320795) can0 326#81A02625F9D00178
(1494966951.322296) can0 332#0000000000000000
(1494966951.322307) can0 346#000000030300C000
(1494966951.323670) can0 33A#0000000000000000
(1494966951.325048) can0 216#0000000082000F2D
(1494966951.325173) can0 348#0000000000000000
(1494966951.326547) can0 355#60071DA0008800E0
(1494966951.328045) can0 356#02BC373137310000
(1494966951.328057) can0 35E#00C0003896673000
(1494966951.329421) can0 167#80800009FFE00000
(1494966951.330796) can0 3A6#0E400A045F700000
(1494966951.330921) can0 3A7#0E400A045F700000
(1494966951.332419) can0 3AC#FFFFFFFFFFFFFFFF
(1494966951.333796) can0 178#012901E20E4DC64D
(1494966951.333922) can0 3AD#FFFFFFFFFFFFFFFF
(1494966951.335297) can0 33B#0000000000000000
(1494966951.336674) can0 3E7#0000000000000000
(1494966951.336795) can0 40A#C110418820250000
(1494966951.338292) can0 083#0000000000017F00
(1494966951.339669) can0 167#80800009FFE00000
(1494966951.339796) can0 3BC#0C000C8901002700
(1494966951.341172) can0 3BE#0001E7CE7C064900
(1494966951.342543) can0 3C4#5754F8000000939E
(1494966951.342669) can0 41A#7600000000000000
(1494966951.345419) can0 42A#B90000E000000000
(1494966951.345430) can0 216#0000000082001041
(1494966951.345439) can0 42C#055175002D3E6C40
(1494966951.346921) can0 42E#170000E0000FA2F1
(1494966951.348422) can0 55D#0402000000000000
(1494966951.348434) can0 167#80800009FFE00000
(1494966951.358675) can0 167#80800009FFE00000
(1494966951.365053) can0 216#0000000082001146
(1494966951.365176) can0 331#C0004B9C044A1002
(1494966951.366551) can0 3A4#0000000000000000
(1494966951.366922) can0 3A5#0000000000000000
(1494966951.368301) can0 3AC#FFFFFFFFFFFFFFFF
(1494966951.369800) can0 167#80800009FFE00000
(1494966951.369812) can0 3AD#FFFFFFFFFFFFFFFF
(1494966951.371175) can0 3B6#0800040000000000
(1494966951.372551) can0 3B7#0000020060C8022D
(1494966951.378928) can0 167#80800009FFE00000
(1494966951.385303) can0 216#0000000082001200
(1494966951.388052) can0 083#0000000000017F01
(1494966951.388064) can0 3BC#0C00088901002700
(1494966951.389428) can0 167#80800009FFE00000
(1494966951.390804) can0 42A#B90000E000000000
(1494966951.390928) can0 42C#055154002D066C00
(1494966951.392304) can0 42E#130000E00003A2C0
(1494966951.396303) can0 33B#0000000000000000
(1494966951.396315) can0 331#C0004B9D044A1002
(1494966951.398929) can0 167#80800009FFE00000
(1494966951.405307) can0 216#0000000082001300
(1494966951.407933) can0 333#0000000000000000
(1494966951.408179) can0 167#80800009FFE00000
(1494966951.415933) can0 3A4#0000000000000000
(1494966951.417432) can0 3A5#0000000000000000
(1494966951.417444) can0 3AC#FFFFFFFFFFFFFFFF
(1494966951.418930) can0 167#80800009FFE00000
(1494966951.420308) can0 326#81A02625F9D00178
(1494966951.420556) can0 332#0000000000000000
(1494966951.421933) can0 346#000000030300C000
(1494966951.422305) can0 33A#0000000000000000
(1494966951.423683) can0 348#0000000000000000
(1494966951.425061) can0 216#0000000082001454
(1494966951.425184) can0 3AD#FFFFFFFFFFFFFFFF
(1494966951.429182) can0 167#80800009FFE00000
(1494966951.430561) can0 304#0800000000000000
(1494966951.433185) can0 178#012901E20E4DC64D
(1494966951.438312) can0 083#0000000000017EFD
(1494966951.438436) can0 167#80800009FFE00000
(1494966951.439810) can0 3BC#0C000C8901002700
(1494966951.441308) can0 3BE#0001E7CE7C064900
(1494966951.441320) can0 42A#B90000E000000000
(1494966951.442685) can0 42C#055175002D3E6C40
(1494966951.444061) can0 42E#170000E0000FA2F1
(1494966951.444186) can0 216#0000000082001551
(1494966951.449312) can0 167#80800009FFE00000
(1494966951.449560) can0 504#0512000000000000
(1494966951.455939) can0 33B#0000000000000000
(1494966951.458563) can0 167#80800009FFE00000
(1494966951.459938) can0 35D#0000000000000000
(1494966951.465063) can0 216#0000000082001655
(1494966951.465436) can0 3A4#0000000000000000
(1494966951.466936) can0 3A5#0000000000000000
(1494966951.468439) can0 3AC#FFFFFFFFFFFFFFFF
(1494966951.468450) can0 167#80800009FFE00000
(1494966951.469939) can0 3AD#FFFFFFFFFFFFFFFF
(1494966951.478817) can0 167#80800009FFE00000
(1494966951.485195) can0 216#0000000082001755
(1494966951.487942) can0 083#0000000000017F05
(1494966951.487954) can0 3BC#0C00088901002700
(1494966951.489317) can0 167#80800009FFE00000
(1494966951.490692) can0 42A#B90000E000000000
(1494966951.490817) can0 42C#055154002D066C00
(1494966951.492192) can0 42E#130000E00003A2C0
(1494966951.498569) can0 167#80800009FFE00000
(1494966951.504946) can0 216#0000000082001854
(1494966951.507570) can0 333#0000000000000000
(1494966951.507818) can0 167#80800009FFE00000
(1494966951.515446) can0 33B#0000000000000000
(1494966951.515699) can0 3A4#0000000000000000
(1494966951.518321) can0 3A5#0000000000000000
(1494966951.518446) can0 3A6#0E400A045F700000
(1494966951.518569) can0 167#80800009FFE00000
(1494966951.520070) can0 2A0#FFFFFFFF00001E00
(1494966951.520444) can0 326#81A02625F9D00178
(1494966951.522069) can0 332#0000000000000000
(1494966951.522443) can0 346#000000030300C000
(1494966951.523943) can0 33A#0000000000000000
(1494966951.525445) can0 216#0000000082001910
(1494966951.525457) can0 348#0000000000000000
(1494966951.526826) can0 3A7#0E400A045F700000
(1494966951.528322) can0 3AC#FFFFFFFFFFFFFFFF
(1494966951.528334) can0 3AD#FFFFFFFFFFFFFFFF
(1494966951.529698) can0 167#80800009FFE00000
(1494966951.531072) can0 3E1#8000010701800000
(1494966951.531200) can0 40A#C000000336EBD400
(1494966951.533823) can0 178#012901E20E4DC64D
(1494966951.537823) can0 083#0000000000017F01
(1494966951.539198) can0 3BC#0C000C8901002700
(1494966951.539324) can0 167#80800009FFE00000
(1494966951.540698) can0 3BE#0001E7CE7C064900
(1494966951.542076) can0 3C4#5754F8300000939E
(1494966951.542199) can0 42A#B90000E000000000
(1494966951.543697) can0 42C#055175002D3E6C40
(1494966951.543949) can0 42E#170000E0000FA2F1
(1494966951.545325) can0 216#0000000082001A55
(1494966951.547951) can0 505#0B12000000000000
(1494966951.548075) can0 167#80800009FFE00000
(1494966951.558202) can0 167#80800009FFE00000
(1494966951.564701) can0 216#0000000082001B55
(1494966951.566200) can0 3A4#0000000000000000
(1494966951.566451) can0 3A5#0000000000000000
(1494966951.567950) can0 3AC#FFFFFFFFFFFFFFFF
(1494966951.569453) can0 167#80800009FFE00000
(1494966951.569465) can0 3AD#FFFFFFFFFFFFFFFF
(1494966951.575955) can0 33B#0000000000000000
(1494966951.578578) can0 167#80800009FFE00000
(1494966951.584957) can0 216#0000000082001C00
(1494966951.587581) can0 083#0000000000017F03
(1494966951.587828) can0 3BC#0C00088901002700
(1494966951.589327) can0 167#80800009FFE00000
(1494966951.590705) can0 42A#B90000E000000000
(1494966951.590830) can0 42C#055154002D066C00
(1494966951.592206) can0 42E#130000E00003A2C0
(1494966951.596082) can0 084#1100008823320C00
(1494966951.598706) can0 167#80800009FFE00000
(1494966951.605204) can0 216#0000000082001D15
(1494966951.607833) can0 333#0000000000000000
(1494966951.607959) can0 33C#2400000000000000
(1494966951.609332) can0 167#80800009FFE00000
(1494966951.615715) can0 3B6#0800050000000000
(1494966951.617087) can0 3A4#0000000000000000
(1494966951.617457) can0 3A5#0000000000000000
(1494966951.618834) can0 167#80800009FFE00000
(1494966951.620209) can0 326#81A02625F9D00178
(1494966951.620334) can0 332#0000000000000000
(1494966951.621709) can0 3AC#FFFFFFFFFFFFFFFF
(1494966951.623084) can0 33A#0000000000000000
(1494966951.623333) can0 3AD#FFFFFFFFFFFFFFFF
(1494966951.624710) can0 216#0000000082001E55
(1494966951.626086) can0 346#000000030300C000
(1494966951.626206) can0 348#0000000000000000
(1494966951.627581) can0 3B7#0000030060C8017C
(1494966951.628964) can0 3DE#0000000080000000
(1494966951.629209) can0 167#80800009FFE00000
(1494966951.630581) can0 3E0#0000000080000000
(1494966951.633331) can0 178#012901E20E4DC24D
(1494966951.635962) can0 33B#0000000000000000
(1494966951.637337) can0 083#0000000000017F01
(1494966951.638711) can0 167#80800009FFE00000
(1494966951.640211) can0 3BC#0C000C8901002700
(1494966951.640223) can0 3BE#0001E7CE7C064900
(1494966951.641587) can0 42A#B90000E000000000
(1494966951.642962) can0 42C#055175002D3E6C40
(1494966951.643088) can0 42E#170000E0000FA2F1
(1494966951.644462) can0 216#0000000082001F11
(1494966951.648461) can0 167#80800009FFE00000
(1494966951.651088) can0 50B#1E12000000000000
(1494966951.658715) can0 167#80800009FFE00000
(1494966951.660089) can0 3E7#0000000000000000
(1494966951.665215) can0 216#0000000082002051
(1494966951.665586) can0 3A4#0000000000000000
(1494966951.667090) can0 3A5#0000000000000000
(1494966951.667463) can0 3AC#FFFFFFFFFFFFFFFF
(1494966951.668965) can0 167#80800009FFE00000
(1494966951.670464) can0 3AD#FFFFFFFFFFFFFFFF
(1494966951.679343) can0 167#80800009FFE00000
(1494966951.684590) can0 216#0000000082002115
(1494966951.687220) can0 083#0000000000017F00
(1494966951.688593) can0 3BC#0C00088901002700
(1494966951.688841) can0 167#80800009FFE00000
(1494966951.690218) can0 42A#B90000E000000000
(1494966951.691594) can0 42C#055154002D066C00
(1494966951.691841) can0 42E#130000E00003A2C0
(1494966951.695722) can0 33B#0000000000000000
(1494966951.698345) can0 167#80800009FFE00000
(1494966951.704720) can0 216#0000000082002215
(1494966951.707346) can0 333#0000000000000000
(1494966951.708717) can0 167#80800009FFE00000
(1494966951.716595) can0 3A4#0000000000000000
(1494966951.716609) can0 3A5#0000000000000000
(1494966951.718097) can0 3A6#0E400A045F700000
(1494966951.718469) can0 167#80800009FFE00000
(1494966951.719846) can0 326#81A02625F9D00178
(1494966951.721221) can0 332#0000000000000000
(1494966951.721470) can0 346#000000030300C000
(1494966951.722846) can0 33A#0000000000000000
(1494966951.724221) can0 348#0000000000000000
(1494966951.724348) can0 3A7#0E400A045F700000
(1494966951.725726) can0 216#0000000082002340
(1494966951.727098) can0 3AC#FFFFFFFFFFFFFFFF
(1494966951.727346) can0 3AD#FFFFFFFFFFFFFFFF
(1494966951.728723) can0 3B3#4588C00C10040222
(1494966951.730098) can0 167#80800009FFE00000
(1494966951.730223) can0 40A#C100334641365030
(1494966951.732974) can0 178#012901E20E4DC64D
(1494966951.738101) can0 51E#3B02000000000000
(1494966951.738348) can0 083#0000000000017F01
(1494966951.739724) can0 167#80800009FFE00000
(1494966951.739972) can0 3BC#0C000C8901002700
(1494966951.741349) can0 3BE#0001E7CE7C064900
(1494966951.742724) can0 3C4#5754F8400000939E
(1494966951.742849) can0 42A#B90000E000000000
(1494966951.744224) can0 42C#055175002D3E6C40
(1494966951.745599) can0 216#0000000082000000
(1494966951.745726) can0 42E#170000E0000FA2F1
(1494966951.748350) can0 167#80800009FFE00000
(1494966951.755978) can0 33B#0000000000000000
(1494966951.758724) can0 167#80800009FFE00000
(1494966951.765106) can0 216#0000000082000100
(1494966951.765599) can0 3A4#0000000000000000
(1494966951.767102) can0 3A5#0000000000000000
(1494966951.767476) can0 3AC#FFFFFFFFFFFFFFFF
(1494966951.768977) can0 167#80800009FFE00000
(1494966951.770601) can0 3AD#FFFFFFFFFFFFFFFF
(1494966951.778230) can0 167#80800009FFE00000
(1494966951.784607) can0 216#00000000820002FA
(1494966951.787233) can0 083#0000000000017EFE
(1494966951.788606) can0 3BC#0C00088901002700
(1494966951.788853) can0 167#80800009FFE00000
(1494966951.790353) can0 42A#B90000E000000000
(1494966951.791730) can0 42C#055154002D066C00
(1494966951.791856) can0 42E#130000E00003A2C0
(1494966951.798233) can0 167#80800009FFE00000
(1494966951.804607) can0 216#00000000820003B3
(1494966951.807234) can0 333#0000000000000000
(1494966951.808732) can0 167#80800009FFE00000
(1494966951.816360) can0 33B#0000000000000000
(1494966951.816484) can0 3A4#0000000000000000
(1494966951.816732) can0 3A5#0000000000000000
(1494966951.819362) can0 3AC#FFFFFFFFFFFFFFFF
(1494966951.819485) can0 167#80800009FFE00000
(1494966951.819609) can0 326#81A02625F9D00178
(1494966951.822235) can0 332#0000000000000000
(1494966951.822359) can0 346#000000030300C000
(1494966951.822607) can0 33A#0000000000000000
(1494966951.825235) can0 348#0000000000000000
(1494966951.825360) can0 216#0000000082000448
(1494966951.825607) can0 33F#0200200000000000
(1494966951.827109) can0 3AD#FFFFFFFFFFFFFFFF
(1494966951.828487) can0 167#80800009FFE00000
(1494966951.833614) can0 178#012901E20E4DC64D
(1494966951.837490) can0 53B#5D12000000000000
(1494966951.837735) can0 083#0000000000017F01
(1494966951.840488) can0 167#80800009FFE00000
(1494966951.840506) can0 3BC#0C000C8901002700
(1494966951.840625) can0 3BE#0001E7CE7C064900
(1494966951.842112) can0 42A#B90000E000000000
(1494966951.842486) can0 42C#055175002D3E6C40
(1494966951.844110) can0 42E#170000E0000FA2F1
(1494966951.844486) can0 216#0000000082000547
(1494966951.848367) can0 167#80800009FFE00000
(1494966951.858492) can0 167#80800009FFE00000
(1494966951.864867) can0 216#0000000082000639
(1494966951.866243) can0 3B6#0800060000000000
(1494966951.866489) can0 3A4#0000000000000000
(1494966951.867868) can0 3A5#0000000000000000
(1494966951.869245) can0 167#80800009FFE00000
(1494966951.869368) can0 3AC#FFFFFFFFFFFFFFFF
(1494966951.870743) can0 3AD#FFFFFFFFFFFFFFFF
(1494966951.872118) can0 3B7#0000000060C801CE
(1494966951.876116) can0 33B#0000000000000000
(1494966951.878743) can0 167#80800009FFE00000
(1494966951.885125) can0 216#0000000082000743
(1494966951.887746) can0 083#0000000000017F04
(1494966951.887870) can0 3BC#0C00088901002700
(1494966951.889246) can0 167#80800009FFE00000
(1494966951.890744) can0 42A#B90000E000000000
(1494966951.890868) can0 42C#055154002D066C00
(1494966951.892245) can0 42E#130000E00003A2C0
(1494966951.898623) can0 167#80800009FFE00000
(1494966951.904999) can0 216#000000008200082D
(1494966951.907624) can0 333#0000000000000000
(1494966951.907870) can0 167#80800009FFE00000
(1494966951.915621) can0 3A4#0000000000000000
(1494966951.917126) can0 3A5#0000000000000000
(1494966951.917496) can0 3A6#0E400A045F700000
(1494966951.918996) can0 167#80800009FFE00000
(1494966951.920497) can0 332#0000000000000000
(1494966951.920624) can0 326#81A02625F9D00178
(1494966951.922121) can0 33A#0000000000000000
(1494966951.922372) can0 346#000000030300C000
(1494966951.923750) can0 348#0000000000000000
(1494966951.925127) can0 216#0000000082000931
(1494966951.925371) can0 3A7#0E400A045F700000
(1494966951.926874) can0 3AC#FFFFFFFFFFFFFFFF
(1494966951.928250) can0 3AD#FFFFFFFFFFFFFFFF
(1494966951.928374) can0 40A#C1014C5534485233
(1494966951.929750) can0 167#80800009FFE00000
(1494966951.931125) can0 55D#0402000000000000
(1494966951.932747) can0 178#012901E20E4DC24D
(1494966951.935376) can0 33B#0000000000000000
(1494966951.938004) can0 083#0000000000017EFD
(1494966951.938127) can0 3BC#0C000C8901002700
(1494966951.939501) can0 167#80800009FFE00000
(1494966951.940877) can0 3BE#0001E7CE7C064900
(1494966951.941128) can0 3C4#5754F8000000939E
(1494966951.942504) can0 3D5#4121094000000000
(1494966951.943878) can0 42A#B90000E000000000
(1494966951.944005) can0 42C#055175002D3E6C40
(1494966951.945378) can0 216#0000000082000A34
(1494966951.946754) can0 42E#170000E0000FA2F1
(1494966951.949501) can0 167#80800009FFE00000
(1494966951.958381) can0 167#80800009FFE00000
(1494966951.964756) can0 216#0000000082000B43
(1494966951.967382) can0 3A4#0000000000000000
(1494966951.967502) can0 3A5#0000000000000000
(1494966951.967626) can0 3AC#FFFFFFFFFFFFFFFF
(1494966951.969250) can0 167#80800009FFE00000
(1494966951.969500) can0 3AD#FFFFFFFFFFFFFFFF
(1494966951.978383) can0 167#80800009FFE00000
(1494966951.984758) can0 216#0000000082000C36
(1494966951.987384) can0 083#0000000000017EFF
(1494966951.988759) can0 3BC#0C00088901002700
(1494966951.989009) can0 167#80800009FFE00000
(1494966951.990384) can0 42A#B90000E000000000
(1494966951.991759) can0 42C#055154002D066C00
(1494966951.991884) can0 42E#130000E00003A2C0
(1494966951.995765) can0 33B#0000000000000000
(1494966951.998386) can0 167#80800009FFE00000
(1494966952.004883) can0 216#0000000082000D30
(1494966952.007512) can0 333#0000000000000000
(1494966952.008886) can0 167#80800009FFE00000
(1494966952.016514) can0 3A4#0000000000000000
(1494966952.016637) can0 3A5#0000000000000000
(1494966952.019263) can0 3AC#FFFFFFFFFFFFFFFF
(1494966952.019388) can0 167#80800009FFE00000
(1494966952.019512) can0 332#0000000000000000
(1494966952.021012) can0 346#000000030300C000
(1494966952.022511) can0 326#81A02625F9D00178
(1494966952.022529) can0 33A#0000000000000000
(1494966952.024013) can0 348#0000000000000000
(1494966952.025512) can0 216#0000000082000E32
(1494966952.025529) can0 3AD#FFFFFFFFFFFFFFFF
(1494966952.029391) can0 504#0512000000000000
(1494966952.029514) can0 167#80800009FFE00000
(1494966952.033513) can0 178#012901E20E4DC64D
(1494966952.037512) can0 083#0000000000017F01
(1494966952.038890) can0 2FD#D400E30000000000
(1494966952.039137) can0 167#80800009FFE00000
(1494966952.040515) can0 3BC#0C000C8901002700
(1494966952.041891) can0 3BE#0001E7CE7C064900
(1494966952.042015) can0 42A#B90000E000000000
(1494966952.043513) can0 42C#055175002D3E6C40
(1494966952.044891) can0 42E#170000E0000FA2F1
(1494966952.045024) can0 216#0000000082000F2D
(1494966952.048893) can0 167#80800009FFE00000
(1494966952.055268) can0 33B#0000000000000000
(1494966952.059144) can0 167#80800009FFE00000
(1494966952.064390) can0 216#0000000082001041
(1494966952.067020) can0 3A4#0000000000000000
(1494966952.067143) can0 3A5#0000000000000000
(1494966952.068519) can0 3AC#FFFFFFFFFFFFFFFF
(1494966952.068644) can0 167#80800009FFE00000
(1494966952.070144) can0 3AD#FFFFFFFFFFFFFFFF
(1494966952.079143) can0 167#80800009FFE00000
(1494966952.079161) can0 1E6#800CE2CE00000000
(1494966952.084272) can0 216#0000000082001146
(1494966952.088152) can0 083#0000000000017F00
(1494966952.088272) can0 3BC#0C00088901002700
(1494966952.089647) can0 167#80800009FFE00000
(1494966952.089895) can0 42A#B90000E000000000
(1494966952.091272) can0 42C#055154002D066C00
(1494966952.092647) can0 42E#130000E00003A2C0
(1494966952.096524) can0 34E#0000000000000000
(1494966952.096648) can0 358#0000000000000000
(1494966952.099274) can0 167#80800009FFE00000
(1494966952.104522) can0 216#0000000082001200
(1494966952.108401) can0 333#0000000000000000
(1494966952.108524) can0 167#80800009FFE00000
(1494966952.116153) can0 33B#0000000000000000
(1494966952.116276) can0 3A4#0000000000000000
(1494966952.117651) can0 3A5#0000000000000000
(1494966952.117899) can0 332#0000000000000000
(1494966952.119276) can0 3A6#0E400A045F700000
(1494966952.120650) can0 33A#0000000000000000
(1494966952.120776) can0 3A7#0E400A045F700000
(1494966952.123401) can0 326#81A02625F9D00178
(1494966952.123650) can0 3AC#FFFFFFFFFFFFFFFF
(1494966952.123666) can0 3AD#FFFFFFFFFFFFFFFF
(1494966952.126279) can0 3B6#0800070000000000
(1494966952.126402) can0 3B7#0000010060C80084
(1494966952.126527) can0 167#80800009FFE00000
(1494966952.128025) can0 216#0000000082001300
(1494966952.129650) can0 346#000000030300C000
(1494966952.129667) can0 167#80800009FFE00000
(1494966952.131150) can0 348#0000000000000000
(1494966952.131525) can0 3E2#0000000080000000
(1494966952.133028) can0 3EB#1F04140000200000
(1494966952.134525) can0 178#012901E20E4DC64D
(1494966952.134650) can0 40A#C1023130353736FF
(1494966952.136032) can0 505#0B12000000000000
(1494966952.137404) can0 083#0000000000017EFE
(1494966952.138778) can0 3BC#0C000C8901002700
(1494966952.139150) can0 167#80800009FFE00000
(1494966952.140528) can0 3BE#0001E7CE7C064901
(1494966952.142028) can0 3C4#5754F8000000939E
(1494966952.142045) can0 42A#B90000E000000000
(1494966952.143405) can0 42C#055175002D3F6D40
(1494966952.144779) can0 42E#170000E0000FA2F1
(1494966952.144904) can0 216#0000000082001454
(1494966952.148781) can0 167#80800009FFE00000
(1494966952.159029) can0 167#80800009FFE00000
(1494966952.165407) can0 216#0000000082001551
(1494966952.165532) can0 3B4#401111FF23230000
(1494966952.166908) can0 3A4#0000000000000000
(1494966952.167031) can0 3A5#0000000000000000
(1494966952.168408) can0 3AC#FFFFFFFFFFFFFFFF
(1494966952.169906) can0 167#80800009FFE00000
(1494966952.169924) can0 3AD#FFFFFFFFFFFFFFFF
(1494966952.176285) can0 33B#0000000000000000
(1494966952.178909) can0 167#80800009FFE00000
(1494966952.185285) can0 216#0000000082001655
(1494966952.187911) can0 083#0000000000017F01
(1494966952.188159) can0 3BC#0C00088901002700
(1494966952.189535) can0 167#80800009FFE00000
(1494966952.189783) can0 42A#B90000E000000000
(1494966952.192410) can0 42C#055154002D066C00
(1494966952.192535) can0 42E#130000E00003A2C0
(1494966952.199033) can0 167#80800009FFE00000
(1494966952.205413) can0 216#0000000082001755
(1494966952.208038) can0 333#0000000000000000
(1494966952.208162) can0 167#80800009FFE00000
(1494966952.215795) can0 3B3#4588C00C10040222
(1494966952.217160) can0 3A4#0000000000000000
(1494966952.217408) can0 3A5#0000000000000000
(1494966952.218784) can0 332#0000000000000000
(1494966952.220160) can0 167#80800009FFE00000
(1494966952.220285) can0 33A#0000000000000000
(1494966952.221660) can0 346#000000030300C000
(1494966952.223035) can0 326#81A02625F9D00178
(1494966952.223283) can0 348#0000000000000000
(1494966952.224661) can0 216#0000000082001854
(1494966952.226040) can0 3AC#FFFFFFFFFFFFFFFF
(1494966952.226165) can0 3AD#FFFFFFFFFFFFFFFF
(1494966952.227540) can0 3C3#5CC8000000000100
(1494966952.228915) can0 167#80800009FFE00000
(1494966952.231663) can0 50B#1E12000000000000
(1494966952.233162) can0 178#012901E20E4DC64D
(1494966952.235797) can0 33B#0000000000000000
(1494966952.238417) can0 083#0000000000017F01
(1494966952.238541) can0 3BC#0C000C8901002700
(1494966952.239916) can0 167#80800009FFE00000
(1494966952.240165) can0 3BE#0001E7CE7C064900
(1494966952.241542) can0 42A#B90000E000000000
(1494966952.242917) can0 42C#055175002D3E6C40
(1494966952.243042) can0 42E#170000E0000FA2F1
(1494966952.244416) can0 216#0000000082001910
(1494966952.248294) can0 167#80800009FFE00000
(1494966952.258542) can0 167#80800009FFE00000
(1494966952.264921) can0 216#0000000082001A55
(1494966952.266297) can0 3A4#0000000000000000
(1494966952.267670) can0 3A5#0000000000000000
(1494966952.267795) can0 3AC#FFFFFFFFFFFFFFFF
(1494966952.270421) can0 167#80800009FFE00000
(1494966952.270669) can0 3AD#FFFFFFFFFFFFFFFF
(1494966952.278298) can0 167#80800009FFE00000
(1494966952.284672) can0 216#0000000082001B55
(1494966952.287299) can0 083#0000000000017F01
(1494966952.288673) can0 3BC#0C00088901002700
(1494966952.288798) can0 167#80800009FFE00000
(1494966952.291424) can0 42A#B90000E000000000
(1494966952.291548) can0 42C#055154002D066C00
(1494966952.291672) can0 42E#130000E00003A2C0
(1494966952.295549) can0 33B#0000000000000000
(1494966952.299426) can0 167#80800009FFE00000
(1494966952.304672) can0 216#0000000082001C00
(1494966952.307301) can0 333#0000000000000000
(1494966952.308675) can0 167#80800009FFE00000
(1494966952.316425) can0 40A#C104010107CC70C1
(1494966952.316673) can0 3A4#0000000000000000
(1494966952.318176) can0 3A5#0000000000000000
(1494966952.318674) can0 167#80800009FFE00000
(1494966952.320175) can0 332#0000000000000000
(1494966952.320549) can0 346#000000030300C000
(1494966952.322050) can0 33A#0000000000000000
(1494966952.323551) can0 124#0202000000000000
(1494966952.323568) can0 22C#000A000000000000
(1494966952.325052) can0 216#0000000082001D15
(1494966952.326429) can0 326#81A02625F9D00178
(1494966952.326553) can0 348#0000000000000000
(1494966952.327928) can0 355#60071DA0008800E0
(1494966952.329304) can0 356#02BC373137310000
(1494966952.329428) can0 167#80800009FFE00000
(1494966952.330925) can0 35E#00C0003896673000
(1494966952.331176) can0 3A6#0E400A045F700000
(1494966952.332554) can0 3A7#0E400A045F700000
(1494966952.333929) can0 178#012901E20E4DC64D
(1494966952.334054) can0 3AC#FFFFFFFFFFFFFFFF
(1494966952.335429) can0 3AD#FFFFFFFFFFFFFFFF
(1494966952.336929) can0 3E7#0000000000000000
(1494966952.337055) can0 41A#7600000000000000
(1494966952.338430) can0 083#0000000000017EFF
(1494966952.339805) can0 167#80800009FFE00000
(1494966952.339930) can0 3BC#0C000C8901002700
(1494966952.341306) can0 3BE#0001E7CE7C064900
(1494966952.342804) can0 3C4#5754F8000000939E
(1494966952.342821) can0 42A#B90000E000000000
(1494966952.345430) can0 42C#055175002D3E6C40
(1494966952.345555) can0 216#0000000082001E55
(1494966952.345686) can0 42E#170000E0000FA2F1
(1494966952.348306) can0 51E#3B02000000000000
(1494966952.348554) can0 167#80800009FFE00000
(1494966952.356304) can0 33B#0000000000000000
(1494966952.358932) can0 167#80800009FFE00000
(1494966952.365312) can0 216#0000000082001F11
(1494966952.365433) can0 331#C0004B9D044A1002
(1494966952.366930) can0 3A4#0000000000000000
(1494966952.367181) can0 3A5#0000000000000000
(1494966952.368559) can0 3AC#FFFFFFFFFFFFFFFF
(1494966952.369934) can0 167#80800009FFE00000
(1494966952.370181) can0 3AD#FFFFFFFFFFFFFFFF
(1494966952.371558) can0 3B6#0800080000000000
(1494966952.373058) can0 3B7#0000020060C8022D
(1494966952.379436) can0 167#80800009FFE00000
